# HZ S RI R 50
1000000000 -0.054596592767734105 0.9952138291889568 0.03398584423449107 -0.07057786320777805 0 0 0 0
1000990000 -0.046012289123014465 0.998563749672895 0.034868193600734065 -0.0705361396400862 0 0 0 0
1001981000 -0.045826514835247634 0.9966888755227912 0.0351458805980317 -0.07059786988803843 0 0 0 0
1002971000 -0.05295964252934754 1.001692719535332 0.03522407785596552 -0.07060025305880771 0 0 0 0
1003962000 -0.0508243458484685 1.0011047163853368 0.03508032115887834 -0.07090514436520921 0 0 0 0
1004952000 -0.044456667752071855 0.9958406299785523 0.03499244067863426 -0.07047239077734174 0 0 0 0
1005943000 -0.029856441412423083 0.9986597887711298 0.03477792891916026 -0.07095326866691476 0 0 0 0
1006934000 -0.0382094233655998 1.004778440390859 0.03622124233618239 -0.07081457608838078 0 0 0 0
1007924000 -0.030823789104815154 1.0029381429762558 0.03551127003532057 -0.07196891200282893 0 0 0 0
1008915000 -0.026974829578900364 0.9985011198519579 0.03525857997082882 -0.07065481837666732 0 0 0 0
1009905000 -0.03048337581920819 0.9995820648443652 0.03471452618365615 -0.07183562429116563 0 0 0 0
1010896000 -0.023926019534427447 1.0013727071804273 0.03485433604640128 -0.07201928117184109 0 0 0 0
1011886000 -0.017303816379757635 0.9974508924767704 0.034876744989076655 -0.07178133894924538 0 0 0 0
1012877000 -0.026984008496115562 0.9903343855582624 0.03514000459047001 -0.07160671871022913 0 0 0 0
1013868000 -0.020101772952317465 0.9983601678873856 0.03549592139643822 -0.07183977969637335 0 0 0 0
1014858000 -0.011820637142139665 0.998164058402284 0.03472414868021562 -0.07257745220641125 0 0 0 0
1015849000 -0.015227246264691211 0.9988264479404054 0.03546702704130054 -0.07218912030119322 0 0 0 0
1016839000 -0.010840770117619873 1.0019523556167762 0.03481353962204744 -0.07310884362200734 0 0 0 0
1017830000 -0.007202626499469365 0.9960669486869725 0.034321372128730765 -0.07301750363262015 0 0 0 0
1018821000 0.0005532243556035887 1.0113204906544795 0.034170693697046055 -0.0742978265003266 0 0 0 0
1019811000 -0.006746790795741166 0.9958151341633976 0.03400563677586775 -0.07319630399233962 0 0 0 0
1020802000 -0.004297549330147851 1.0006737300252344 0.034053749084892324 -0.07426203021189827 0 0 0 0
1021792000 -0.005679116561265035 0.9990535953353576 0.03398503266068792 -0.0742438110620946 0 0 0 0
1022783000 0.000513224953400639 1.003962877049862 0.03416916633161761 -0.07411676940093839 0 0 0 0
1023773000 0.0016017330265965318 0.9969163283844329 0.033835054177035626 -0.0740530486312738 0 0 0 0
1024764000 0.006252443767465678 1.0021861077121226 0.03401024177403172 -0.07481150468617435 0 0 0 0
1025755000 0.001377967112896484 1.0006493564370242 0.034192714788544666 -0.07435871145779654 0 0 0 0
1026745000 0.015032542100518175 1.001223419491293 0.0349058517544125 -0.07436322769665024 0 0 0 0
1027736000 0.012295820362850875 0.9955790429498209 0.033248083024782604 -0.07456666311638356 0 0 0 0
1028726000 0.013280722442588527 0.9960689358787024 0.033975197175983074 -0.0748341402442704 0 0 0 0
1029717000 0.02794290875112372 0.9993938589385609 0.03309003843630724 -0.07497731076729143 0 0 0 0
1030707000 0.01869476368429591 1.0038884445605283 0.03362814090812726 -0.07515071848621613 0 0 0 0
1031698000 0.02200224457022891 0.9991499833945434 0.03335343769786103 -0.07510887425397533 0 0 0 0
1032689000 0.02029034923932382 0.9977886576043374 0.03290370638660177 -0.0753454605240821 0 0 0 0
1033679000 0.03021402279541905 0.9912293751287451 0.032222986481735785 -0.07559809605152329 0 0 0 0
1034670000 0.028708057821994225 0.9972282628619185 0.03275342782551995 -0.0758444443050738 0 0 0 0
1035660000 0.024294153438765904 0.9938850205351974 0.032899541390150576 -0.07485685369608389 0 0 0 0
1036651000 0.03901172499942407 1.0016214749220702 0.032451030230651996 -0.07611967433554584 0 0 0 0
1037642000 0.04729367881369842 1.0038071406828313 0.03098030473802945 -0.07657163782372199 0 0 0 0
1038632000 0.039249643446173106 0.9957526289476675 0.03216761081445661 -0.07538441827678492 0 0 0 0
1039623000 0.03450491529100973 0.9973842614649381 0.032445677981552845 -0.07540013748189112 0 0 0 0
1040613000 0.03597031903657911 0.9924757141965721 0.03197018980867263 -0.07552313937871231 0 0 0 0
1041604000 0.04210798627687765 1.0028010092067936 0.031873177983065215 -0.07616405671017606 0 0 0 0
1042594000 0.04107775455708428 0.9947224773979939 0.032544698530768086 -0.07529870627124934 0 0 0 0
1043585000 0.03665301660461505 0.9940373476586872 0.03192305614762619 -0.07538400751132705 0 0 0 0
1044576000 0.04650673436560315 0.990184031210565 0.03101219109120204 -0.07606872055942532 0 0 0 0
1045566000 0.05043988464363277 1.0033646766608348 0.03230406178679489 -0.07612220116315362 0 0 0 0
1046557000 0.05916063327752504 1.0005943208875114 0.03152536012713808 -0.07670161621833657 0 0 0 0
1047547000 0.04784204367132579 0.9954331605092754 0.03139990114300195 -0.07595574699581359 0 0 0 0
1048538000 0.0557907064346117 0.9933539717300245 0.031260435028985976 -0.07645799889719253 0 0 0 0
1049529000 0.052192996797349636 0.9946444281807805 0.031771069529802215 -0.07609851552026087 0 0 0 0
1050519000 0.06219101100772015 0.9972281637623754 0.03191482162282678 -0.07665458285565084 0 0 0 0
1051510000 0.0624733758920415 0.9970298908808576 0.030565975965909684 -0.07680384356991227 0 0 0 0
1052500000 0.06413425300728837 0.9954320283441568 0.03145860870825436 -0.07683878783891149 0 0 0 0
1053491000 0.07450683205716735 1.0003424360969013 0.03210503259880999 -0.0767326510253738 0 0 0 0
1054481000 0.07415856188729322 1.000300181788745 0.031761932002958036 -0.07730085387509833 0 0 0 0
1055472000 0.07205932685025533 0.993185384373117 0.03144558955732869 -0.07733670681144528 0 0 0 0
1056463000 0.06716140485011993 0.9968774296263672 0.033433922777481355 -0.07705292799461776 0 0 0 0
1057453000 0.08115815400101098 1.0016408609416936 0.03273074147958573 -0.07773031929228968 0 0 0 0
1058444000 0.07675745393796234 0.9954828878649571 0.03278366795619026 -0.07709647703693612 0 0 0 0
1059434000 0.07923723815947238 0.9920125091157205 0.03131231333956308 -0.07817599351997538 0 0 0 0
1060425000 0.08993845417031582 0.9947774259979759 0.03235944859194764 -0.07865294635269528 0 0 0 0
1061415000 0.09835825808443902 0.9852083055657009 0.031328973955376684 -0.07868290427724266 0 0 0 0
1062406000 0.0991456169292949 0.9955428226090147 0.03218007456245895 -0.07849620784948114 0 0 0 0
1063397000 0.08520173636481303 0.992004616630772 0.0323540381114249 -0.07904865695753152 0 0 0 0
1064387000 0.09075678758367563 0.9916227090972074 0.03259121577988901 -0.0792798854793756 0 0 0 0
1065378000 0.09721962126771175 0.9927647821232007 0.03204348657065846 -0.07980524854611241 0 0 0 0
1066368000 0.08582992721771836 0.9974286082838504 0.03288191427100649 -0.07938021126714749 0 0 0 0
1067359000 0.09648284028199931 0.9993857015595459 0.032991079000161926 -0.08020842629595852 0 0 0 0
1068350000 0.10064001022844116 0.9956861797150697 0.03132415224737935 -0.08068059797425148 0 0 0 0
1069340000 0.11300494989542612 0.9935525448726522 0.030728884806363283 -0.08111307113437555 0 0 0 0
1070331000 0.10377460706719006 0.9923259803053298 0.03148654718981116 -0.08074682194847595 0 0 0 0
1071321000 0.10910277833450285 0.9948009620594768 0.03199235143104273 -0.08100688541166612 0 0 0 0
1072312000 0.11334800629881289 0.9945970850761674 0.03102927010397486 -0.0819135800072631 0 0 0 0
1073302000 0.11090200635442074 0.9940826577852486 0.03138266925421672 -0.08155884749201155 0 0 0 0
1074293000 0.11883650164808286 0.9945104094833777 0.031991831633737956 -0.08169471761381485 0 0 0 0
1075284000 0.11635300882726073 0.9902198873825966 0.02958290774604336 -0.08248027921231356 0 0 0 0
1076274000 0.12412024942458816 0.9946748717067586 0.030761286271403437 -0.08234364711646745 0 0 0 0
1077265000 0.1261670423076988 0.9917562889541693 0.029973070206499332 -0.08257171772227313 0 0 0 0
1078255000 0.1253105428241898 0.9940366280562727 0.03098823443369682 -0.08313969155243361 0 0 0 0
1079246000 0.12677389795231306 0.9882572876141621 0.030365670291964186 -0.08286444189844383 0 0 0 0
1080236000 0.13733517584740054 0.9885926207669155 0.029231190144217892 -0.08276717817551865 0 0 0 0
1081227000 0.13660545872635987 0.9915753477550686 0.029850551432965538 -0.08360358592654873 0 0 0 0
1082218000 0.12745042837315293 0.9920613630669135 0.03107751906102974 -0.08291697634615547 0 0 0 0
1083208000 0.14070910476393605 0.9847764138881422 0.0306041543731009 -0.0826819138575366 0 0 0 0
1084199000 0.13870339826959163 0.9925826682721965 0.030458306171728716 -0.08409612098245613 0 0 0 0
1085189000 0.13720992870636778 1.000136575131375 0.02991004995441099 -0.08456952536361013 0 0 0 0
1086180000 0.15360968505303002 0.9918762906764804 0.02875712710806419 -0.08455694488697775 0 0 0 0
1087171000 0.14436865709120486 0.999034041740502 0.029555639968075274 -0.08446947381408665 0 0 0 0
1088161000 0.150867480849594 0.9927564819788052 0.029087052325141315 -0.08452828699898568 0 0 0 0
1089152000 0.15499447237048578 0.9861874066357371 0.029495344229624774 -0.0844998185088055 0 0 0 0
1090142000 0.14787207856625337 0.9932706731540375 0.029172249561902053 -0.08507483573875574 0 0 0 0
1091133000 0.15083872334172993 0.9890187969443449 0.029557338357633075 -0.08488655419024588 0 0 0 0
1092123000 0.15118488351621262 0.9887016849617251 0.030100190874379342 -0.08480723644637446 0 0 0 0
1093114000 0.1604346044773759 0.9872531419082478 0.027752296403936533 -0.08572980465144368 0 0 0 0
1094105000 0.15650512952251538 0.9879865426689006 0.029138963002979988 -0.0848131359452179 0 0 0 0
1095095000 0.16426450392718028 0.9838048299151572 0.029361450720270226 -0.08513589402047915 0 0 0 0
1096086000 0.15770911804963622 0.9937200918368629 0.029636886684083628 -0.085626878554074 0 0 0 0
1097076000 0.16486643847758004 0.9819495081342676 0.028291030480238726 -0.08552105910258201 0 0 0 0
1098067000 0.17284052343778272 0.9862726965427175 0.02979523712465144 -0.0860840815483219 0 0 0 0
1099058000 0.17324783943315566 0.9894380811219748 0.029815174921329273 -0.0868217831816684 0 0 0 0
1100049000 0.17370437934481112 0.9904281999164167 0.028580750252160076 -0.08720017432740236 0 0 0 0
1101039000 0.17772769531270718 0.985723131897075 0.02872065061799361 -0.08679738359936752 0 0 0 0
1102030000 0.18409308215770703 0.9850677523600669 0.028728608241184613 -0.08780175775386705 0 0 0 0
1103020000 0.1869211292062409 0.9855050209904418 0.028139445323306977 -0.08791385025047241 0 0 0 0
1104011000 0.17357692064767127 0.9899340186573633 0.02968866031088778 -0.08756624487895127 0 0 0 0
1105001000 0.1863055912733533 0.9823206591283418 0.02903233579050266 -0.08804918411778039 0 0 0 0
1105992000 0.19084185916875984 0.983138520686281 0.02728026244253373 -0.08896125928961236 0 0 0 0
1106983000 0.19086890863300987 0.9822799035746064 0.0296158439783697 -0.08857616190950114 0 0 0 0
1107973000 0.19997028558063795 0.9848996560854497 0.029430020760261993 -0.08912285171585442 0 0 0 0
1108964000 0.18432835480830928 0.9865192201684009 0.030396991511559963 -0.08985186138105263 0 0 0 0
1109954000 0.20423932191677927 0.977656978274105 0.029353365848063296 -0.08963620332034078 0 0 0 0
1110945000 0.20049943967886866 0.9805892520530137 0.02797422936937227 -0.09038602569491484 0 0 0 0
1111936000 0.2040168616043277 0.978898071673817 0.02913635897655776 -0.08997803387093958 0 0 0 0
1112926000 0.21639871061119176 0.9814358978742436 0.028613718903446782 -0.09133157391670005 0 0 0 0
1113917000 0.20497006584507618 0.9791433314906213 0.028305836318228268 -0.0910033063026853 0 0 0 0
1114907000 0.20452368319304054 0.9743614335941855 0.028703189831553736 -0.09113551507435334 0 0 0 0
1115898000 0.21530432849734563 0.9773767193597661 0.028280547947918063 -0.09194455352101413 0 0 0 0
1116889000 0.21416888291433137 0.980155309457227 0.028592750594068427 -0.09240385211355606 0 0 0 0
1117879000 0.21058940227547346 0.9762312534384401 0.027093146389508462 -0.09278724993460427 0 0 0 0
1118870000 0.21351975427804296 0.9759186987561942 0.02830881771117489 -0.09210264309585357 0 0 0 0
1119860000 0.22025113618426745 0.9749078030794086 0.026148080453563646 -0.09380289134919381 0 0 0 0
1120851000 0.2188285412474284 0.9780073564628251 0.026505664900616125 -0.09388723546258075 0 0 0 0
1121841000 0.23260408114399295 0.9775252916378118 0.026008924125750656 -0.09459895814374214 0 0 0 0
1122832000 0.22924501224223673 0.9737216790534438 0.02529208495069706 -0.09426311513684812 0 0 0 0
1123823000 0.2345463941877883 0.9697744866016357 0.02529497150849529 -0.09435153277133135 0 0 0 0
1124813000 0.23055014516913958 0.9637092204100316 0.024945363134967875 -0.09352803913639143 0 0 0 0
1125804000 0.23881845624083572 0.9774040740761182 0.024714636573984018 -0.09565312034793878 0 0 0 0
1126794000 0.23239286487173655 0.9765408415593173 0.025554566784007353 -0.09455920613345355 0 0 0 0
1127785000 0.23794481639602377 0.9710990752246729 0.02365525521989427 -0.09507268806718266 0 0 0 0
1128776000 0.24370710009487723 0.9670867945585166 0.02252605007765723 -0.09548713345654632 0 0 0 0
1129766000 0.24345640988556635 0.9680326453587416 0.024492063370841838 -0.09499129883777448 0 0 0 0
1130757000 0.2432472307044294 0.9683215188524188 0.024280052051465127 -0.09461374825866566 0 0 0 0
1131747000 0.23147063663321737 0.968904443609196 0.0240402015478229 -0.09467094171832942 0 0 0 0
1132738000 0.24871016975855062 0.9652464644901505 0.023907907082799298 -0.09482042818439321 0 0 0 0
1133729000 0.25055158277835854 0.9637072776012195 0.021136724192928207 -0.09475442633103275 0 0 0 0
1134719000 0.23610212761098184 0.9698185939113965 0.02269812210529172 -0.09496398679203658 0 0 0 0
1135710000 0.2464302721972445 0.9588614946107423 0.022028149690643966 -0.09407218177398144 0 0 0 0
1136700000 0.2622397481412965 0.9618504451419061 0.02145160936245254 -0.09517629820734141 0 0 0 0
1137691000 0.25743247718214474 0.9641198964308372 0.020814135456836212 -0.09525298031362055 0 0 0 0
1138682000 0.24125909812595747 0.9666295333456718 0.021397724155881676 -0.09481903894261287 0 0 0 0
1139672000 0.26503536679622236 0.9595885319524424 0.020139895012923164 -0.09476629911102884 0 0 0 0
1140663000 0.26391320116544764 0.961389068852048 0.020410407436347672 -0.09488122828461477 0 0 0 0
1141653000 0.25660721182676155 0.9701274640509541 0.021567808884771954 -0.09457688811900727 0 0 0 0
1142644000 0.269901342323779 0.9706251641697268 0.0202722968931238 -0.09512272606344666 0 0 0 0
1143634000 0.27073064583882345 0.9641448035636931 0.022406382666065865 -0.09462776362524358 0 0 0 0
1144625000 0.2585637893408938 0.9548046223904055 0.020130073082695817 -0.0937296796924491 0 0 0 0
1145616000 0.26692300796751156 0.9612136002350363 0.02256709453527469 -0.09391810693480317 0 0 0 0
1146606000 0.2716257124069197 0.9551832208610787 0.02201505695848957 -0.0932269788348273 0 0 0 0
1147597000 0.26205565059661373 0.9621075512960324 0.021044069301890594 -0.09422481594526687 0 0 0 0
1148587000 0.27738028216429816 0.9530890774271317 0.021711673845154236 -0.09353813881607784 0 0 0 0
1149578000 0.29624335384728856 0.9617288380007253 0.019852987644910884 -0.09470703246189903 0 0 0 0
1150569000 0.28136978778331045 0.9577734055984162 0.020820009846525926 -0.09416243318821602 0 0 0 0
1151559000 0.2740548966712465 0.9518523606203799 0.0217551445022942 -0.09349611601985658 0 0 0 0
1152550000 0.2932130505630969 0.9569425386671877 0.021015153056468512 -0.09434574345837744 0 0 0 0
1153540000 0.2903085892148486 0.9477172671812273 0.020118357740083463 -0.09438072955250465 0 0 0 0
1154531000 0.3000268795461979 0.9525737094032152 0.02175490404318843 -0.0948132354710539 0 0 0 0
1155522000 0.30310742117667094 0.9524373513243836 0.02079397661119821 -0.09463015699872203 0 0 0 0
1156512000 0.29177475889506815 0.9486565236091984 0.020380621259929524 -0.09482264746890452 0 0 0 0
1157503000 0.29594196100480796 0.9516904487088024 0.021284680631427966 -0.09503121191412353 0 0 0 0
1158493000 0.3024713643428179 0.9557446071448057 0.021506543067411614 -0.09590502287243063 0 0 0 0
1159484000 0.29175095175687865 0.950172275537685 0.02121103755267168 -0.09505812369232047 0 0 0 0
1160474000 0.3056237127200264 0.9471104888274539 0.021932247400793112 -0.09547972825328803 0 0 0 0
1161465000 0.2999834516609415 0.944005422771511 0.022550959954252086 -0.09503794726859856 0 0 0 0
1162456000 0.3055101934579531 0.9462335175103704 0.02304155125090709 -0.09537200670737546 0 0 0 0
1163446000 0.29931953483578516 0.9549239961990102 0.022712041602525768 -0.09657768109003018 0 0 0 0
1164437000 0.32048982758674543 0.9510552281806048 0.02226052701434437 -0.0970054902609791 0 0 0 0
1165427000 0.30726179628077127 0.9519252195061563 0.021875901745760297 -0.0965229740085954 0 0 0 0
1166418000 0.30332439872939365 0.9464927657203729 0.023807821775081294 -0.09655726077645264 0 0 0 0
1167409000 0.3031701223902773 0.946414791301465 0.023353366722513074 -0.09695259537796266 0 0 0 0
1168399000 0.32803365809959006 0.9487517627509818 0.022647560982341504 -0.0981761352183282 0 0 0 0
1169390000 0.31614791132695796 0.9479446063531034 0.023333746822854246 -0.09792952714035996 0 0 0 0
1170380000 0.3259406903729668 0.9427300740725192 0.02212019111146924 -0.09906323512378168 0 0 0 0
1171371000 0.3281804509115051 0.9407667296841535 0.0215561723969967 -0.09840212001056829 0 0 0 0
1172362000 0.3142012810710063 0.9399067963819107 0.02190245747327202 -0.0986969295467149 0 0 0 0
1173352000 0.33802070278730584 0.9510790996152328 0.021882362180942912 -0.09975812932350737 0 0 0 0
1174343000 0.34206437026839864 0.9477738473028612 0.02231389119288437 -0.10052937330143279 0 0 0 0
1175333000 0.3419308220583026 0.9452296832339315 0.020780678172094624 -0.10073309450241784 0 0 0 0
1176324000 0.33218627621077756 0.9432815391755487 0.022440718244481274 -0.10046946100393467 0 0 0 0
1177315000 0.34965046244262754 0.9402988469278479 0.021621267239978172 -0.10153505332841345 0 0 0 0
1178305000 0.33538255045883525 0.9360207484390719 0.024213264962578397 -0.09963174577946318 0 0 0 0
1179296000 0.3430390781265537 0.9439034941930262 0.022630484513193383 -0.10167896029467591 0 0 0 0
1180286000 0.351325204362232 0.9363026387758726 0.02118974520343481 -0.10194511177500305 0 0 0 0
1181277000 0.34603116447202265 0.9350846917835028 0.020777437428066745 -0.10228101888689746 0 0 0 0
1182267000 0.3447848646671261 0.9388888315509715 0.02090481216574352 -0.1025927541024739 0 0 0 0
1183258000 0.36545275320995524 0.9299649258730613 0.020098990927768512 -0.10353686506872503 0 0 0 0
1184249000 0.33955682840861084 0.9323815030310058 0.022445744606596044 -0.1029315536355129 0 0 0 0
1185239000 0.3517094533310033 0.932557270449007 0.020393909138647963 -0.10399887525182884 0 0 0 0
1186230000 0.3498762420386496 0.935648101883398 0.02220825150092903 -0.10391075908197736 0 0 0 0
1187220000 0.35762467749352456 0.9344704018324884 0.021374870915674665 -0.10525369216630694 0 0 0 0
1188211000 0.36239614127064085 0.930200011899801 0.021233526932546605 -0.10462387844468253 0 0 0 0
1189202000 0.362208586362452 0.9267212271904556 0.02194382718085271 -0.10521584647829976 0 0 0 0
1190192000 0.37220044623027104 0.9260045351783469 0.02258395629263669 -0.10545846152673613 0 0 0 0
1191183000 0.3722000657570433 0.921457542921055 0.021700333183251264 -0.10591066088336656 0 0 0 0
1192173000 0.3661920716727422 0.9279631616510872 0.02119373682945206 -0.10625391707500241 0 0 0 0
1193164000 0.3702066833948964 0.9337871140038557 0.01858974896436729 -0.10822289511730142 0 0 0 0
1194155000 0.3860810134040266 0.9233538122495633 0.0225209945520228 -0.10716081101860225 0 0 0 0
1195145000 0.379689516255848 0.932372919492265 0.020284500660833347 -0.10900823453500776 0 0 0 0
1196136000 0.3914660523879925 0.9241091663478809 0.020742505945128952 -0.10861488988133129 0 0 0 0
