# HZ S RI R 50
1000000000 0.41578301527080014 0.6998724194359282 0.01565911095193418 -0.11335410715521776 0 0 0 0
1000990000 0.41996440281558933 0.699247593735669 0.01553827110494388 -0.11424832830523171 0 0 0 0
1001981000 0.426033691409509 0.6918413301124139 0.015174720405947492 -0.11510832813053132 0 0 0 0
1002971000 0.4239830433692052 0.6981949064787146 0.014584166756431453 -0.11645810831891215 0 0 0 0
1003962000 0.4272094592468429 0.6947967795762672 0.01425093544040468 -0.11669909930256427 0 0 0 0
1004952000 0.42907124711323863 0.6884432310512708 0.0133460700333968 -0.11698402690455974 0 0 0 0
1005943000 0.4372122288504433 0.6844462723107966 0.014569410787662222 -0.11697200938302867 0 0 0 0
1006934000 0.4452945563159275 0.6855536691698014 0.012688669803900557 -0.11753864530574851 0 0 0 0
1007924000 0.4389954993165642 0.6878462833492457 0.013238868044110395 -0.11736161607568071 0 0 0 0
1008915000 0.4394296974632019 0.6814055195494922 0.014548868993054626 -0.11692665514120741 0 0 0 0
1009905000 0.44510023309465224 0.6748118952539783 0.01117540055091499 -0.11760866249072455 0 0 0 0
1010896000 0.44767874593435325 0.6780424821754963 0.012092629022204376 -0.11789967335577033 0 0 0 0
1011886000 0.4490473050683339 0.6731988085872244 0.0114777765998848 -0.11767320133098708 0 0 0 0
1012877000 0.4400801365146786 0.6712593546312174 0.013278321209436032 -0.11736899455833534 0 0 0 0
1013868000 0.45188325849388533 0.670796191417416 0.011166945502921168 -0.11784032604941652 0 0 0 0
1014858000 0.45458148041033436 0.6678019468589289 0.011701560153508159 -0.11749633946464211 0 0 0 0
1015849000 0.4566828656388475 0.6674247362134701 0.01096937069229417 -0.11673918238913074 0 0 0 0
1016839000 0.46392970694947633 0.6619753981740161 0.010060411314895094 -0.1152165671979833 0 0 0 0
1017830000 0.4620928531457847 0.6608921602200893 0.009739417921122137 -0.11345511343144629 0 0 0 0
1018821000 0.47222725839098306 0.6612592673772854 0.008882294801222029 -0.11207662624595453 0 0 0 0
1019811000 0.46357817603198315 0.658127387785951 0.010097971907845017 -0.10939751355865013 0 0 0 0
1020802000 0.47008224612861155 0.65348289504149 0.009583320759081861 -0.10862694785570041 0 0 0 0
1021792000 0.4705267401946304 0.6550980896983186 0.009294901662086675 -0.10778715518854355 0 0 0 0
1022783000 0.47455435593366097 0.655530673889322 0.008478145762698498 -0.10750202244000177 0 0 0 0
1023773000 0.47651078730841995 0.6501025711892053 0.008493827925239148 -0.10678240385894198 0 0 0 0
1024764000 0.47555972348375425 0.6515053258094906 0.008272862528235458 -0.10737549874702952 0 0 0 0
1025755000 0.4772828647808571 0.6485544895447106 0.009316471484076461 -0.10682260084786253 0 0 0 0
1026745000 0.4872843992172022 0.6397130712210959 0.00871454312442032 -0.10728392984754503 0 0 0 0
1027736000 0.482348061350433 0.6384756631927873 0.006476808450475026 -0.10720616454009325 0 0 0 0
1028726000 0.4845512753880601 0.6405620844694904 0.009151099153413738 -0.10797456591149257 0 0 0 0
1029717000 0.48940647362502765 0.6392419422395514 0.008893297933138186 -0.10855817851171434 0 0 0 0
1030707000 0.4945549192397652 0.6325863330105889 0.006295520460997288 -0.10942584678812396 0 0 0 0
1031698000 0.49354009263002013 0.6332238208973475 0.0074128983643230156 -0.11095218155458843 0 0 0 0
1032689000 0.48864369777391164 0.6328765265170696 0.007823322091113685 -0.11248567911672229 0 0 0 0
1033679000 0.4945223727928003 0.6260964535575944 0.007128203293842833 -0.1134577731254824 0 0 0 0
1034670000 0.495697151291922 0.6283837456355462 0.006805171091453829 -0.11421748467880172 0 0 0 0
1035660000 0.4914306784729349 0.6280372581638468 0.007696873665532372 -0.11451619029842115 0 0 0 0
1036651000 0.5011696979307315 0.6243982950142694 0.006087339374363073 -0.1156870702948454 0 0 0 0
1037642000 0.5070915048287253 0.6209318807192447 0.005811463296304078 -0.11587896551808818 0 0 0 0
1038632000 0.5019829691557987 0.6209788728109368 0.006583992213804632 -0.11500329210320823 0 0 0 0
1039623000 0.5027736242222781 0.6232247439220876 0.007354259957935197 -0.11553888259713305 0 0 0 0
1040613000 0.49638783136867887 0.6233242719552733 0.0078875412620202 -0.11528192971806624 0 0 0 0
1041604000 0.5091577203016827 0.6184229576832209 0.00752399604845919 -0.11589101412520729 0 0 0 0
1042594000 0.505742201801838 0.6164762666080458 0.007593823609939283 -0.11506333676064308 0 0 0 0
1043585000 0.5044428838880113 0.6126574221707952 0.007540148295736623 -0.1154445793597816 0 0 0 0
1044576000 0.505382946682382 0.6120863164991089 0.007130601486487266 -0.1158840964835961 0 0 0 0
1045566000 0.5149620418681062 0.612074466071557 0.008642803143545482 -0.11707124250702401 0 0 0 0
1046557000 0.5152607923126434 0.6085677472521536 0.007513226444043193 -0.11801580056702514 0 0 0 0
1047547000 0.5148175856894298 0.6039411011900692 0.0073003937498966505 -0.11835361480706692 0 0 0 0
1048538000 0.5147702713517622 0.6026161956408471 0.008350249896806054 -0.11839351038615459 0 0 0 0
1049529000 0.5126482811235313 0.6014331808276182 0.008307266076097657 -0.1184759145226418 0 0 0 0
1050519000 0.52800662492279 0.5923932265145893 0.008367673361115744 -0.11823605138113231 0 0 0 0
1051510000 0.5257897414745027 0.5956178967021089 0.006114417472787398 -0.11778365936645686 0 0 0 0
1052500000 0.5207231538651156 0.598192345084918 0.008763856202447535 -0.11707435313519181 0 0 0 0
1053491000 0.5222545328045048 0.5994918792562339 0.011440658421733441 -0.11622421084519467 0 0 0 0
1054481000 0.5298852207159173 0.5940069454685821 0.009636711586951424 -0.11569287355496315 0 0 0 0
1055472000 0.5373644095636705 0.5837776305618453 0.008964274267625645 -0.11544370243571288 0 0 0 0
1056463000 0.5266505945648322 0.5892538367622147 0.010612418642777618 -0.11622180898911147 0 0 0 0
1057453000 0.5356830060840487 0.5861239996505897 0.009642427531585153 -0.11738845428655685 0 0 0 0
1058444000 0.5356090159937998 0.578688208088894 0.009335274661322494 -0.1182648434859629 0 0 0 0
1059434000 0.5330400979841511 0.5789978973501612 0.009308689327280507 -0.11977746030168121 0 0 0 0
1060425000 0.538803873492601 0.5764184759735538 0.009200355503883248 -0.12226179411940803 0 0 0 0
1061415000 0.5373369265116061 0.5693607167523087 0.008074652952558587 -0.12256138136079998 0 0 0 0
1062406000 0.5422339800164827 0.569986232848509 0.009039380898269543 -0.12478528450174445 0 0 0 0
1063397000 0.5438068911211201 0.5675589272245076 0.006252124693150011 -0.12725196673198905 0 0 0 0
1064387000 0.5569263029099029 0.5537265384950995 0.006907014426897116 -0.12866313662304202 0 0 0 0
1065378000 0.5542332301620936 0.5562211009652994 0.004981522784210734 -0.1305418987857088 0 0 0 0
1066368000 0.5555168721037579 0.5584157919552127 0.004751956048945899 -0.1318588966609231 0 0 0 0
1067359000 0.5586580899427201 0.5499973625072582 0.003088534175482422 -0.13397084890611727 0 0 0 0
1068350000 0.5548456598015956 0.5487138429637975 0.0018362496188852227 -0.13523169915689964 0 0 0 0
1069340000 0.5617793702569522 0.5445995983561852 0.000345624170243637 -0.13641220457070347 0 0 0 0
1070331000 0.5607548080815694 0.5439895092689662 0.0010622415906824368 -0.13739153415347888 0 0 0 0
1071321000 0.5696696960148689 0.5315336062406871 -0.0012043488276343682 -0.13912055860536693 0 0 0 0
1072312000 0.5688402708886077 0.5333983021092058 -0.0022471671878231936 -0.14095918320631162 0 0 0 0
1073302000 0.5731698927051457 0.5294819634314875 -0.001531168969743563 -0.14186629559404595 0 0 0 0
1074293000 0.5801191285283059 0.5212899257527659 -0.001617841920476341 -0.14320003802634737 0 0 0 0
1075284000 0.5730749784888977 0.5218639934031166 -0.006129756233573013 -0.14433994930094537 0 0 0 0
1076274000 0.5858067013831557 0.5155606026107645 -0.006515598734122226 -0.14535155577127767 0 0 0 0
1077265000 0.5820012005460482 0.5132378427249609 -0.008440626271112004 -0.14646741237523236 0 0 0 0
1078255000 0.5874467605839515 0.5073079195168079 -0.007558578503498203 -0.14805099610427386 0 0 0 0
1079246000 0.5839824144094121 0.5060041537615639 -0.00817140011780586 -0.14877847538010525 0 0 0 0
1080236000 0.5785488476412873 0.5134093523959298 -0.009297850673704101 -0.149675499495631 0 0 0 0
1081227000 0.587364051810134 0.5061726443440252 -0.008909672802085468 -0.1507976943449641 0 0 0 0
1082218000 0.5910571602429838 0.49569252035078987 -0.010695570657354186 -0.15151644653529253 0 0 0 0
1083208000 0.590452261462063 0.49676276054119717 -0.009812581934924722 -0.15173497084766108 0 0 0 0
1084199000 0.5994332841873465 0.48834154651361605 -0.014723174939177994 -0.15264512041179074 0 0 0 0
1085189000 0.5907459909407164 0.5006141380289396 -0.013299934145541373 -0.15340860920836405 0 0 0 0
1086180000 0.5955571619780763 0.49208473127013186 -0.013793915035842472 -0.15344366230134748 0 0 0 0
1087171000 0.5991598712853815 0.49348741954484326 -0.01555335508032956 -0.15406752284408826 0 0 0 0
1088161000 0.5993972906267994 0.48714915891087385 -0.01682708920003993 -0.153395828879114 0 0 0 0
1089152000 0.5970429832029162 0.48326160421833253 -0.017101433995357983 -0.15421344031025552 0 0 0 0
1090142000 0.5990150452182369 0.48664861154426736 -0.017238753774443692 -0.1550762688541399 0 0 0 0
1091133000 0.599389291485207 0.48141025590912284 -0.01686574126282245 -0.1554359671714695 0 0 0 0
1092123000 0.6013464074844771 0.47854956020759976 -0.018573647546119024 -0.15604173578947006 0 0 0 0
1093114000 0.6026836995460654 0.4751620953772434 -0.019415420212961963 -0.15643849638712384 0 0 0 0
1094105000 0.6004683352446879 0.47697941467349203 -0.018273326214713056 -0.15636198302402088 0 0 0 0
1095095000 0.6070973105121192 0.46767525749017913 -0.020718595042851236 -0.15713647679102613 0 0 0 0
1096086000 0.611404508280732 0.46798875185065303 -0.021156166570691946 -0.15757849879501984 0 0 0 0
1097076000 0.6060844304904457 0.46549683156866 -0.02255202368387671 -0.15759732158233966 0 0 0 0
1098067000 0.6129606641247295 0.4590208396491466 -0.022519008112534194 -0.15856950352271154 0 0 0 0
1099058000 0.6129813623667718 0.46164729545716787 -0.023543598282737967 -0.159930171157806 0 0 0 0
1100049000 0.615778948542906 0.4436184111709583 -0.03537190519075289 -0.1696992534987519 0 0 0 0
1101039000 0.6178287636087141 0.4442851746129032 -0.03545796880005345 -0.1703852372455342 0 0 0 0
1102030000 0.6248353473338193 0.43070663215827143 -0.03655367239689773 -0.1710302274850609 0 0 0 0
1103020000 0.6251363145185437 0.42904080180230936 -0.038463128466560664 -0.17073525833657582 0 0 0 0
1104011000 0.6213857303641054 0.43418925475525716 -0.0371401638898262 -0.17190814554628625 0 0 0 0
1105001000 0.6261956696247573 0.4262150876258894 -0.036541248597531564 -0.1715457916083427 0 0 0 0
1105992000 0.6242751694823587 0.4251196059956727 -0.04111566049706735 -0.17123672070450482 0 0 0 0
1106983000 0.6238805157296647 0.4241809491353171 -0.03907337367700358 -0.17070175607860247 0 0 0 0
1107973000 0.626808477435707 0.42578876997666043 -0.039571147303690775 -0.17097265590329544 0 0 0 0
1108964000 0.6264903144711435 0.4208011020328037 -0.04109716644620721 -0.17251674112877308 0 0 0 0
1109954000 0.6276529969913687 0.4199770609688857 -0.04010615881493056 -0.17170534853755565 0 0 0 0
1110945000 0.6239379671972362 0.42512048522825474 -0.039987757200652285 -0.17142675471870392 0 0 0 0
1111936000 0.6292015543833889 0.415070598106592 -0.0418885433824738 -0.1707102737499085 0 0 0 0
1112926000 0.6344122614392123 0.4076653919883983 -0.043374589872221675 -0.17197087464616143 0 0 0 0
1113917000 0.6293821530231045 0.4114555150310184 -0.04376489842666814 -0.17189384436043564 0 0 0 0
1114907000 0.6321927811013027 0.406355063666656 -0.04534906514140802 -0.17132064189908278 0 0 0 0
1115898000 0.6344264392054925 0.40359687458182947 -0.043932247638258044 -0.17201674592529526 0 0 0 0
1116889000 0.6391905000202049 0.39853547038949966 -0.04496002648982217 -0.17197704726090182 0 0 0 0
1117879000 0.6340348899653189 0.4012309556104803 -0.048686907575331895 -0.17145712011632422 0 0 0 0
1118870000 0.6370618624193879 0.397062190145876 -0.046731828823913184 -0.17117634900318757 0 0 0 0
1119860000 0.6396523238284977 0.3886994172318054 -0.05089772982528526 -0.17047148024033193 0 0 0 0
1120851000 0.6402747515089696 0.38619620258565146 -0.04877033215119874 -0.17090420027141012 0 0 0 0
1121841000 0.6450306878505256 0.3812665260480566 -0.05203892102347505 -0.1698905500078761 0 0 0 0
1122832000 0.6421710478725661 0.3898803553871902 -0.05075268800540915 -0.17025290561139922 0 0 0 0
1123823000 0.647187347322783 0.3757662435455726 -0.05097855812957985 -0.16956730173834555 0 0 0 0
1124813000 0.6388310461147143 0.38058566164392094 -0.04910442685480641 -0.169655571853204 0 0 0 0
1125804000 0.6504025683095516 0.37325928636720757 -0.053128003357968016 -0.16885341604540016 0 0 0 0
1126794000 0.6509484869592363 0.3698989136813188 -0.052823118859257105 -0.16897017269516912 0 0 0 0
1127785000 0.6496465958659787 0.3700826312383782 -0.05226379783231051 -0.16895057371034028 0 0 0 0
1128776000 0.6468462553502468 0.37052109650718884 -0.05244456286205364 -0.16944921734201931 0 0 0 0
1129766000 0.6514126949937115 0.35936098458878574 -0.053314667591458795 -0.16830801622004496 0 0 0 0
1130757000 0.6522819457695024 0.3595969263053714 -0.05269706634389652 -0.1687836454351757 0 0 0 0
1131747000 0.6512136356006661 0.3528675650531678 -0.055994675538075106 -0.1672100520069644 0 0 0 0
1132738000 0.654758946286215 0.34521404476208517 -0.054831110823372955 -0.16763470133983913 0 0 0 0
1133729000 0.6559813671609869 0.3531917696334247 -0.05366850777428458 -0.16793598626957432 0 0 0 0
1134719000 0.6535506073836848 0.34735122797522255 -0.0549680215990862 -0.16795874400611127 0 0 0 0
1135710000 0.6546777388447197 0.34095002959430454 -0.053784746778054324 -0.16666871071802672 0 0 0 0
1136700000 0.6557065736841815 0.34408395686988347 -0.05379497043593298 -0.16787840414133498 0 0 0 0
1137691000 0.658261821368534 0.33945509390958845 -0.05389627891634186 -0.16755122310333978 0 0 0 0
1138682000 0.656293904799882 0.3442728313461351 -0.05495771265551656 -0.16728801190543177 0 0 0 0
1139672000 0.656723260152576 0.3307684729698967 -0.05411015436147386 -0.16780936921926254 0 0 0 0
1140663000 0.6572962379397972 0.3326546112099783 -0.05594526180419498 -0.16810528615890089 0 0 0 0
1141653000 0.6576422187834267 0.3343782846960037 -0.05590074179369889 -0.16821349612865047 0 0 0 0
1142644000 0.6595055236219629 0.3285327433692026 -0.05597172541902796 -0.16873408076800162 0 0 0 0
1143634000 0.6624784533361139 0.3298388152832855 -0.053254037695614154 -0.17096286813819828 0 0 0 0
1144625000 0.6507971285077889 0.3388188801958435 -0.05043186857470475 -0.17180489578940622 0 0 0 0
1145616000 0.6612586619270003 0.3171137306299709 -0.05245403619006439 -0.17137211697085875 0 0 0 0
1146606000 0.6619795420167035 0.32045955019634037 -0.05329069902724819 -0.17117942205788672 0 0 0 0
1147597000 0.6600498601571578 0.31693228869594037 -0.05412969010499118 -0.17221483595758522 0 0 0 0
1148587000 0.6663039989575777 0.3127746195955465 -0.0528769653915261 -0.17277110414604302 0 0 0 0
1149578000 0.6706912280441788 0.3016151276700047 -0.05640947202157745 -0.1726392953151 0 0 0 0
1150569000 0.6657972994603583 0.30966317812314614 -0.05280536923949606 -0.17479343142978254 0 0 0 0
1151559000 0.665493915070964 0.30824183976155445 -0.054573589659593476 -0.17469164535197648 0 0 0 0
1152550000 0.6655421173426848 0.30307835019896884 -0.054262121818621126 -0.17629237850162094 0 0 0 0
1153540000 0.6696056892695214 0.2934005782728517 -0.054959415560193375 -0.17703389062010522 0 0 0 0
1154531000 0.6656862235638393 0.2925362751558336 -0.055158048680045424 -0.17823526299964443 0 0 0 0
1155522000 0.6695989726487807 0.2852603328011424 -0.05713599693229722 -0.17856810805598497 0 0 0 0
1156512000 0.6683500420859153 0.28359941193256943 -0.057692951799481716 -0.17863274620432457 0 0 0 0
1157503000 0.6747879332476712 0.28094255603836865 -0.05856893292576789 -0.18026707532652578 0 0 0 0
1158493000 0.6770763111372677 0.27465087929199006 -0.05857267051589141 -0.18194677259127356 0 0 0 0
1159484000 0.668343330891584 0.2784682489528399 -0.06121552518186967 -0.18124995244128048 0 0 0 0
1160474000 0.6755691905148865 0.2695062680187463 -0.05704014638714692 -0.1835080784601514 0 0 0 0
1161465000 0.6728059623613847 0.2716789981004494 -0.056577567774643504 -0.18517070421036844 0 0 0 0
1162456000 0.6717442170182145 0.26784297413371694 -0.058415264786438985 -0.186251874649345 0 0 0 0
1163446000 0.673656478087882 0.2617581424158031 -0.06089945136290261 -0.18680213170152987 0 0 0 0
1164437000 0.6763774862550948 0.25396958142866827 -0.06314261205877178 -0.18788786478899455 0 0 0 0
1165427000 0.6718012202400123 0.26609502126848306 -0.06313623544176808 -0.1892597985943969 0 0 0 0
1166418000 0.669601350580213 0.2542333634326821 -0.06474455805895708 -0.18869125820073898 0 0 0 0
1167409000 0.6719861583099891 0.25740964177179215 -0.06314480791328737 -0.191728700217568 0 0 0 0
1168399000 0.681456362747821 0.2402663357622534 -0.06698745299806207 -0.19109721862745468 0 0 0 0
1169390000 0.6755238012601686 0.24798180701247058 -0.06710350944027874 -0.19309134997360136 0 0 0 0
1170380000 0.6767300016606349 0.24411181752455388 -0.06548426230772235 -0.19461280597920755 0 0 0 0
1171371000 0.6754230331630643 0.23778729951306912 -0.06819785478299795 -0.1942393315018237 0 0 0 0
1172362000 0.6724134588378677 0.24124441229948854 -0.06968595122811429 -0.19489102299104577 0 0 0 0
1173352000 0.6782835415781421 0.22561425403584445 -0.07250545443745832 -0.19407301669837215 0 0 0 0
1174343000 0.6815471681841309 0.22058693431324053 -0.07538667935451404 -0.19553330422962617 0 0 0 0
1175333000 0.6786338134526505 0.22741465865435906 -0.07513863124469058 -0.19575440458902993 0 0 0 0
1176324000 0.6804548138120065 0.2209842205929088 -0.07622776502295997 -0.197054743760596 0 0 0 0
1177315000 0.6815082328715878 0.2086561989572846 -0.07845723520358644 -0.19764362997894008 0 0 0 0
1178305000 0.6805279118584229 0.21081354041614295 -0.07485508244368679 -0.1990906806804932 0 0 0 0
1179296000 0.6776730210249401 0.21138825303405143 -0.07932234754588914 -0.19837539080056843 0 0 0 0
1180286000 0.6747650779786857 0.2109913799312313 -0.08201246185815965 -0.19918414875111853 0 0 0 0
1181277000 0.6764806613633659 0.20796296413158724 -0.0829472547910343 -0.19861226988746855 0 0 0 0
1182267000 0.6752813671720154 0.2054913173460712 -0.08458153906949932 -0.19903001833601597 0 0 0 0
1183258000 0.6785551519080203 0.19627435156195475 -0.08702320610270216 -0.19836915358475943 0 0 0 0
1184249000 0.67522799755044 0.20335552265832427 -0.0845639511564906 -0.20188570563183306 0 0 0 0
1185239000 0.6726792434471875 0.19975436401117935 -0.08692528432440376 -0.20082033252658224 0 0 0 0
1186230000 0.6753879147454834 0.18982533089412568 -0.08960869164542469 -0.19960211210898443 0 0 0 0
1187220000 0.6786584613120176 0.18231732328233147 -0.09418987560115061 -0.1997890888491388 0 0 0 0
1188211000 0.6794625185213576 0.182799133414126 -0.09406590986796833 -0.19983354768064723 0 0 0 0
1189202000 0.67675464605609 0.1814009173200018 -0.09334940587830766 -0.20266152451819652 0 0 0 0
1190192000 0.6806107689156543 0.16785825631175494 -0.09593756576183148 -0.20076400143939818 0 0 0 0
1191183000 0.6831407777433881 0.16632003555908884 -0.09695621010226023 -0.20265684884109958 0 0 0 0
1192173000 0.6802605230051574 0.16504605287669574 -0.10386320079953115 -0.19975442550847713 0 0 0 0
1193164000 0.6834338044048768 0.16382470924848916 -0.10668228588107422 -0.20076800174127146 0 0 0 0
1194155000 0.6812027915009674 0.15147139172829255 -0.10367486351914212 -0.20203247789397158 0 0 0 0
1195145000 0.6801546501468436 0.15459142360489192 -0.10929910993277256 -0.20026264448685585 0 0 0 0
1196136000 0.6808309744056228 0.14027086570741282 -0.10870761539281376 -0.2003920651886269 0 0 0 0
