# HZ S RI R 50
1000000000 0.40041590597541005 0.6855341642664977 -0.010925514875326772 -0.17969896003775393 0 0 0 0
1000990000 0.4056575152121968 0.682062798326907 -0.00954412035807743 -0.17996487793567403 0 0 0 0
1001981000 0.4107184052796778 0.6785247371877011 -0.011601024915080905 -0.18001083030294915 0 0 0 0
1002971000 0.4068043643655564 0.6867934433186759 -0.011536479749934 -0.1812702793505692 0 0 0 0
1003962000 0.4111663864901248 0.6810709066983621 -0.011244468877595802 -0.1810703222518142 0 0 0 0
1004952000 0.41456663156755064 0.675442794156006 -0.013251558982254847 -0.18179748408398813 0 0 0 0
1005943000 0.42305095538771176 0.6721375531249661 -0.011776850375667475 -0.18188280087836653 0 0 0 0
1006934000 0.4273204756920285 0.6714765863765692 -0.014161353933833722 -0.1822213213935092 0 0 0 0
1007924000 0.42722772473735715 0.6693591386391573 -0.013449884635507555 -0.18305877961138967 0 0 0 0
1008915000 0.42737944869898387 0.6651266895000522 -0.012400215100716077 -0.1827659217710626 0 0 0 0
1009905000 0.42830248319085923 0.6609540924257455 -0.01607404814170679 -0.18298195654997246 0 0 0 0
1010896000 0.427879782023984 0.6665979564182084 -0.014044956177454104 -0.18390799857265058 0 0 0 0
1011886000 0.4375877170425845 0.6573974867751442 -0.01595332746760589 -0.1836103883074986 0 0 0 0
1012877000 0.4250391166822595 0.6565853450974998 -0.01407452457515632 -0.18311291806688285 0 0 0 0
1013868000 0.4319192313946047 0.6608670310906333 -0.015238588887484455 -0.18412424821257803 0 0 0 0
1014858000 0.43767951956526646 0.652605775543755 -0.017469083157658653 -0.18423009185709657 0 0 0 0
1015849000 0.4356648105748059 0.6596335001404576 -0.015549239346057332 -0.18476061845696776 0 0 0 0
1016839000 0.4467574823223051 0.6493062067733726 -0.019485128024884155 -0.18482626474093633 0 0 0 0
1017830000 0.4431795536103319 0.6500050611203508 -0.017085484060475862 -0.18518519654368099 0 0 0 0
1018821000 0.4515097578065482 0.6517660718158304 -0.019742664174601937 -0.18640835935972086 0 0 0 0
1019811000 0.4431820707604884 0.6453208476058693 -0.01925094466984785 -0.18528094535464124 0 0 0 0
1020802000 0.447816762997169 0.6436800923989985 -0.021484663806251674 -0.18590362485523423 0 0 0 0
1021792000 0.45318316287476107 0.6412894506496495 -0.022997438645558855 -0.1861091927134274 0 0 0 0
1022783000 0.455462780227868 0.6431449795939823 -0.02233089681537975 -0.1861732706462006 0 0 0 0
1023773000 0.45422794741985584 0.635284430728086 -0.023552480946048403 -0.1859209112025092 0 0 0 0
1024764000 0.4602068396286478 0.6304391281599346 -0.024250156397296378 -0.18642903192559473 0 0 0 0
1025755000 0.4594548324612439 0.6324531641772987 -0.022190184404245254 -0.18670531740684293 0 0 0 0
1026745000 0.4629628216282402 0.6317210908041645 -0.022844142342184126 -0.1874569973699185 0 0 0 0
1027736000 0.46080070798576617 0.6291609649185614 -0.025145981454881675 -0.18606833930922084 0 0 0 0
1028726000 0.46921951670169615 0.6232899556806549 -0.02371505496552022 -0.1874664390700147 0 0 0 0
1029717000 0.47242070542258696 0.6234301822060977 -0.02421679393696527 -0.1873558354402108 0 0 0 0
1030707000 0.4715523647412673 0.621079565534652 -0.027059639253477052 -0.18728220090625303 0 0 0 0
1031698000 0.4728471621804735 0.6196721368212132 -0.025817531569663533 -0.187607946839727 0 0 0 0
1032689000 0.4675526421232073 0.6190646252991273 -0.025774504250681125 -0.18800454344396422 0 0 0 0
1033679000 0.4736708514187364 0.6125936481411893 -0.0271854190134616 -0.18750565116277937 0 0 0 0
1034670000 0.47470735135239095 0.6121599259672146 -0.026340366823062497 -0.18843929484470517 0 0 0 0
1035660000 0.4739422169522714 0.610448985375753 -0.026788552952763063 -0.18740922679410216 0 0 0 0
1036651000 0.48237344194902987 0.6077052873773557 -0.02970923363456266 -0.18867711632809275 0 0 0 0
1037642000 0.49353815858794703 0.6000376620590387 -0.030549301811936033 -0.1887422136316019 0 0 0 0
1038632000 0.4846384750101668 0.6027182746479209 -0.030483524669605827 -0.18812001548819443 0 0 0 0
1039623000 0.4909754669611887 0.5963393558998279 -0.030550692052594815 -0.18865434742369055 0 0 0 0
1040613000 0.48140408539484925 0.5971753895181415 -0.029392967122499884 -0.18872196842599265 0 0 0 0
1041604000 0.491026618331852 0.5956554063010392 -0.031314379357676024 -0.1898212357118733 0 0 0 0
1042594000 0.4901291895869196 0.5954014310655297 -0.028700102646683538 -0.18969324379773314 0 0 0 0
1043585000 0.4873483447072975 0.5911359105349611 -0.028709654432309807 -0.18993230912018624 0 0 0 0
1044576000 0.4922039977413297 0.5835985552236875 -0.03348851354245414 -0.19001269474987353 0 0 0 0
1045566000 0.5007366606507629 0.58370105946 -0.03117294023915597 -0.19087801755796652 0 0 0 0
1046557000 0.4986368685322761 0.5858347942596682 -0.03036951734700556 -0.19141728362482255 0 0 0 0
1047547000 0.49759239454552806 0.580713922973988 -0.031633452567790946 -0.1913989714767623 0 0 0 0
1048538000 0.4954198378738226 0.5806125378931651 -0.030718666791393717 -0.1918368890327596 0 0 0 0
1049529000 0.4981027139687416 0.5759275493588738 -0.03015149744470563 -0.19277196123226964 0 0 0 0
1050519000 0.5051955880028909 0.5727904279297226 -0.030864088701643068 -0.19345009999523313 0 0 0 0
1051510000 0.5097151786417371 0.5681798988255226 -0.03520571991652711 -0.19287514984468143 0 0 0 0
1052500000 0.5117421772091356 0.5667872356820914 -0.03282364943318865 -0.19411604954712475 0 0 0 0
1053491000 0.5147402881823773 0.5673832409569223 -0.03273903901883244 -0.19535585067086658 0 0 0 0
1054481000 0.5178907400108786 0.5610719369655823 -0.0346762343963295 -0.19608386858462162 0 0 0 0
1055472000 0.5189503632551175 0.5581988950553268 -0.034851917030940795 -0.19520525502829492 0 0 0 0
1056463000 0.5197543249005581 0.5527303203180121 -0.03411098789491423 -0.1975652698474724 0 0 0 0
1057453000 0.5204145354826538 0.5536239049579096 -0.03577909568445659 -0.19769017738928946 0 0 0 0
1058444000 0.5125287282486587 0.5559078729777666 -0.03660615707732974 -0.1973463457687173 0 0 0 0
1059434000 0.5172483793501624 0.5513784830080762 -0.0348948627197599 -0.19876817256500717 0 0 0 0
1060425000 0.5267864167878328 0.5436671671153971 -0.03668214636188738 -0.19998404191675961 0 0 0 0
1061415000 0.5139935606034802 0.5453198977283609 -0.03605277996701841 -0.19985265602704735 0 0 0 0
1062406000 0.5289408691250258 0.5393074209725887 -0.03788611696675605 -0.20055025958851125 0 0 0 0
1063397000 0.529405480170685 0.5396374698559603 -0.04097499236856245 -0.2022564498006323 0 0 0 0
1064387000 0.5302679787798996 0.53398319065746 -0.03862528323454987 -0.20267998868097442 0 0 0 0
1065378000 0.5339182858335659 0.5311788745176852 -0.0415498020387482 -0.2026047745484285 0 0 0 0
1066368000 0.5274001070668096 0.5316458046361525 -0.04345975460859156 -0.20294435751887732 0 0 0 0
1067359000 0.5325373887377637 0.5301795299245812 -0.042063070591655136 -0.2055687977403925 0 0 0 0
1068350000 0.5375837158772137 0.5234752285479156 -0.04518857506576934 -0.20502405915862715 0 0 0 0
1069340000 0.5415166040657746 0.5189590578410352 -0.04745873686102552 -0.20460317854887927 0 0 0 0
1070331000 0.5418894918261385 0.5178039547892462 -0.04723739718117164 -0.20567257624734084 0 0 0 0
1071321000 0.5375576588535044 0.5139002340950394 -0.04716612853859518 -0.20654406634349656 0 0 0 0
1072312000 0.5376056423197286 0.5169818498969863 -0.04667184374642438 -0.20806426578296192 0 0 0 0
1073302000 0.5422394407068418 0.511650764326154 -0.048613537788391364 -0.20820230228724412 0 0 0 0
1074293000 0.5458512907042643 0.5057710193225079 -0.049123209694240194 -0.20802533184778302 0 0 0 0
1075284000 0.5433053135494704 0.5067414672581507 -0.052142431743774156 -0.20817855695105808 0 0 0 0
1076274000 0.5477747108854624 0.5034720674219411 -0.05150477145373668 -0.2080253788967812 0 0 0 0
1077265000 0.5452521300180109 0.5034460993051758 -0.05312371156801831 -0.2080346624699424 0 0 0 0
1078255000 0.5540703141895814 0.4934749785366124 -0.05371322209427655 -0.2091182806865792 0 0 0 0
1079246000 0.5473515261668411 0.4970008597455917 -0.0533004081179166 -0.20905575541989607 0 0 0 0
1080236000 0.5527372461902054 0.49368586461142516 -0.05922146788192717 -0.20775374460985713 0 0 0 0
1081227000 0.553441624388818 0.49210063607916893 -0.056537835556698175 -0.20972276737677606 0 0 0 0
1082218000 0.5551862790499644 0.49058781901049886 -0.055319159690773105 -0.21023857075488453 0 0 0 0
1083208000 0.5559640953530536 0.48543599356853934 -0.05592288437133534 -0.20964980244755005 0 0 0 0
1084199000 0.5624856008923987 0.4794858275986251 -0.059737393202701355 -0.2107061482590466 0 0 0 0
1085189000 0.5579071542852218 0.48956790204414563 -0.05978053555423059 -0.2109935529625467 0 0 0 0
1086180000 0.5642913233266703 0.47818250657568473 -0.06098730664645769 -0.2104600119170478 0 0 0 0
1087171000 0.5626196911266572 0.4847359748767017 -0.06315513743583633 -0.2106342670514699 0 0 0 0
1088161000 0.5653980192118565 0.47597590893732167 -0.06668513794281786 -0.20957277689342718 0 0 0 0
1089152000 0.5702763458352705 0.46630133877868474 -0.0639172988852444 -0.21151580396535738 0 0 0 0
1090142000 0.5678801561109883 0.46800869301458187 -0.06833152521602215 -0.21063327424536796 0 0 0 0
1091133000 0.5678637129432138 0.4651665383654541 -0.06655414940525659 -0.2117294188152234 0 0 0 0
1092123000 0.5677458786293609 0.463956265792784 -0.06614701468503645 -0.21257325890867387 0 0 0 0
1093114000 0.5687564609704184 0.4614157869718422 -0.0697041360267558 -0.21222349634625426 0 0 0 0
1094105000 0.5701332088709223 0.4615604643758664 -0.06783087630306735 -0.21230776644566282 0 0 0 0
1095095000 0.5730518008417439 0.45614332365834764 -0.06822392570084454 -0.2137839954038405 0 0 0 0
1096086000 0.5774940042874511 0.4534818798884349 -0.07195333093140255 -0.21340149737985026 0 0 0 0
1097076000 0.5724428417121912 0.4503231645134896 -0.0722275635151177 -0.21336361462075937 0 0 0 0
1098067000 0.5754047143801081 0.4499112565013888 -0.07045615224166224 -0.21467217913590908 0 0 0 0
1099058000 0.5791877956758652 0.449304725075471 -0.074294411202996 -0.21484777426736762 0 0 0 0
1100049000 0.5789572052308433 0.43886490959018815 -0.07327622668847478 -0.21438349624062783 0 0 0 0
1101039000 0.5806895345334815 0.43567274406382706 -0.0757819064529125 -0.2137188697854375 0 0 0 0
1102030000 0.5876239135824834 0.4275252141050976 -0.07859366789702116 -0.21406779834269068 0 0 0 0
1103020000 0.5877506685940094 0.4247321277438416 -0.07934228290392308 -0.21422264462707583 0 0 0 0
1104011000 0.587874491281657 0.4238681592517862 -0.07988847893512867 -0.21528119142172167 0 0 0 0
1105001000 0.5902740158658165 0.4160084139641154 -0.07984074289084976 -0.21487685195149112 0 0 0 0
1105992000 0.5895651388458242 0.41811732369879145 -0.08558646500526274 -0.21438901609230335 0 0 0 0
1106983000 0.5925105706665862 0.41038306296386146 -0.08350077909540661 -0.21492281841616165 0 0 0 0
1107973000 0.5965526906398033 0.4080495933082905 -0.08241153992908094 -0.21677352263002705 0 0 0 0
1108964000 0.5930500151523643 0.40677062460270036 -0.08384427600801754 -0.21798690949522098 0 0 0 0
1109954000 0.5947096128616765 0.4019659557033197 -0.08746045029946792 -0.21591083935031902 0 0 0 0
1110945000 0.5941450170291317 0.40181624415295014 -0.08850719190578206 -0.2157953307319036 0 0 0 0
1111936000 0.599036252779357 0.39613272498565044 -0.09018764468568083 -0.21472744683728606 0 0 0 0
1112926000 0.6019567883954381 0.39427893775463624 -0.0898748042047707 -0.2161602175071097 0 0 0 0
1113917000 0.5994914755742189 0.39079785670277273 -0.09115524799731388 -0.2160387971826641 0 0 0 0
1114907000 0.6019074276213218 0.3811679743962893 -0.09518173618974023 -0.21524247504125957 0 0 0 0
1115898000 0.6026151555439144 0.3809767823639113 -0.09363425591867502 -0.21589322071656988 0 0 0 0
1116889000 0.608984460008016 0.37176415418429953 -0.09521888828878906 -0.21648786088309782 0 0 0 0
1117879000 0.6034735784791347 0.37823513391885116 -0.0973807098942967 -0.21551450398490304 0 0 0 0
1118870000 0.6065701235482734 0.37362607891108685 -0.09825096668367289 -0.2161069588372018 0 0 0 0
1119860000 0.6057965877425269 0.36985603629006175 -0.100688326128727 -0.21485293665265173 0 0 0 0
1120851000 0.6058679607120699 0.3642962982560531 -0.10064811968435604 -0.21504123382189197 0 0 0 0
1121841000 0.6120340359790519 0.3611491661674109 -0.10379732239645845 -0.2137544417711456 0 0 0 0
1122832000 0.6102145425259239 0.35768144028946164 -0.10304034165767445 -0.21466854495030688 0 0 0 0
1123823000 0.6133157044704628 0.3574609097775543 -0.10214432333104563 -0.21452895153272178 0 0 0 0
1124813000 0.606823390112173 0.35633231120337205 -0.10307921872030097 -0.2139419633534267 0 0 0 0
1125804000 0.616490927614513 0.3465812028384578 -0.10824504585852103 -0.21161727540591088 0 0 0 0
1126794000 0.6149998486475406 0.34969881337954073 -0.10474397961957775 -0.2145134069049485 0 0 0 0
1127785000 0.6140270392495133 0.3414792335192732 -0.1080916006311213 -0.21158644812980837 0 0 0 0
1128776000 0.6146243564808734 0.33772958415086957 -0.11140739388396509 -0.2107850607367652 0 0 0 0
1129766000 0.6113614515517458 0.34183111671333694 -0.10581653392155402 -0.21238852306210035 0 0 0 0
1130757000 0.6144080576818203 0.33963306804186666 -0.10634579121462122 -0.21355923824166376 0 0 0 0
1131747000 0.6104803656252342 0.33825872045748845 -0.10820200176655896 -0.21144438736805513 0 0 0 0
1132738000 0.6126566265662965 0.33656129695398246 -0.10783966450566629 -0.2123113455152072 0 0 0 0
1133729000 0.6174033075530745 0.324674675524944 -0.11078983850821884 -0.2101059707687995 0 0 0 0
1134719000 0.6128439204596544 0.33088653817525837 -0.1106104278843861 -0.21219585889908216 0 0 0 0
1135710000 0.6214465525828108 0.3173595520578304 -0.10822248629678322 -0.2120353438727639 0 0 0 0
1136700000 0.6208132010310261 0.3210272116140655 -0.11184446510887497 -0.21218681122068514 0 0 0 0
1137691000 0.6213465882411187 0.3129693479735328 -0.11426335831625817 -0.21073389286844613 0 0 0 0
1138682000 0.6139615709249902 0.32620643807995864 -0.11148807610088358 -0.21266986091151377 0 0 0 0
1139672000 0.619564160185859 0.3115032844481094 -0.11271318613593312 -0.2121914997340647 0 0 0 0
1140663000 0.6212907290647949 0.30722172745778803 -0.11632910027345948 -0.21168407188675056 0 0 0 0
1141653000 0.6259353565827542 0.3050003764881187 -0.11528807270120858 -0.21298012476027653 0 0 0 0
1142644000 0.6273107162735135 0.2935965492499447 -0.11838385146164392 -0.2116789898559768 0 0 0 0
1143634000 0.6237642399995753 0.3040406289356019 -0.11027601198138308 -0.21824461139532467 0 0 0 0
1144625000 0.6148043753396812 0.30138725760547763 -0.1142357310250063 -0.21536207529869456 0 0 0 0
1145616000 0.6244517726677051 0.2911408603760019 -0.1125556950279617 -0.21698671085865606 0 0 0 0
1146606000 0.6201486407056658 0.28860822839755684 -0.11413767556517375 -0.21584853306226276 0 0 0 0
1147597000 0.626731851989289 0.28487805284835316 -0.11714340199273918 -0.21659211139699908 0 0 0 0
1148587000 0.6244857464045341 0.27953865397052835 -0.11594137803186552 -0.21763237017075715 0 0 0 0
1149578000 0.6274335166170165 0.27234769846250395 -0.12071904295218736 -0.2167841914595015 0 0 0 0
1150569000 0.6294267894123191 0.26958973240897816 -0.12141576807442038 -0.2174835740344732 0 0 0 0
1151559000 0.6225438107288949 0.2700461574676271 -0.11922309662697546 -0.21825563241831442 0 0 0 0
1152550000 0.6293053442105595 0.2628437999089264 -0.11817801829647148 -0.22157454398048823 0 0 0 0
1153540000 0.6216996359135907 0.2598977368851256 -0.12001729627253331 -0.22109007761952285 0 0 0 0
1154531000 0.6263688839388698 0.2483732433050027 -0.12213903389090004 -0.22149488870599315 0 0 0 0
1155522000 0.6308711065985055 0.23572740588514485 -0.12461941604834102 -0.2225959997549313 0 0 0 0
1156512000 0.6255167667341681 0.24420870168319259 -0.1257555842510721 -0.22174942752875268 0 0 0 0
1157503000 0.6262595522226074 0.2393298237151351 -0.12555499805089868 -0.22471588219717764 0 0 0 0
1158493000 0.6297258988770532 0.23628773311865597 -0.1285093153729267 -0.224477066236129 0 0 0 0
1159484000 0.6236412025519592 0.23409585240016156 -0.12850578945476282 -0.22462972594680114 0 0 0 0
1160474000 0.6253331494459916 0.2262733650662514 -0.12679906956714462 -0.22708516176165627 0 0 0 0
1161465000 0.628129392534786 0.22484238389040198 -0.12966348015272686 -0.22791772689655038 0 0 0 0
1162456000 0.6262081171011035 0.2205840713188921 -0.12745318357473723 -0.22996575600220692 0 0 0 0
1163446000 0.628142680660096 0.21435283678288597 -0.13428995675448518 -0.2288403241536983 0 0 0 0
1164437000 0.6295531892818805 0.20587259435508165 -0.1363680772484718 -0.22824261795062406 0 0 0 0
1165427000 0.6240376403808625 0.2090427020188962 -0.1400246727827697 -0.22804841151921965 0 0 0 0
1166418000 0.6268804760005411 0.20582564770368714 -0.13801665041081934 -0.23049169337214995 0 0 0 0
1167409000 0.6243021535731005 0.20681186506504823 -0.13826354951379485 -0.23192930907668657 0 0 0 0
1168399000 0.627824109095858 0.19077141901568478 -0.1409254649298559 -0.23123658370156538 0 0 0 0
1169390000 0.6243536633000553 0.19692321240901828 -0.14249777065241587 -0.23277671264036917 0 0 0 0
1170380000 0.6291902164654773 0.18635911903600588 -0.14823938538678375 -0.23068656457359868 0 0 0 0
1171371000 0.6269348262124402 0.18574638422105058 -0.1483821486042963 -0.23084867834716769 0 0 0 0
1172362000 0.6242947537190325 0.18939772317937068 -0.14932904788632503 -0.2331802103796574 0 0 0 0
1173352000 0.6280038001526639 0.1774613942867383 -0.1539781304349545 -0.22947894671286856 0 0 0 0
1174343000 0.626313430398013 0.1769141502357717 -0.15505619769549353 -0.23394202952984508 0 0 0 0
1175333000 0.6236335338665283 0.1828969131547504 -0.1573821734155731 -0.23082107847129213 0 0 0 0
1176324000 0.6241878215807622 0.17060224909400995 -0.1574694069445685 -0.23306994752968396 0 0 0 0
1177315000 0.6243783939430105 0.1627901364486047 -0.1602182328498097 -0.23411100917993316 0 0 0 0
1178305000 0.6231220323220872 0.1562178831450044 -0.15736239029715762 -0.23432568323112113 0 0 0 0
1179296000 0.622675957101394 0.1615056090527163 -0.16107823428017412 -0.2336836225723656 0 0 0 0
1180286000 0.6213085646957227 0.15310284294332074 -0.16737111940325478 -0.23221962671048849 0 0 0 0
1181277000 0.622619765263353 0.15192819948052688 -0.16835257649622587 -0.2317066337557957 0 0 0 0
1182267000 0.6220979591936504 0.14899212969906328 -0.17144020398349183 -0.23116127742047543 0 0 0 0
1183258000 0.6202641671311919 0.1459152282449456 -0.17341081299729225 -0.23000346716107076 0 0 0 0
1184249000 0.6173875424882774 0.142841124713162 -0.17191802625886982 -0.2344530691064779 0 0 0 0
1185239000 0.6190571947074557 0.13513904886484926 -0.17880993149327618 -0.2301203786843151 0 0 0 0
1186230000 0.6202256942062413 0.12650298448327665 -0.17899283912389666 -0.229578323107775 0 0 0 0
1187220000 0.6200799448310104 0.12728720241322167 -0.18445887546284725 -0.22889934439573953 0 0 0 0
1188211000 0.6187375050100751 0.12498404104068776 -0.18287304068494156 -0.2301044184273964 0 0 0 0
1189202000 0.6162066305048123 0.11770020418378788 -0.1844516815571 -0.23079946981416094 0 0 0 0
1190192000 0.616716116618021 0.1156062518995797 -0.18680122182513093 -0.22827429395575285 0 0 0 0
1191183000 0.61854869101472 0.10893092414104961 -0.18914703761120313 -0.23025649853566732 0 0 0 0
1192173000 0.6149788311990699 0.11027087340321948 -0.19387609089854668 -0.22534644965808673 0 0 0 0
1193164000 0.6172906978294866 0.11056663632128619 -0.19880337629382364 -0.22443393936453607 0 0 0 0
1194155000 0.616126334101444 0.0997993639821432 -0.1945013002297869 -0.22714724230542632 0 0 0 0
1195145000 0.6133247152178801 0.10153209030826847 -0.19964355615480842 -0.22351533744068006 0 0 0 0
1196136000 0.6133337483491438 0.09007903754609205 -0.20095752707686684 -0.22342405710599053 0 0 0 0
