# HZ S RI R 50
1000000000 0.4062596379909034 0.6351890201783188 -0.05325523054763519 -0.2102684632843446 0 0 0 0
1000990000 0.4114763869396296 0.6326499673297018 -0.05273683489991605 -0.21066583754441237 0 0 0 0
1001981000 0.4174772320123997 0.6276498094846346 -0.053674387565509726 -0.21044494237092648 0 0 0 0
1002971000 0.4127175655510705 0.6323912114533713 -0.053855818770268696 -0.2115826847579373 0 0 0 0
1003962000 0.41394708699323224 0.6330576841825298 -0.05410062083170031 -0.2120989207702441 0 0 0 0
1004952000 0.4131073226172456 0.6275074404161638 -0.05382777775802685 -0.21269454761694043 0 0 0 0
1005943000 0.4236970923602814 0.6210859817631237 -0.0536151242266379 -0.21263836766884245 0 0 0 0
1006934000 0.42838114517519144 0.6208910525977341 -0.05593160122394825 -0.21335893850301332 0 0 0 0
1007924000 0.4244372076788669 0.6254458990569467 -0.056220044834065966 -0.2140649050298192 0 0 0 0
1008915000 0.425545700466213 0.6190269204163634 -0.056433473510779014 -0.21377795139440262 0 0 0 0
1009905000 0.4255156819349616 0.617310494415369 -0.05955367959544628 -0.2135945410073049 0 0 0 0
1010896000 0.4295978640612019 0.619064560251781 -0.059912944818864416 -0.2148336220003092 0 0 0 0
1011886000 0.4294426206965168 0.6146087421352245 -0.06009485711511531 -0.2139513072380023 0 0 0 0
1012877000 0.42307715767774934 0.6118509218887993 -0.05766872620056991 -0.21453068719406926 0 0 0 0
1013868000 0.4308670445949985 0.6128237764875122 -0.060401891027947394 -0.2156798520322679 0 0 0 0
1014858000 0.435084628210628 0.6085106246331338 -0.06187023009836469 -0.21560859504193253 0 0 0 0
1015849000 0.4368108360917184 0.6091977055284035 -0.061068683572444195 -0.2164670469385759 0 0 0 0
1016839000 0.44316944729649316 0.603966251256863 -0.0662279930690084 -0.2153005912546132 0 0 0 0
1017830000 0.44448826227200555 0.5998244239609314 -0.06519137338709242 -0.2157429409061709 0 0 0 0
1018821000 0.45136195010847063 0.6009228085959566 -0.0674728795850777 -0.2172779757886422 0 0 0 0
1019811000 0.4409123039480301 0.5978507786013596 -0.06716726809806808 -0.21622437503997458 0 0 0 0
1020802000 0.4481970837846864 0.5939495879205364 -0.07008647121082663 -0.21668584443936284 0 0 0 0
1021792000 0.4471142867329826 0.5925830803535661 -0.06860741120417783 -0.21686858856511182 0 0 0 0
1022783000 0.45775751166999334 0.5886507650948823 -0.07314050578445964 -0.21568043314930818 0 0 0 0
1023773000 0.4507175806237311 0.5857120982951565 -0.07144178463591733 -0.21632727900113913 0 0 0 0
1024764000 0.4539875849252984 0.5866840215303445 -0.07143725043006684 -0.21742796950444515 0 0 0 0
1025755000 0.45633014034578123 0.5817151128882366 -0.06923358862206469 -0.21763765049914519 0 0 0 0
1026745000 0.45624529986864015 0.5816329711641018 -0.07055861382062323 -0.21842762467956323 0 0 0 0
1027736000 0.46204932436714113 0.5698938398283203 -0.07305629061040485 -0.21650920885030747 0 0 0 0
1028726000 0.46217466785313777 0.5701324831985807 -0.0718278114717461 -0.21903098327927348 0 0 0 0
1029717000 0.46661901418287743 0.5682525226786829 -0.07267038676970505 -0.21827690162519872 0 0 0 0
1030707000 0.47519672552806447 0.5576968011336209 -0.07695507425725814 -0.21759241018860678 0 0 0 0
1031698000 0.4653777141570945 0.5649045583763794 -0.07462719004806798 -0.21877688939062861 0 0 0 0
1032689000 0.46875803416314626 0.5595497058063815 -0.07557790651319782 -0.2188240062568813 0 0 0 0
1033679000 0.46686604432575113 0.5587414369149063 -0.07689550777992507 -0.21829062579096575 0 0 0 0
1034670000 0.4685093252895118 0.5561999107925255 -0.07547142990128114 -0.21896705857686172 0 0 0 0
1035660000 0.47055838965944324 0.5548332619349882 -0.07596743991964322 -0.21811575383769452 0 0 0 0
1036651000 0.4753856386172338 0.5528216519214874 -0.08135460108018727 -0.21765005414619343 0 0 0 0
1037642000 0.4816641201925126 0.54724416819138 -0.0813582862788309 -0.21793114848105766 0 0 0 0
1038632000 0.48064240133220176 0.5432793421484399 -0.07960794173411634 -0.2183971144301371 0 0 0 0
1039623000 0.475432696121349 0.5491074086473299 -0.07751826277454958 -0.21980257505050144 0 0 0 0
1040613000 0.4761706059767191 0.5375975301478977 -0.08173351435423953 -0.21823123877787984 0 0 0 0
1041604000 0.4823314334488111 0.5387866216262854 -0.0821912649156549 -0.21964376635746782 0 0 0 0
1042594000 0.47686335966025084 0.5370521168886255 -0.07861587741028227 -0.2204397276271758 0 0 0 0
1043585000 0.4833430878282743 0.5309017299012001 -0.08136696356779986 -0.2200501567953654 0 0 0 0
1044576000 0.47980497254702753 0.5287022721329443 -0.08382431503286372 -0.21968820855612176 0 0 0 0
1045566000 0.4870477518566663 0.526734198103197 -0.08248184499452872 -0.2209259266491355 0 0 0 0
1046557000 0.48627305220126943 0.5259637406096962 -0.08184202170346565 -0.22224613977754587 0 0 0 0
1047547000 0.4822438985704153 0.5243067567254484 -0.08431936656200759 -0.2213251505618878 0 0 0 0
1048538000 0.48111222331924897 0.5247836919965293 -0.0813588992492178 -0.2224925869749058 0 0 0 0
1049529000 0.4904934366984352 0.5166150835458903 -0.08467956061525497 -0.22311744218597707 0 0 0 0
1050519000 0.4966625816155774 0.5084307517090975 -0.08728828945399562 -0.22305363975286605 0 0 0 0
1051510000 0.49170736970387413 0.5105816836484987 -0.08900901035085225 -0.22243290356030274 0 0 0 0
1052500000 0.4926537999059669 0.5133800394149417 -0.08630092986745314 -0.2248962455699809 0 0 0 0
1053491000 0.500009041510222 0.5064665044052535 -0.08800520060540601 -0.22623562003336112 0 0 0 0
1054481000 0.501944884191525 0.5069978782121547 -0.08996497814931902 -0.22565715138175316 0 0 0 0
1055472000 0.5008956817839716 0.49613138482909247 -0.08983410914070764 -0.22626496819326217 0 0 0 0
1056463000 0.49669847634537617 0.4981474447880991 -0.08941630137520512 -0.22852031967053912 0 0 0 0
1057453000 0.5102571743876887 0.4895583918072962 -0.09339032781428241 -0.22805637841831938 0 0 0 0
1058444000 0.49381130156963865 0.49569748365435945 -0.09028501017449576 -0.22844924293138746 0 0 0 0
1059434000 0.4945378597661685 0.493807556333721 -0.09196772433323143 -0.22922505779374333 0 0 0 0
1060425000 0.5087358421831621 0.48558487448645204 -0.09598031131784983 -0.22999528658640667 0 0 0 0
1061415000 0.5003007938544728 0.4834653625823227 -0.09578934626136824 -0.22901499177237583 0 0 0 0
1062406000 0.512014166993628 0.48034922554712983 -0.09634188665720966 -0.230375080169755 0 0 0 0
1063397000 0.5032191797508553 0.4807040004066451 -0.10027205111609888 -0.23097425095382465 0 0 0 0
1064387000 0.5094492530453422 0.4723647695692053 -0.09793671057756759 -0.23202332465433326 0 0 0 0
1065378000 0.512181296364146 0.4715875265437252 -0.10098964865155927 -0.23149938456345157 0 0 0 0
1066368000 0.5165313990877775 0.4692542431344515 -0.10440115209546011 -0.2312077354870475 0 0 0 0
1067359000 0.5093004100908269 0.46912482375358044 -0.10513622138842821 -0.2315596548088211 0 0 0 0
1068350000 0.5108778254280213 0.4657844663270607 -0.10767702148138514 -0.2314319572290628 0 0 0 0
1069340000 0.5213236908196776 0.4597150224574277 -0.11069604917955471 -0.2312917230338784 0 0 0 0
1070331000 0.5148033993797478 0.45979554345077805 -0.10928907652240435 -0.23223533773521354 0 0 0 0
1071321000 0.5160951392623169 0.4547965516831902 -0.11153678078995237 -0.2314525439402664 0 0 0 0
1072312000 0.516235931804142 0.45116578209804675 -0.1117916137013909 -0.2333326238054522 0 0 0 0
1073302000 0.5193349557691451 0.44916300546535876 -0.11167358225907252 -0.2333198482048615 0 0 0 0
1074293000 0.5225788250245257 0.44064027546697615 -0.11345165085633524 -0.23371628491478277 0 0 0 0
1075284000 0.5176167066188858 0.4461947027272428 -0.11780968454388407 -0.2323345893779364 0 0 0 0
1076274000 0.5238743002988061 0.4391363790057833 -0.11725684788884007 -0.23241099692692865 0 0 0 0
1077265000 0.522809649560527 0.43365111743289964 -0.12136691925644966 -0.23183236852689684 0 0 0 0
1078255000 0.5286792149270031 0.427340024304773 -0.12237412548697423 -0.23195255489700134 0 0 0 0
1079246000 0.5195300116751658 0.42918330379330394 -0.11888220695762308 -0.23458095957517044 0 0 0 0
1080236000 0.5195096947896632 0.4290074664072277 -0.12042232417135224 -0.23363145445310543 0 0 0 0
1081227000 0.5251793802795086 0.42332397218561 -0.1251935439490942 -0.23222909771590722 0 0 0 0
1082218000 0.5237376978456757 0.42112251635048054 -0.1240271799681278 -0.23349102095758276 0 0 0 0
1083208000 0.5295082620534015 0.41352613441117386 -0.1253439886924098 -0.23191248955230187 0 0 0 0
1084199000 0.529099127938812 0.414236746839422 -0.12769557040336998 -0.23307803052307174 0 0 0 0
1085189000 0.5301437874743677 0.4166629633802922 -0.12814825770220586 -0.23391313299307004 0 0 0 0
1086180000 0.5330169247046246 0.4081779296320893 -0.1282697327848952 -0.23336453242260535 0 0 0 0
1087171000 0.5323475374193094 0.41256233253337066 -0.13218668833410194 -0.23180646418097464 0 0 0 0
1088161000 0.5327620631162516 0.4062581147890033 -0.13504983818938623 -0.2297230432725528 0 0 0 0
1089152000 0.5332720475447738 0.39852595383987216 -0.135144319597013 -0.2312663508511041 0 0 0 0
1090142000 0.5314106791749674 0.40176654313046833 -0.13640954839201686 -0.23113205507031703 0 0 0 0
1091133000 0.5308528357542744 0.3996152727375169 -0.13427154962698848 -0.2332210648786806 0 0 0 0
1092123000 0.5310693837695076 0.39416962583696596 -0.1364489374432407 -0.23285303941839747 0 0 0 0
1093114000 0.5292802934495786 0.3943048182828671 -0.13912285095854723 -0.2324609063518553 0 0 0 0
1094105000 0.5333545339509803 0.38850419554752 -0.13835404017975395 -0.23133713404826778 0 0 0 0
1095095000 0.5372413394494735 0.3836354950447086 -0.1408638180960298 -0.2324468017615016 0 0 0 0
1096086000 0.5352542711204514 0.3845095894292195 -0.1422705230985765 -0.23274821080957236 0 0 0 0
1097076000 0.5322573703677254 0.38195196121279734 -0.14245040990661847 -0.2323188357398612 0 0 0 0
1098067000 0.539282953882853 0.3737665570375968 -0.14403159102588128 -0.23262536317866944 0 0 0 0
1099058000 0.537053554213407 0.37648265272540965 -0.1450666426413518 -0.2332812101243144 0 0 0 0
1100049000 0.5411093407234118 0.3675217037612839 -0.14944766246403085 -0.23277658272275592 0 0 0 0
1101039000 0.537814020566265 0.3685826459381885 -0.14894941371939702 -0.23263823402455958 0 0 0 0
1102030000 0.5423366416322467 0.35995012126989945 -0.1514844229112636 -0.23288694613531377 0 0 0 0
1103020000 0.5423618836746813 0.36067203810299564 -0.1528202941609347 -0.23269760333363387 0 0 0 0
1104011000 0.538460022859705 0.3613297449979287 -0.1534942187329887 -0.2332963921008743 0 0 0 0
1105001000 0.5427216104748448 0.35271438997981513 -0.15474445822080748 -0.23254465869932694 0 0 0 0
1105992000 0.5440780905723323 0.35255533029205915 -0.16204865809506244 -0.22993439894057188 0 0 0 0
1106983000 0.5443983877566476 0.347968515048171 -0.15712016374878254 -0.23213104662574235 0 0 0 0
1107973000 0.5482613463655331 0.344248265931316 -0.16022539817240497 -0.23181173634617416 0 0 0 0
1108964000 0.5455051516426391 0.3441246010927391 -0.1623736496257617 -0.23205580833625658 0 0 0 0
1109954000 0.5471612454160627 0.33734438927185906 -0.16297669301455897 -0.2314170714552265 0 0 0 0
1110945000 0.5442682828085763 0.3420506019745485 -0.16546227223104631 -0.22940268844589004 0 0 0 0
1111936000 0.5500165849302453 0.33459209535031403 -0.16727392956001924 -0.22875128211977425 0 0 0 0
1112926000 0.5516695858781367 0.32667342267595645 -0.16849543736018427 -0.22985531020643454 0 0 0 0
1113917000 0.5491560377440752 0.32908917359319406 -0.16789400833839896 -0.23177437605610413 0 0 0 0
1114907000 0.5479392294457628 0.31912882375251284 -0.172607584549998 -0.22815719654874142 0 0 0 0
1115898000 0.5477330538012676 0.3251721403654938 -0.17073729335212276 -0.22900585840177096 0 0 0 0
1116889000 0.5529560609994383 0.3119943793464701 -0.17159664121080667 -0.22998193259746497 0 0 0 0
1117879000 0.5485147193022354 0.3114624457593953 -0.17706488200156711 -0.22642201839039955 0 0 0 0
1118870000 0.5473016643000561 0.3175913622648763 -0.1734098666089793 -0.23018429844590227 0 0 0 0
1119860000 0.5487791674986191 0.30562710779718627 -0.17920080678086112 -0.2250284612167625 0 0 0 0
1120851000 0.5478639590411909 0.29903669589634535 -0.17773297509747013 -0.22701270983509023 0 0 0 0
1121841000 0.5515493975970059 0.3031814853332559 -0.18096012879832224 -0.2242493724987749 0 0 0 0
1122832000 0.549514015831815 0.29995240331287115 -0.1802210215544114 -0.22510256540818877 0 0 0 0
1123823000 0.5499983599552677 0.2999911524630882 -0.18080685566055013 -0.2251055840755668 0 0 0 0
1124813000 0.5450997919284273 0.29423092942761836 -0.1803554384541741 -0.22477799642966834 0 0 0 0
1125804000 0.5529253839752432 0.28955399727069875 -0.18423651440122268 -0.22231813231460262 0 0 0 0
1126794000 0.5521421503128507 0.2869233966990626 -0.1848797764360498 -0.22199454426512827 0 0 0 0
1127785000 0.5511319926416798 0.28617080827700825 -0.18522483082209282 -0.22345513569644354 0 0 0 0
1128776000 0.5475426026720052 0.28448535105856465 -0.1871815708336852 -0.22138004842542333 0 0 0 0
1129766000 0.549594116580145 0.2789934631461361 -0.1844372895615849 -0.22435315035360787 0 0 0 0
1130757000 0.5493687465824157 0.27554382934657745 -0.18679812304602805 -0.2219961048299966 0 0 0 0
1131747000 0.5474155100021457 0.274408083485305 -0.1885901103822004 -0.22097519204902658 0 0 0 0
1132738000 0.5499398055170485 0.26381968637340514 -0.19151626079832568 -0.21909862583107437 0 0 0 0
1133729000 0.5493741507494436 0.26410863348524427 -0.19038355133910165 -0.21896861965207617 0 0 0 0
1134719000 0.5449840866603186 0.2671779348837959 -0.19237205222599407 -0.2206009142493323 0 0 0 0
1135710000 0.5493532383947017 0.2558161268567815 -0.1916427057592247 -0.21899743848776862 0 0 0 0
1136700000 0.5510853803220387 0.2563788673547478 -0.19464234664095545 -0.220014011673914 0 0 0 0
1137691000 0.5512686239448314 0.24933926458100486 -0.19589322459000574 -0.21964633886590978 0 0 0 0
1138682000 0.5464454478126183 0.2542575150348374 -0.19776629673758303 -0.21899191000159424 0 0 0 0
1139672000 0.5448015191194326 0.2469721732488193 -0.19469077292298503 -0.22074685883631098 0 0 0 0
1140663000 0.5471155729538233 0.2451603959292624 -0.19892545469582798 -0.21906393947728223 0 0 0 0
1141653000 0.5503679972635601 0.2468227628642457 -0.19772503111424883 -0.22077364450282425 0 0 0 0
1142644000 0.548544659393193 0.23286446593432744 -0.2029382448401701 -0.21771290979316402 0 0 0 0
1143634000 0.5474065189618709 0.23446814305152253 -0.19749299091244055 -0.22456459047945862 0 0 0 0
1144625000 0.5391602415971302 0.23607678060349663 -0.20091774294522124 -0.22059959444727556 0 0 0 0
1145616000 0.5475098017133628 0.2270375881439534 -0.19897214714924416 -0.22390769215564016 0 0 0 0
1146606000 0.5434921595902006 0.22294319642983143 -0.2019695209405887 -0.22108105511127762 0 0 0 0
1147597000 0.5418597451263659 0.22042517519388063 -0.20350913776316928 -0.2217150559415662 0 0 0 0
1148587000 0.5431867905990537 0.21675274542228987 -0.20365047643559836 -0.22320573054086737 0 0 0 0
1149578000 0.5419043090041181 0.21662596289815 -0.20685026145190627 -0.22108559090432617 0 0 0 0
1150569000 0.5361177044723285 0.21671792077059712 -0.20687344172540165 -0.2232114048460309 0 0 0 0
1151559000 0.5388002650081631 0.2083413523931193 -0.20697630754975554 -0.2226672821165593 0 0 0 0
1152550000 0.5394037349732024 0.2051436711259321 -0.2075931554688456 -0.22687110885932313 0 0 0 0
1153540000 0.5367632509853197 0.20004263758816346 -0.21039922330649982 -0.2231243416595238 0 0 0 0
1154531000 0.5356317745962168 0.19565369801091168 -0.21160184801343626 -0.22660067109330953 0 0 0 0
1155522000 0.5322218855795988 0.1921136189426113 -0.21617582742101826 -0.22427832998872882 0 0 0 0
1156512000 0.5339048547563416 0.1899598809006953 -0.2161655684540184 -0.22429756011224167 0 0 0 0
1157503000 0.533619684562038 0.18466751430509096 -0.21972951331026275 -0.22398475447815513 0 0 0 0
1158493000 0.533852886256717 0.18664862300777377 -0.22224402547981104 -0.22533477614311156 0 0 0 0
1159484000 0.5306989634392816 0.18467114047368516 -0.22092608004737432 -0.22515599514498028 0 0 0 0
1160474000 0.5316642602080739 0.1799154986735832 -0.22396476510744123 -0.22693212545025435 0 0 0 0
1161465000 0.5263872619807843 0.17884690396239658 -0.22525160851830417 -0.22700007190700186 0 0 0 0
1162456000 0.5266798985988902 0.1742694212942135 -0.22608561869351385 -0.22806798411020948 0 0 0 0
1163446000 0.5292094566108101 0.1647105261259453 -0.23065795064265235 -0.22658522390445524 0 0 0 0
1164437000 0.5269414182223617 0.1647623112969467 -0.2339194313335858 -0.2253643332058232 0 0 0 0
1165427000 0.5221574130359938 0.16350310774256094 -0.23715553961545638 -0.22427389016180158 0 0 0 0
1166418000 0.5201844832574495 0.1635895986454827 -0.2371552145509355 -0.22674762932321763 0 0 0 0
1167409000 0.5171950273577336 0.16349873965558082 -0.23667989687760818 -0.2284139563241741 0 0 0 0
1168399000 0.5254167146557787 0.1474716118778153 -0.24334189135636297 -0.22374802260737328 0 0 0 0
1169390000 0.5160374078608679 0.1539763481301252 -0.24310978781811943 -0.22737826263882727 0 0 0 0
1170380000 0.5198563619157334 0.15230765755954323 -0.24775391799411142 -0.22554900208986672 0 0 0 0
1171371000 0.5168356793072726 0.15124338491954448 -0.249795995263699 -0.2232722169520743 0 0 0 0
1172362000 0.5120172011389352 0.1462748518948662 -0.25273105272037294 -0.22326882586417512 0 0 0 0
1173352000 0.5139009140824543 0.14034016589132842 -0.25692572137992814 -0.21846839155578385 0 0 0 0
1174343000 0.5147739450069232 0.1359699531276616 -0.2608425001332391 -0.21911369468404018 0 0 0 0
1175333000 0.5116615970797262 0.14678493533314294 -0.25931875285512834 -0.21983471019440307 0 0 0 0
1176324000 0.5097289282295544 0.1372526805227366 -0.2639030504951197 -0.2189980873647297 0 0 0 0
1177315000 0.5107343579042134 0.1276840155875393 -0.26819205317344097 -0.21756680867168576 0 0 0 0
1178305000 0.506772034671718 0.13243326450922902 -0.26378927410748165 -0.22033479233971098 0 0 0 0
1179296000 0.5061400419363482 0.1277990909972993 -0.267795707961553 -0.21720681316690954 0 0 0 0
1180286000 0.5030225602408014 0.12736210840341894 -0.2735977630087712 -0.21548478916264382 0 0 0 0
1181277000 0.501784461009966 0.1209382865659429 -0.2779881859020505 -0.21039139585130603 0 0 0 0
1182267000 0.5012065022995564 0.11419293381756523 -0.2785178886046825 -0.20996194836962362 0 0 0 0
1183258000 0.5001200587192497 0.1118775825814225 -0.28127388671546644 -0.20827252330084955 0 0 0 0
1184249000 0.4990157056864168 0.11566798891927561 -0.2834177565052546 -0.20984560606223773 0 0 0 0
1185239000 0.4960775912728312 0.10911769540007919 -0.2871321129529274 -0.20478473185314053 0 0 0 0
1186230000 0.4934025705063929 0.10794949000322257 -0.28599757589678915 -0.20732785954608063 0 0 0 0
1187220000 0.49389789324844785 0.10468793697103726 -0.29019893375530875 -0.20373939147106587 0 0 0 0
1188211000 0.49163885327950435 0.10252452719704601 -0.2932721127782081 -0.20090647571684517 0 0 0 0
1189202000 0.4903610251738789 0.09507332930839431 -0.2914099139212542 -0.20487691811181352 0 0 0 0
1190192000 0.4876138074459725 0.08898172019880136 -0.29628129601369513 -0.19793545346638394 0 0 0 0
1191183000 0.48722057898757287 0.09065604844334473 -0.29378289176665145 -0.20285800622814928 0 0 0 0
1192173000 0.48627266347236325 0.08935778511839425 -0.3015853556810216 -0.19105246945462254 0 0 0 0
1193164000 0.48605705937278104 0.08676320718065711 -0.3033741001925813 -0.19291722147761944 0 0 0 0
1194155000 0.48668929335346345 0.07816259509658352 -0.3020743333572625 -0.19497372645715255 0 0 0 0
1195145000 0.4812756157277291 0.07830177663717855 -0.30509788910634167 -0.18873440480674766 0 0 0 0
1196136000 0.4827666360550911 0.0770883576358949 -0.3060792526693906 -0.19076263146390712 0 0 0 0
1197126000 0.4787406844627821 0.07172511175243085 -0.31192324946934213 -0.18113856508736226 0 0 0 0
