# HZ S RI R 50
1000000000 -0.23556274413163672 0.6328783304359482 -0.7351340461733135 -0.04888234473626563 0 0 0 0
1000990000 -0.22841941792550655 0.6335909951107139 -0.7361096965362316 -0.04733630704963351 0 0 0 0
1001981000 -0.2303299247831115 0.6293230686331049 -0.7369089893975403 -0.04875895441540397 0 0 0 0
1002971000 -0.23590524928057074 0.6299821382635704 -0.7386875986707357 -0.050104514635553016 0 0 0 0
1003962000 -0.2363628821000904 0.6304941917964794 -0.7431251570243163 -0.0452656709202611 0 0 0 0
1004952000 -0.23055692497824615 0.6290216310421218 -0.743643088862954 -0.0355048157068293 0 0 0 0
1005943000 -0.2220457704084971 0.6339352245890136 -0.7453349315816392 -0.038826723470058305 0 0 0 0
1006934000 -0.22536744172556994 0.6313625016182978 -0.7502063235795701 -0.026695128313427074 0 0 0 0
1007924000 -0.22713405354662652 0.6290389803256979 -0.748964120592273 -0.03482926602018942 0 0 0 0
1008915000 -0.22307658177575554 0.6295846976838562 -0.7486436387995692 -0.03198813121708553 0 0 0 0
1009905000 -0.225999483013689 0.6271289712456714 -0.7506802231397991 -0.02085914893230048 0 0 0 0
1010896000 -0.2283755199665207 0.6283196916960513 -0.75272538920914 -0.016491020426884162 0 0 0 0
1011886000 -0.21846495242793992 0.6302173262405978 -0.7526637726631147 -0.0052926737383615415 0 0 0 0
1012877000 -0.22573593267954317 0.6236258779833512 -0.7488037637959947 -0.007976757647549527 0 0 0 0
1013868000 -0.22531772170830622 0.6288817757609846 -0.7556936664484031 -0.0030605404765389754 0 0 0 0
1014858000 -0.22262950745605817 0.6283541478292909 -0.7546513439746917 0.0002672348408646972 0 0 0 0
1015849000 -0.22904079658588916 0.6288959024101328 -0.7548533401337907 0.005092644107162141 0 0 0 0
1016839000 -0.22350547979665614 0.6327164632471953 -0.7567126138338858 0.013426941479306703 0 0 0 0
1017830000 -0.22286802650333692 0.6282991481558285 -0.7532353875908055 0.017556028196702128 0 0 0 0
1018821000 -0.22761838032502255 0.636308588099768 -0.7601843106218412 0.0183662024289661 0 0 0 0
1019811000 -0.2256308046761336 0.6295363990818795 -0.752392336159395 0.022422915250519912 0 0 0 0
1020802000 -0.2258983977651803 0.6309348539829008 -0.7567367597499173 0.03744495338811185 0 0 0 0
1021792000 -0.23091081744242054 0.6303427050412542 -0.7525566453827809 0.03185863046668184 0 0 0 0
1022783000 -0.22871365825220416 0.6349569518610938 -0.7531899078691638 0.04061171502592009 0 0 0 0
1023773000 -0.23000541781789322 0.6333892079882227 -0.7501657151140861 0.045091985872920876 0 0 0 0
1024764000 -0.2278119785509813 0.6374488475873833 -0.7514452756774239 0.04813458893352013 0 0 0 0
1025755000 -0.23295811955522358 0.6356076626313201 -0.7481345587494138 0.04601424209001861 0 0 0 0
1026745000 -0.22922130652806139 0.6392355651255844 -0.7472437659549455 0.052750462982432314 0 0 0 0
1027736000 -0.23079441391002883 0.6367761266454322 -0.7424665024893027 0.06336453918925844 0 0 0 0
1028726000 -0.23114720421746718 0.6363993261895297 -0.7450052468439061 0.05916351420468144 0 0 0 0
1029717000 -0.22522100433104283 0.6444630782274442 -0.7403860856657404 0.069484787406367 0 0 0 0
1030707000 -0.22811312536182732 0.6424139643559046 -0.7377055696056685 0.07397417087602014 0 0 0 0
1031698000 -0.22832461485187808 0.64433835499768 -0.7351303097323721 0.07129034248784603 0 0 0 0
1032689000 -0.23686896326076595 0.643267517071481 -0.7325167443111736 0.07540024583442567 0 0 0 0
1033679000 -0.22781789611455142 0.6451775007749821 -0.7272358021878867 0.08673806030962276 0 0 0 0
1034670000 -0.23225651747382248 0.6493953602618472 -0.7266198062912191 0.08683598578007864 0 0 0 0
1035660000 -0.23007919733550067 0.6503745846533722 -0.7218251207817739 0.08766643042546704 0 0 0 0
1036651000 -0.23293253040666223 0.654630281352736 -0.7213742501839848 0.09548529399224498 0 0 0 0
1037642000 -0.23408852738975805 0.6572315693748797 -0.7192517327788107 0.0918359263773288 0 0 0 0
1038632000 -0.2338535927941459 0.6554856026085082 -0.7132914501308003 0.09611558555793874 0 0 0 0
1039623000 -0.2300176899059861 0.6596573952846007 -0.7113511587423003 0.09180770692882977 0 0 0 0
1040613000 -0.23084471361836867 0.6584500049093408 -0.7039914509877828 0.10786307579514778 0 0 0 0
1041604000 -0.23237087832081432 0.6612403310765725 -0.7049271817073178 0.10427675862829194 0 0 0 0
1042594000 -0.22727533253868726 0.6653238440518768 -0.6962103128831267 0.10837957921957914 0 0 0 0
1043585000 -0.23700307840268497 0.6637920744780696 -0.6959376623380418 0.10041408002317702 0 0 0 0
1044576000 -0.22687201587769898 0.6679564773082327 -0.6891941931813509 0.11492437998149224 0 0 0 0
1045566000 -0.22291656875467541 0.6764261681964878 -0.6906749646621272 0.10839531596882139 0 0 0 0
1046557000 -0.22685737758725333 0.6754778036077856 -0.6865970216512616 0.11011820623120604 0 0 0 0
1047547000 -0.22337447984235073 0.6753815670831645 -0.6811887652481547 0.11458840340999109 0 0 0 0
1048538000 -0.2284264178123137 0.6759088328405426 -0.6783654067982914 0.10766037029701966 0 0 0 0
1049529000 -0.22179193323708957 0.6782852788885918 -0.6751908824814136 0.11357131275088922 0 0 0 0
1050519000 -0.21260310963564463 0.686384738492953 -0.6753646388942977 0.11056455903942426 0 0 0 0
1051510000 -0.21701213669828032 0.6870197094850838 -0.6696772649479771 0.12036002243574076 0 0 0 0
1052500000 -0.21421120187372308 0.6904233775244245 -0.6681935336893202 0.11243934200988183 0 0 0 0
1053491000 -0.2166038181962901 0.6926777612899189 -0.6685210413641789 0.10618341904728423 0 0 0 0
1054481000 -0.20558612610930574 0.6982735709404064 -0.663614554791879 0.11627376973943512 0 0 0 0
1055472000 -0.20309504613201443 0.6949672246064147 -0.6599342628460733 0.11873400275370075 0 0 0 0
1056463000 -0.20703658015665602 0.6960726192058684 -0.6597605580851833 0.10809994567678476 0 0 0 0
1057453000 -0.20999096952429594 0.7014219268130804 -0.6596430504994161 0.11273352530020418 0 0 0 0
1058444000 -0.2046511754349333 0.6999924545487303 -0.6549504008682354 0.1055288570035024 0 0 0 0
1059434000 -0.19898228376163174 0.7023114233470462 -0.6511368456585004 0.1144224911960422 0 0 0 0
1060425000 -0.19077700307833947 0.7079280530974686 -0.6537261561859227 0.11737795554822908 0 0 0 0
1061415000 -0.19361418705950217 0.7002845561586775 -0.6477166333619724 0.11300883511438162 0 0 0 0
1062406000 -0.18412377080921 0.7113131927584352 -0.6500231993953538 0.10695363534252546 0 0 0 0
1063397000 -0.19265972325649425 0.7050187196506186 -0.6476630526375171 0.11744888313353469 0 0 0 0
1064387000 -0.18064424656923092 0.7092173459833722 -0.6473807959053514 0.10795285908687764 0 0 0 0
1065378000 -0.17865655369086691 0.7133725130942594 -0.6467928305653776 0.10361996504209604 0 0 0 0
1066368000 -0.18306315621616162 0.7112517313629414 -0.6445742029195826 0.10804794860549792 0 0 0 0
1067359000 -0.18151018857600756 0.7119650231669448 -0.6466328619426217 0.10312383660710034 0 0 0 0
1068350000 -0.1770769908022318 0.7157285596252984 -0.6450132213200745 0.11046917323425748 0 0 0 0
1069340000 -0.16787660113829922 0.7210393888331749 -0.6439471716846586 0.11398821846539586 0 0 0 0
1070331000 -0.16957273885186308 0.7173046147606031 -0.6436339277035611 0.10295758064081507 0 0 0 0
1071321000 -0.16361224265478494 0.7200806147691562 -0.6454652904688614 0.1031650162922607 0 0 0 0
1072312000 -0.16237129681860857 0.7225351979355754 -0.6452137928390617 0.1063684286894953 0 0 0 0
1073302000 -0.15878980474989127 0.7206214472575131 -0.6436511438020132 0.10284639222765062 0 0 0 0
1074293000 -0.15392857545713784 0.7226156542629083 -0.6467919354071322 0.09677074344380672 0 0 0 0
1075284000 -0.14944230108468734 0.7207063894077522 -0.6412471407010318 0.11494315501612816 0 0 0 0
1076274000 -0.14945584188722014 0.7230784135709785 -0.6457105543456025 0.09986265227123559 0 0 0 0
1077265000 -0.14777808611509854 0.722769802938465 -0.6449622443068715 0.10836803283474943 0 0 0 0
1078255000 -0.13679061385483823 0.7256801500298887 -0.6449445113396941 0.1056343425074773 0 0 0 0
1079246000 -0.1414498580285126 0.7197481447077829 -0.6445533936398778 0.10157282592470644 0 0 0 0
1080236000 -0.13701323368164664 0.72265066608052 -0.645301984519814 0.10448622106080752 0 0 0 0
1081227000 -0.13795210466852284 0.7235202000338187 -0.6492398814337894 0.10526915922134786 0 0 0 0
1082218000 -0.1330730142998307 0.7219763257614388 -0.6498961749604724 0.09885379803732779 0 0 0 0
1083208000 -0.12223404069159663 0.725924691960416 -0.647772137991032 0.09868754731482066 0 0 0 0
1084199000 -0.12300724874633813 0.726757847443347 -0.6542975721682288 0.10404648407189807 0 0 0 0
1085189000 -0.13486207217239407 0.726792370286734 -0.6557700743730424 0.10147338716045785 0 0 0 0
1086180000 -0.11598444594708031 0.7286457778088141 -0.6556281761301407 0.10465908802085493 0 0 0 0
1087171000 -0.1179040922639548 0.731600186553187 -0.6577964608571983 0.11052011918049659 0 0 0 0
1088161000 -0.10959669724824035 0.7291212997380205 -0.6540128522442406 0.11460827933249276 0 0 0 0
1089152000 -0.11609330487703179 0.7223107307647588 -0.6582070663236937 0.10971990166204851 0 0 0 0
1090142000 -0.11945994673423596 0.7233840118504294 -0.6618054211851012 0.10788962291436117 0 0 0 0
1091133000 -0.11568235389397484 0.7218912502719093 -0.6635628691328108 0.10839401699365649 0 0 0 0
1092123000 -0.11492238490006718 0.726677679231382 -0.6657239179222618 0.10107224232812703 0 0 0 0
1093114000 -0.11209841803866903 0.7214688454660736 -0.666611745932317 0.11727385841485967 0 0 0 0
1094105000 -0.117402789577702 0.7178258959231915 -0.6663247394896311 0.10569147742171614 0 0 0 0
1095095000 -0.10425943215458353 0.7195654414292424 -0.6686268791049809 0.11687864375722655 0 0 0 0
1096086000 -0.11212441089475186 0.7222279952264336 -0.6761437611083884 0.11071802681751731 0 0 0 0
1097076000 -0.10898127331633314 0.7146581638073523 -0.6709838074336739 0.12163723981420395 0 0 0 0
1098067000 -0.10514653573356429 0.7203243107834115 -0.6782466664323942 0.11486815143774334 0 0 0 0
1099058000 -0.1053966917725071 0.7198616663158686 -0.6785052314733641 0.1257205295778055 0 0 0 0
1100049000 -0.10515635234676106 0.718885921799888 -0.6827396685446301 0.12395945499391366 0 0 0 0
1101039000 -0.10312830759561482 0.7133418629557484 -0.6800210315214741 0.1345771521329019 0 0 0 0
1102030000 -0.10070076606563141 0.7155313265535932 -0.6850382024786311 0.1305087830715839 0 0 0 0
1103020000 -0.09549035167828869 0.7162174472301603 -0.6841349364102497 0.13796943692381702 0 0 0 0
1104011000 -0.10190318851127453 0.7152530929048151 -0.6885461145711105 0.13549910382918798 0 0 0 0
1105001000 -0.09818898786509843 0.7121458739760566 -0.6865796143556417 0.1387083280132231 0 0 0 0
1105992000 -0.09921458139134907 0.7122818677026251 -0.6890266523677028 0.15008194783865264 0 0 0 0
1106983000 -0.10038842679071927 0.7117078364215551 -0.6901811596617119 0.14921526674851232 0 0 0 0
1107973000 -0.10033654118405108 0.7135034303024541 -0.6957297353070246 0.14633461547550577 0 0 0 0
1108964000 -0.10340831860304958 0.7116525485622244 -0.6955624186898226 0.15087366591953622 0 0 0 0
1109954000 -0.09654477560392488 0.7100114985527705 -0.6950605516823111 0.154864683054412 0 0 0 0
1110945000 -0.1034093527492695 0.7098759603270571 -0.6928927656103284 0.1675484256321244 0 0 0 0
1111936000 -0.10047463798969314 0.7098646328637307 -0.6941966183517835 0.16300093027107895 0 0 0 0
1112926000 -0.09719821973098891 0.7109600634036425 -0.6993483234414727 0.16466637885733942 0 0 0 0
1113917000 -0.10365836991731171 0.7081991406350171 -0.6975180258982561 0.16683530535587987 0 0 0 0
1114907000 -0.09901377822177736 0.7054841699520814 -0.6912833380138537 0.18378754115581739 0 0 0 0
1115898000 -0.10769026436394497 0.7092753401391299 -0.696959213210167 0.17087152424228866 0 0 0 0
1116889000 -0.09798516452762304 0.7110067505975227 -0.6954618138410835 0.18372024744764956 0 0 0 0
1117879000 -0.10401607447153836 0.7086486817871553 -0.6894835754762721 0.19924888548969294 0 0 0 0
1118870000 -0.1033621774348258 0.7102681517537066 -0.688219458089226 0.1995740128441131 0 0 0 0
1119860000 -0.10432783538296193 0.7092644225779924 -0.6904928920518287 0.2065819837353667 0 0 0 0
1120851000 -0.10129103952954643 0.709168102921932 -0.6893255734877158 0.20576072528354925 0 0 0 0
1121841000 -0.10265893111591332 0.7153751034585644 -0.6858125217938884 0.21774159070209229 0 0 0 0
1122832000 -0.10878981479110472 0.7126398433936489 -0.6861614798119013 0.21529286761871974 0 0 0 0
1123823000 -0.10277195639933104 0.7148061549480057 -0.6834053691873374 0.21842478010266675 0 0 0 0
1124813000 -0.10146046301244503 0.7113088293295239 -0.6758271721058076 0.2250605913739223 0 0 0 0
1125804000 -0.10144527144061256 0.7224464485045462 -0.6830795444050825 0.2264054189948842 0 0 0 0
1126794000 -0.10918903966836394 0.7216103384678542 -0.6756136696612998 0.2340432267865206 0 0 0 0
1127785000 -0.10627217339606604 0.7204112027295663 -0.670512650458806 0.2371442422582822 0 0 0 0
1128776000 -0.1110459279260809 0.7204640876075706 -0.6675082429766166 0.24259804771797128 0 0 0 0
1129766000 -0.1042385735613819 0.7213827889830053 -0.6663964890427401 0.24135681361192463 0 0 0 0
1130757000 -0.10635620744688493 0.7254831197458568 -0.6628229393345522 0.2429883990564749 0 0 0 0
1131747000 -0.10453806314052778 0.7231069662812074 -0.6562020486417542 0.25152044122229583 0 0 0 0
1132738000 -0.10371163797254626 0.7296706708352417 -0.652960561352047 0.25408736443165675 0 0 0 0
1133729000 -0.10294220327908175 0.7298068645955214 -0.6481925230436417 0.2534740173938439 0 0 0 0
1134719000 -0.11310921669056655 0.7289267084605047 -0.6446792404373679 0.25960221343593226 0 0 0 0
1135710000 -0.09986356070555155 0.727447673820754 -0.6383627293198901 0.25683829902342253 0 0 0 0
1136700000 -0.09962181781877796 0.7346560547919676 -0.6376255631672366 0.26862980931807184 0 0 0 0
1137691000 -0.10307297489281315 0.7369443887815689 -0.6299282565036508 0.27197884414685947 0 0 0 0
1138682000 -0.10483482734629988 0.7369170442452586 -0.6260091700760652 0.27453800516969556 0 0 0 0
1139672000 -0.09891756355424712 0.7393507392254294 -0.6217513764703467 0.26990548281082866 0 0 0 0
1140663000 -0.09767576201319252 0.7414380095384541 -0.6193339750676962 0.27538418965756106 0 0 0 0
1141653000 -0.10428555221927938 0.7465832132971247 -0.6151677527090021 0.2766477120728147 0 0 0 0
1142644000 -0.09600961730805005 0.7533183849400766 -0.6166862629478497 0.2744213325415687 0 0 0 0
1143634000 -0.09653101059511258 0.7512629209097803 -0.6116971378179595 0.2689660908272347 0 0 0 0
1144625000 -0.09196154828758347 0.7451989656926745 -0.6011526939398757 0.27449963967572183 0 0 0 0
1145616000 -0.09361041279335869 0.7521412510724715 -0.6041687738257837 0.26430068836185605 0 0 0 0
1146606000 -0.09557832382310279 0.7522636331692235 -0.597999077252842 0.2641400169214926 0 0 0 0
1147597000 -0.09199757461649057 0.7563912694827377 -0.5926458635566038 0.27598374953571875 0 0 0 0
1148587000 -0.08703530535988077 0.755048874525191 -0.589261769536476 0.2682474223700751 0 0 0 0
1149578000 -0.07884112772608537 0.7664715559848502 -0.5893016581434996 0.2754183909926357 0 0 0 0
1150569000 -0.0784457632753102 0.7608764245220491 -0.5848824787686071 0.26770567925788935 0 0 0 0
1151559000 -0.08355170419436238 0.7578922252302429 -0.5778832506953535 0.2667961149652836 0 0 0 0
1152550000 -0.0788878935666328 0.7659972321928494 -0.5791479716245045 0.26800761481956054 0 0 0 0
1153540000 -0.07214727349151945 0.7614105474357602 -0.5715851814336096 0.264741721199397 0 0 0 0
1154531000 -0.07244927280545813 0.7669229488602105 -0.5761576332178721 0.25967863636048377 0 0 0 0
1155522000 -0.07026270751091353 0.7689549003979325 -0.5737929738040896 0.2595027747625926 0 0 0 0
1156512000 -0.06067463090952392 0.7667724532278731 -0.5627247612449316 0.2709326371710597 0 0 0 0
1157503000 -0.05771985780672643 0.7693518771021061 -0.5638653838972634 0.2665028272653101 0 0 0 0
1158493000 -0.05756528088630359 0.7753052787504219 -0.5663100500188117 0.2655636300953096 0 0 0 0
1159484000 -0.061101303165792015 0.7675755170597705 -0.5621889680672171 0.2592263720791925 0 0 0 0
1160474000 -0.056950129550422036 0.771359852018708 -0.5625088381098943 0.25684112079950155 0 0 0 0
1161465000 -0.052084428476712574 0.7705085067829462 -0.5601995319610521 0.2518034980940955 0 0 0 0
1162456000 -0.04782124939548755 0.7748753334732452 -0.5633910700317537 0.24465356471888025 0 0 0 0
1163446000 -0.04710763133153619 0.7795144759467042 -0.562268785095373 0.2539409300214083 0 0 0 0
1164437000 -0.03872864642525161 0.7785524721504142 -0.5597703052345417 0.2560150576007922 0 0 0 0
1165427000 -0.035287293479696544 0.7775759046650557 -0.5554853726950724 0.25452038755795114 0 0 0 0
1166418000 -0.04499309895497108 0.7730861824541767 -0.556276996741204 0.24598534048857593 0 0 0 0
1167409000 -0.03610430257386833 0.7730562103209622 -0.5555140993320388 0.24763653469765742 0 0 0 0
1168399000 -0.018748606367245135 0.7835993922386952 -0.5614487962911987 0.2454087875469016 0 0 0 0
1169390000 -0.02937208566214449 0.7768782096255041 -0.5591170534618547 0.2413268493734182 0 0 0 0
1170380000 -0.019269865477047673 0.7820608365145458 -0.563743654565015 0.23897637911950614 0 0 0 0
1171371000 -0.02155748891722955 0.7759377747640707 -0.5560841916533915 0.2427019082833676 0 0 0 0
1172362000 -0.02896878410050829 0.7748678641383573 -0.5567450745317227 0.24397919060641624 0 0 0 0
1173352000 -0.014156084497496804 0.7842821953282949 -0.5627905243913505 0.2391894664288874 0 0 0 0
1174343000 -0.006893909912442975 0.7835364348954401 -0.5631654144446766 0.24383815855369745 0 0 0 0
1175333000 -0.009204195003101224 0.7812894755151077 -0.5593580033170946 0.2475658743574636 0 0 0 0
1176324000 -0.004600764301083299 0.7783098649873783 -0.5597464472283602 0.24386929548149708 0 0 0 0
1177315000 0.0069703615965004155 0.7796752281346621 -0.5663677385390105 0.2401377081767747 0 0 0 0
1178305000 0.0002243925738516038 0.7733732637707954 -0.5663576206746066 0.22606769800391285 0 0 0 0
1179296000 0.00719143502894666 0.7774373445322301 -0.5683238559773492 0.23431404225943095 0 0 0 0
1180286000 0.010992391085380334 0.7745186705137375 -0.5673397099620594 0.24344049689893874 0 0 0 0
1181277000 0.014346702733476152 0.7788866651391464 -0.5649602534693763 0.24402444195801107 0 0 0 0
1182267000 0.012568306929588791 0.7744743744688393 -0.5663467646856785 0.24647262181087293 0 0 0 0
1183258000 0.020669713627622554 0.7751775730068451 -0.5718786388458333 0.24002797280825705 0 0 0 0
1184249000 0.010097319003187506 0.7702404869180433 -0.5750613673070588 0.2337935407239624 0 0 0 0
1185239000 0.014644618895989907 0.7706134604609972 -0.5745510853920038 0.2391095265948089 0 0 0 0
1186230000 0.012844589187220727 0.7727801157561155 -0.5787663750684052 0.24053349489388795 0 0 0 0
1187220000 0.024714213691143364 0.7738597943582394 -0.5775474360404205 0.24658939640247385 0 0 0 0
1188211000 0.027168254327735324 0.771795184179634 -0.5765172983228842 0.24577277520922444 0 0 0 0
1189202000 0.025109449864075043 0.7643123267344556 -0.5815941957338417 0.24048321544829857 0 0 0 0
1190192000 0.03617662011261496 0.7641211142827475 -0.581345667861003 0.24964259496525557 0 0 0 0
1191183000 0.039052682231446416 0.7629633367521892 -0.5876424942289281 0.23789399884966364 0 0 0 0
1192173000 0.03844977639678136 0.7645779448794529 -0.582950213789961 0.2540619777872742 0 0 0 0
1193164000 0.034855857034997585 0.7648688128159653 -0.5859238998506487 0.26092971135060244 0 0 0 0
1194155000 0.03993137275480901 0.7648597479157903 -0.5919042164047893 0.2511861765242879 0 0 0 0
1195145000 0.04249440532827861 0.7662069264540973 -0.592384367255354 0.25968932372313064 0 0 0 0
1196136000 0.04536062002028092 0.7643370914721026 -0.5957013903650782 0.2523212176378209 0 0 0 0
1197126000 0.04315944819311301 0.7582756746753646 -0.5927734945681533 0.2631683710804674 0 0 0 0
