# HZ S RI R 50
1000000000 -0.048612731862488545 0.5703216563510161 -0.5465874570772999 0.3211863691654089 0 0 0 0
1000990000 -0.04269521818846055 0.5741955858964923 -0.548459202388273 0.3168720465103361 0 0 0 0
1001981000 -0.045422614830676944 0.5702298302102201 -0.5485648154461235 0.31936685298366035 0 0 0 0
1002971000 -0.04674058653217349 0.5757935532940953 -0.5467594658875734 0.3261458611350287 0 0 0 0
1003962000 -0.050244106068267 0.5749145878173842 -0.5467391875623325 0.3249517741922087 0 0 0 0
1004952000 -0.04688977166816752 0.5732763665455164 -0.5474785386195237 0.32463781561958327 0 0 0 0
1005943000 -0.04190112670838406 0.5743151793035935 -0.5456625039437377 0.32957517485475196 0 0 0 0
1006934000 -0.039680502905258735 0.577593613377345 -0.5415455234123236 0.3405507763885604 0 0 0 0
1007924000 -0.04322201684255755 0.5766936031018493 -0.5449586101113923 0.3329903165563368 0 0 0 0
1008915000 -0.03724766060517495 0.5761015096184982 -0.538249607801886 0.3422663429352035 0 0 0 0
1009905000 -0.04070138171660395 0.5756074493112552 -0.5333049460266598 0.3509073960470508 0 0 0 0
1010896000 -0.042310499586466425 0.5784336830531817 -0.5367848345050301 0.34694067847675963 0 0 0 0
1011886000 -0.038410307803579416 0.57859130899447 -0.5335457206605565 0.34893400441239664 0 0 0 0
1012877000 -0.045527135735843036 0.5744624124838567 -0.5285498156380389 0.34842780727541955 0 0 0 0
1013868000 -0.04168969562712704 0.5783334872996346 -0.5285609201925583 0.35473446787809354 0 0 0 0
1014858000 -0.04019462436004435 0.5803603628445284 -0.5263486197136809 0.3580628885201332 0 0 0 0
1015849000 -0.04082327364453392 0.5843471425815759 -0.5256102959130768 0.3619616633821024 0 0 0 0
1016839000 -0.037314680837886985 0.5841307904696513 -0.5192315062388614 0.36736783341339774 0 0 0 0
1017830000 -0.04023552040231608 0.5849576057204701 -0.5177650323869211 0.36732912348794555 0 0 0 0
1018821000 -0.03410737353114983 0.590887051843675 -0.5169913345900881 0.3761233761396384 0 0 0 0
1019811000 -0.03918960657369198 0.5863800913089326 -0.5121718437936927 0.37387708906167105 0 0 0 0
1020802000 -0.033942438803304005 0.5906775026424026 -0.5071882317336923 0.38308131085460456 0 0 0 0
1021792000 -0.03723720396882209 0.5888568917509205 -0.5058154264011322 0.3809582695367792 0 0 0 0
1022783000 -0.03345708425857537 0.5961295603320056 -0.501028956187071 0.3874157765224766 0 0 0 0
1023773000 -0.03507795876760779 0.5924888005199154 -0.4977709445762754 0.3851819759524734 0 0 0 0
1024764000 -0.02768362012193113 0.5951075780377162 -0.49247448686911 0.3923393719828318 0 0 0 0
1025755000 -0.033914186838489846 0.5957841307319105 -0.49708414189406525 0.3821157649319346 0 0 0 0
1026745000 -0.02475349293344412 0.5992201303870307 -0.490871460882048 0.390384082149831 0 0 0 0
1027736000 -0.027118987833267303 0.5983852399122492 -0.4823726610561702 0.3945130423420807 0 0 0 0
1028726000 -0.024890041339793056 0.5993151793132602 -0.48826826116757943 0.39035564113366633 0 0 0 0
1029717000 -0.01875194890674829 0.6034539207195844 -0.4826274322019595 0.39156959063849495 0 0 0 0
1030707000 -0.020040455741185414 0.6062958852311806 -0.47557754442268807 0.39686479580464595 0 0 0 0
1031698000 -0.025048164397682354 0.6064095024532962 -0.47703365032926665 0.3912096521806907 0 0 0 0
1032689000 -0.02010478929384842 0.6055485039467848 -0.4702855863505715 0.3971679432783429 0 0 0 0
1033679000 -0.015315892264955633 0.6054037289220059 -0.4642832325935263 0.398562408875529 0 0 0 0
1034670000 -0.014044988969378796 0.6095426396226423 -0.4633181161901808 0.39886739242129743 0 0 0 0
1035660000 -0.00955971191789914 0.6072213102071642 -0.453674982700757 0.40112426606512847 0 0 0 0
1036651000 -0.009338040861984165 0.6159730765055311 -0.4538956217363292 0.40359574858509223 0 0 0 0
1037642000 -0.006789390285392568 0.6165596318737788 -0.45152938934689407 0.40154624003870465 0 0 0 0
1038632000 -0.004535770807600892 0.6144820703958248 -0.4466642295872268 0.40532343639962704 0 0 0 0
1039623000 -0.0008657814652013794 0.6133859573799626 -0.4470178177314878 0.3977317935498844 0 0 0 0
1040613000 -0.00474378511786084 0.614933742369908 -0.4401335835371187 0.4023515607873005 0 0 0 0
1041604000 -0.0044665822702017795 0.6192725194853148 -0.43972082547238717 0.40195312780814985 0 0 0 0
1042594000 0.0012166706781654888 0.618873769803813 -0.4384991837330867 0.39713615449396183 0 0 0 0
1043585000 0.005548193018845954 0.6168398293848902 -0.4298596057386407 0.4023105998004128 0 0 0 0
1044576000 0.0044191866404230335 0.6187484628234328 -0.4239538106536575 0.40455809633470724 0 0 0 0
1045566000 0.011465125266090774 0.6254970319214526 -0.42901935458321766 0.40149714776438317 0 0 0 0
1046557000 0.014177548206286335 0.6229427298826888 -0.4300415914682404 0.3974521685514245 0 0 0 0
1047547000 0.013298641390899991 0.6217658475983497 -0.4271469540668661 0.3947464028628013 0 0 0 0
1048538000 0.012227153276518722 0.6223539914495283 -0.4243236926352029 0.3947892014521888 0 0 0 0
1049529000 0.020583882514680574 0.6227852820710952 -0.4234896672843633 0.394061996484887 0 0 0 0
1050519000 0.028309411294654047 0.6251991147707983 -0.4224439127811491 0.39539204291480184 0 0 0 0
1051510000 0.024413212469114987 0.625674699528646 -0.41065396794687964 0.40397868498709394 0 0 0 0
1052500000 0.03076410807466452 0.6262456970039372 -0.41569445383051296 0.39676825558436 0 0 0 0
1053491000 0.03326130962054325 0.6290334713452764 -0.41654608827793527 0.3947803037145114 0 0 0 0
1054481000 0.037244312709457925 0.6281585715690111 -0.41502118949360534 0.395328261724752 0 0 0 0
1055472000 0.04166079064820599 0.6230631316620346 -0.40959248530644143 0.39686442255082294 0 0 0 0
1056463000 0.036776045438707876 0.6250627745221631 -0.41236174708900614 0.39241893363773067 0 0 0 0
1057453000 0.04741523665600081 0.6272301235523674 -0.410778920395186 0.39567878940554835 0 0 0 0
1058444000 0.046121813951376094 0.6245888300926445 -0.41170462113851686 0.3890586860597639 0 0 0 0
1059434000 0.046867260924082874 0.6208222509567629 -0.40862216900069015 0.3926322143740005 0 0 0 0
1060425000 0.050163645993231934 0.6217878230776837 -0.4086522604340395 0.3959716172599051 0 0 0 0
1061415000 0.057603137071349064 0.6192533599606139 -0.40137389118967726 0.39784112556045215 0 0 0 0
1062406000 0.0628712477889294 0.6228194741544903 -0.4068277447363374 0.39326076707057855 0 0 0 0
1063397000 0.06199923653221371 0.6206206246512928 -0.4070779543424399 0.39577374065439686 0 0 0 0
1064387000 0.06686212591168789 0.6175172041303757 -0.4050101295465819 0.3956445113435035 0 0 0 0
1065378000 0.06857113580105849 0.6205068995135855 -0.402409646969525 0.3987637947827136 0 0 0 0
1066368000 0.07276662250283242 0.6227683520450885 -0.400292598286822 0.39867197147758543 0 0 0 0
1067359000 0.080563485810073 0.6196486714985137 -0.40182571364689634 0.3999494947854223 0 0 0 0
1068350000 0.07362128191082598 0.6170157439177836 -0.398317928814783 0.4018146675035288 0 0 0 0
1069340000 0.0803061468763234 0.6178814253014392 -0.3956392050576206 0.40556481619278784 0 0 0 0
1070331000 0.085031525632808 0.6174666874460965 -0.4001554406212468 0.3995381001587067 0 0 0 0
1071321000 0.08027744513225155 0.6166362955703149 -0.40081176820750264 0.40046292003461187 0 0 0 0
1072312000 0.08237699775728302 0.6150488395101537 -0.39656320349323115 0.4052579919818016 0 0 0 0
1073302000 0.08782748707593453 0.6142355046385144 -0.39794445681109863 0.4004148791082707 0 0 0 0
1074293000 0.08965503223899449 0.6111500129302158 -0.3999761968228369 0.4011991485993098 0 0 0 0
1075284000 0.08386394774431508 0.6099317112465231 -0.39610418441185913 0.40452178045147963 0 0 0 0
1076274000 0.09875910727506094 0.6120087156830551 -0.3921413926561909 0.4095226154095963 0 0 0 0
1077265000 0.09593218892595098 0.6092600437315561 -0.3898278311866735 0.4115011940949181 0 0 0 0
1078255000 0.09956690332576602 0.6077789265324947 -0.39007432622531313 0.4117952935611481 0 0 0 0
1079246000 0.09941571933351917 0.6025864247424343 -0.3871273562072993 0.4124796305644029 0 0 0 0
1080236000 0.10307808522199226 0.6082683218254461 -0.38526114729653727 0.41482236747546397 0 0 0 0
1081227000 0.10453260526078835 0.6060895911089195 -0.3894794613846062 0.4138990035860995 0 0 0 0
1082218000 0.10453247474554302 0.6052061763179625 -0.3903958054716045 0.4142588290204718 0 0 0 0
1083208000 0.10579767199823112 0.6001131046420619 -0.38710007713785904 0.41209490865829834 0 0 0 0
1084199000 0.11051341393317918 0.6046886226877533 -0.3872295626207882 0.41964432649713457 0 0 0 0
1085189000 0.1076396567257669 0.6070900686011043 -0.3880913074916586 0.4197586244700598 0 0 0 0
1086180000 0.1142470550362668 0.6050709403259898 -0.3840338078454725 0.4204816984184401 0 0 0 0
1087171000 0.10958138096539968 0.6073019176648108 -0.38258314480994127 0.42180778366777744 0 0 0 0
1088161000 0.11204788514012694 0.6027151818689467 -0.3768547072277366 0.4273401302951114 0 0 0 0
1089152000 0.11193267703504353 0.6003189021456795 -0.3853014799419766 0.4206401748353064 0 0 0 0
1090142000 0.11454239356971205 0.6030588192114008 -0.3767587892376722 0.43105406557055376 0 0 0 0
1091133000 0.11231602275012635 0.5987246701554197 -0.378734487833333 0.42862350982614833 0 0 0 0
1092123000 0.1075218693880572 0.6014140460996689 -0.379978646696818 0.42695353011664133 0 0 0 0
1093114000 0.1180586598998001 0.5972761912428004 -0.3706858881534086 0.43745112189651736 0 0 0 0
1094105000 0.11341778322866695 0.5973215042111253 -0.37505106252323506 0.43046327152468034 0 0 0 0
1095095000 0.11484690842726171 0.596703877157791 -0.370820993060799 0.43547629397341814 0 0 0 0
1096086000 0.11487853345936481 0.6015239815704774 -0.37699053873672417 0.4349894297469277 0 0 0 0
1097076000 0.11272277780832499 0.5968035546964713 -0.3731357069468358 0.43542494865852366 0 0 0 0
1098067000 0.11482078749876118 0.5977287144676021 -0.3777756231595328 0.43518363548444294 0 0 0 0
1099058000 0.11411349821827378 0.5999696326415592 -0.37115286912233175 0.4421696025478493 0 0 0 0
1100049000 0.10934367326268393 0.6046878083879406 -0.37030727959748017 0.44508448827743874 0 0 0 0
1101039000 0.10936366458910428 0.6064533042633286 -0.3693703043284127 0.4443844600979425 0 0 0 0
1102030000 0.11681484799361098 0.6026968530353009 -0.36594755473729085 0.44892281305914294 0 0 0 0
1103020000 0.11521765229751028 0.6042308732053456 -0.36146906499402265 0.45399832323843525 0 0 0 0
1104011000 0.11073427682802023 0.6068831441201189 -0.3659013530435016 0.4525166976749907 0 0 0 0
1105001000 0.11572195514541586 0.602294208608879 -0.3561567474280131 0.4587557609257784 0 0 0 0
1105992000 0.1140503130759482 0.605018297865943 -0.35759912938425503 0.46061853885553966 0 0 0 0
1106983000 0.11666411919600939 0.6054835374816966 -0.3575970129312629 0.4577038759975445 0 0 0 0
1107973000 0.12272689363498356 0.6074728536990328 -0.3568711105319923 0.4606382187717581 0 0 0 0
1108964000 0.11055011308734734 0.610100018727509 -0.35781319529871075 0.4610600123226366 0 0 0 0
1109954000 0.12119038725752794 0.6053031445937284 -0.35215980029277244 0.46463962593605307 0 0 0 0
1110945000 0.11726968670210682 0.6093413460560865 -0.34439124623722417 0.47121846816163704 0 0 0 0
1111936000 0.12421223561019824 0.6105131756714925 -0.3423230718370264 0.47108933214696047 0 0 0 0
1112926000 0.12809802704439377 0.6105334217499088 -0.3412119644533739 0.47392804539435895 0 0 0 0
1113917000 0.12404531972941617 0.6126122492550571 -0.34588822803317454 0.4730407556303169 0 0 0 0
1114907000 0.1256898896496877 0.6069070346946357 -0.333626846399919 0.4761896309867381 0 0 0 0
1115898000 0.12883783003912846 0.612001118023642 -0.3355445469459728 0.47804477184679256 0 0 0 0
1116889000 0.13560029964808598 0.6116223343371158 -0.3307327634761733 0.4835035966571955 0 0 0 0
1117879000 0.13022802083706356 0.6105755406163985 -0.32583924148310683 0.48518993036391095 0 0 0 0
1118870000 0.13160524449142103 0.614252729551685 -0.3225754174235268 0.48535112193224766 0 0 0 0
1119860000 0.1291139177063125 0.6181090472979622 -0.3188304222427033 0.48980524626091876 0 0 0 0
1120851000 0.13372026984016674 0.6186341367452278 -0.31908183245419947 0.4880768168816626 0 0 0 0
1121841000 0.1396754648273651 0.619501642042912 -0.313234286440401 0.49111520382448665 0 0 0 0
1122832000 0.14012519169558407 0.619481261014271 -0.30816431250721993 0.49247902191390514 0 0 0 0
1123823000 0.14596894648200254 0.6177681726583129 -0.307101612681898 0.4927824474407534 0 0 0 0
1124813000 0.13692977658827232 0.6187611143448353 -0.3034452740011157 0.48909293141417887 0 0 0 0
1125804000 0.15084989281528938 0.6264161046118324 -0.3039161519076132 0.4931177000461793 0 0 0 0
1126794000 0.1469288208634184 0.6261891984083998 -0.30195909263061205 0.4899179974424452 0 0 0 0
1127785000 0.14568493531704332 0.6271154195177848 -0.293379395814615 0.49353415049474936 0 0 0 0
1128776000 0.15230738232382243 0.6246281414812732 -0.282311075847297 0.4965493801713401 0 0 0 0
1129766000 0.15445243591108848 0.6238123032995466 -0.28455864419963345 0.493878450057071 0 0 0 0
1130757000 0.15661344976076583 0.6243801727821724 -0.284360440608295 0.4910746846007796 0 0 0 0
1131747000 0.16010730195520814 0.619748018068309 -0.273208531244621 0.49427607288755954 0 0 0 0
1132738000 0.16056975559331269 0.6253515790247288 -0.27693539178674625 0.49120504525277003 0 0 0 0
1133729000 0.16814071425222543 0.6230405194781746 -0.2639097215189188 0.4916206493922705 0 0 0 0
1134719000 0.16115195414820102 0.6229482866899901 -0.26627675863934214 0.4932639216309167 0 0 0 0
1135710000 0.17064214108376435 0.6201199740337382 -0.25669949274030585 0.4898940619935659 0 0 0 0
1136700000 0.17726983199719068 0.6235322595182443 -0.2580905216313095 0.4916586948784797 0 0 0 0
1137691000 0.1734763735906296 0.6234554298358519 -0.2524529944324233 0.4900638843249595 0 0 0 0
1138682000 0.1746486451808333 0.6230633658841764 -0.24712449140227763 0.4914020113876876 0 0 0 0
1139672000 0.17912186452301734 0.6212741516050465 -0.24574557320973095 0.4868282228097502 0 0 0 0
1140663000 0.18298445701979776 0.6242921926148528 -0.24854313962997235 0.48732695153466166 0 0 0 0
1141653000 0.1835371641756219 0.6252647219738289 -0.24562556950899397 0.4848297850952789 0 0 0 0
1142644000 0.19292238986181354 0.6265373914552671 -0.24065471784065334 0.488526281138975 0 0 0 0
1143634000 0.19754443106281638 0.6225311924467295 -0.24395852507740018 0.4834080992487129 0 0 0 0
1144625000 0.19354435251605917 0.6142863777732658 -0.23825027975462795 0.4785053908446129 0 0 0 0
1145616000 0.19851364286782405 0.619101602281692 -0.24105815198870978 0.47604498535373285 0 0 0 0
1146606000 0.19922106460284442 0.6160101950034632 -0.23576943133014097 0.4737502282292326 0 0 0 0
1147597000 0.19884041100020983 0.6192003654524165 -0.23650926509848724 0.4726422086475585 0 0 0 0
1148587000 0.21344330929840857 0.6106483079326566 -0.22920563957496945 0.47346994775279394 0 0 0 0
1149578000 0.2169812126504627 0.6203006544005792 -0.2290796904008798 0.47458171045047076 0 0 0 0
1150569000 0.21601126288432923 0.6148967110132629 -0.23044522541530416 0.47095317481333293 0 0 0 0
1151559000 0.2205686976272763 0.6095872838169012 -0.22543380639584884 0.4700134717991922 0 0 0 0
1152550000 0.21747690367224048 0.615292025491323 -0.23077236412337682 0.4681238942748731 0 0 0 0
1153540000 0.21790425016227283 0.608712912519989 -0.2252138496981632 0.4642207343636709 0 0 0 0
1154531000 0.2309988239263747 0.6091878442682951 -0.22562291407166046 0.4684539691722424 0 0 0 0
1155522000 0.23619040278863776 0.6031049194487256 -0.2260636986804191 0.4678028586166159 0 0 0 0
1156512000 0.22896585084186277 0.6059699198855812 -0.2198017628842529 0.46598389111442223 0 0 0 0
1157503000 0.23920086478166677 0.6027800333588869 -0.21821886168516869 0.46868746995442684 0 0 0 0
1158493000 0.2358481062678467 0.6049529733621529 -0.22124919543054028 0.4685458268050047 0 0 0 0
1159484000 0.23404123241264277 0.598728572460339 -0.21876758938089286 0.4642761863274157 0 0 0 0
1160474000 0.244878486219495 0.5972074000828133 -0.21910491776379115 0.4650639139654961 0 0 0 0
1161465000 0.24932736077735437 0.5947862063441406 -0.22127204802107497 0.46197702723453693 0 0 0 0
1162456000 0.2481489527579312 0.5938826600932491 -0.22558565413616188 0.45975806569133476 0 0 0 0
1163446000 0.25618680976893987 0.5947285845363915 -0.21317370320982457 0.46927036975381253 0 0 0 0
1164437000 0.25635383345255336 0.5932578391792314 -0.2178714809268169 0.4667730418911897 0 0 0 0
1165427000 0.25350854879496953 0.5911550792167991 -0.21663861725533048 0.46472883066994586 0 0 0 0
1166418000 0.24930370938712754 0.5883754007730487 -0.21591570905434512 0.4620469852178602 0 0 0 0
1167409000 0.2552853901496545 0.5852086247434297 -0.21770368428564207 0.46238718891651226 0 0 0 0
1168399000 0.2700867680763068 0.5867426267972974 -0.21950461736879712 0.4659542808374934 0 0 0 0
1169390000 0.2621004156947661 0.5817931573913558 -0.21738208660423877 0.46569182735102044 0 0 0 0
1170380000 0.2701724490157939 0.5810267847465816 -0.21743575493930886 0.46648229931308294 0 0 0 0
1171371000 0.26838507699247166 0.5774430147292651 -0.2085522155295675 0.46759643699382275 0 0 0 0
1172362000 0.26374278898053666 0.5813867308500145 -0.21719539256131545 0.46533271390951714 0 0 0 0
1173352000 0.27293231574514343 0.5824429595816055 -0.21352196014003483 0.4678863788130823 0 0 0 0
1174343000 0.27644446577302795 0.5793182786713997 -0.21026632365962045 0.47351817903881377 0 0 0 0
1175333000 0.2701084943842606 0.5777811291345474 -0.20826245150808437 0.47016274839872574 0 0 0 0
1176324000 0.26970265347482686 0.5740329330788914 -0.2106361172614241 0.47083805626324354 0 0 0 0
1177315000 0.2785360418452024 0.5696947426443686 -0.20395561787996644 0.4762528618389449 0 0 0 0
1178305000 0.28200187187427117 0.5660077688689337 -0.20699608083189316 0.46943109315704373 0 0 0 0
1179296000 0.2796448824159306 0.5652336625683227 -0.20454105553990742 0.47225166813090647 0 0 0 0
1180286000 0.2791812738134861 0.5658910597493926 -0.2070801545912672 0.47439114390809944 0 0 0 0
1181277000 0.27561703154084716 0.5638877766382676 -0.19818679607130388 0.47652254080464196 0 0 0 0
1182267000 0.28157514983817467 0.5614317875192326 -0.194749451320669 0.47961768377008607 0 0 0 0
1183258000 0.2856927803365352 0.5581347107217856 -0.1952912923570517 0.4782552498655345 0 0 0 0
1184249000 0.2786466562980268 0.5573513484684991 -0.19825840138531614 0.4788233546235161 0 0 0 0
1185239000 0.2887591348826162 0.5513239177410425 -0.19416647974282758 0.4805870047605582 0 0 0 0
1186230000 0.28646314547811275 0.5559521163829099 -0.19516474154387234 0.4813420352073293 0 0 0 0
1187220000 0.2898023989638678 0.5524900250329999 -0.18933146784977278 0.484350141273199 0 0 0 0
1188211000 0.28754800264499053 0.5564083016779531 -0.18993219758523391 0.48402595911167484 0 0 0 0
1189202000 0.2816527673496718 0.5520438764453564 -0.1957404635212226 0.48151309886381183 0 0 0 0
1190192000 0.2930858128089061 0.5482297317408626 -0.18752779041667145 0.4860024811450061 0 0 0 0
1191183000 0.295395950773836 0.5460466640147009 -0.19118532028604315 0.4859642266571708 0 0 0 0
1192173000 0.28902507903594193 0.5525381455029408 -0.18306962187781664 0.4894081331421569 0 0 0 0
1193164000 0.29178137145065874 0.5534439232354927 -0.18511449709447939 0.4919301668463684 0 0 0 0
1194155000 0.29646706408687096 0.5466311024490562 -0.18230140927035368 0.4913173201315931 0 0 0 0
1195145000 0.2915182178480979 0.5556902398749658 -0.18134540825968362 0.4949252358459791 0 0 0 0
1196136000 0.2981111111891676 0.5493343540223095 -0.1843160084427818 0.4916577146564913 0 0 0 0
1197126000 0.29137852012106286 0.5511486269387302 -0.179171891723557 0.4953001378826859 0 0 0 0
1198117000 0.2959114855110839 0.5489202852339792 -0.18054834387554722 0.49725864994484187 0 0 0 0
1199108000 0.29336963033468183 0.5514219448441797 -0.17947788741739693 0.4973332508115723 0 0 0 0
