# HZ S RI R 50
1000000000 -0.056198038500639744 0.576946113282566 -0.5348858631422245 0.3129258649715306 0 0 0 0
1000990000 -0.05399415753886783 0.5804238890643116 -0.5378107898170015 0.3096237786916312 0 0 0 0
1001981000 -0.054693783909863056 0.5778224954947746 -0.5365434937404874 0.31180433294733895 0 0 0 0
1002971000 -0.0560212911027326 0.5804058695527053 -0.5347480048601969 0.31666929494079105 0 0 0 0
1003962000 -0.055993503417356885 0.5796950638768728 -0.5342549582473114 0.32012505300026783 0 0 0 0
1004952000 -0.05754511358614109 0.576636520050463 -0.534979941867748 0.3172493038175884 0 0 0 0
1005943000 -0.0502689545040077 0.5808828969676098 -0.5337860505215773 0.32000183384153963 0 0 0 0
1006934000 -0.048313686357503126 0.582197749866352 -0.531622582616021 0.329802981532957 0 0 0 0
1007924000 -0.05212877457966468 0.5815942930704884 -0.5298125838514961 0.33078682437077356 0 0 0 0
1008915000 -0.049301789202220364 0.5815355787779608 -0.5292565095344436 0.3299905018022002 0 0 0 0
1009905000 -0.0513660742764393 0.5813914871562748 -0.5259589330260157 0.3353354072625183 0 0 0 0
1010896000 -0.04843688141547711 0.583768506779476 -0.524512559311959 0.3405512067572687 0 0 0 0
1011886000 -0.04635092084778193 0.5851037806015608 -0.5223393647835401 0.3381946794739529 0 0 0 0
1012877000 -0.049531908252075575 0.581359217576355 -0.5148958440523238 0.34232668151102674 0 0 0 0
1013868000 -0.050064361762931824 0.5861608025213559 -0.5167960267555601 0.3471987749316576 0 0 0 0
1014858000 -0.0490524142665306 0.5866626349903744 -0.5169960450844369 0.34572651383032227 0 0 0 0
1015849000 -0.05113538354137963 0.5892761706248525 -0.5119091963963701 0.3517659002919746 0 0 0 0
1016839000 -0.04596205851588698 0.591619899485716 -0.5078476692109561 0.36023292053449124 0 0 0 0
1017830000 -0.046851358551841596 0.5899510244867892 -0.5099775002665178 0.35304680400542754 0 0 0 0
1018821000 -0.0476447799397432 0.5970481416181197 -0.5067826147253095 0.3667387471788038 0 0 0 0
1019811000 -0.05092311908922657 0.5924938423576906 -0.5038840713463554 0.3607129928931085 0 0 0 0
1020802000 -0.044124771898983235 0.5971620964502355 -0.49923643543627094 0.3718464071174526 0 0 0 0
1021792000 -0.04365721538399661 0.5980498595139287 -0.49399236259291185 0.37284339478694856 0 0 0 0
1022783000 -0.04015585072927997 0.6019768571515839 -0.4913077189880291 0.3759866257519521 0 0 0 0
1023773000 -0.04352943893897072 0.6003987144745403 -0.49144456257960845 0.3712246134547011 0 0 0 0
1024764000 -0.04020451007746197 0.6035325877722425 -0.48865465622544574 0.3753142092157339 0 0 0 0
1025755000 -0.0442987425369949 0.6048847756849375 -0.4898604398704613 0.3698444750584991 0 0 0 0
1026745000 -0.038386221758647074 0.6062063853913092 -0.4845488582790938 0.37697542271552364 0 0 0 0
1027736000 -0.03890877854843114 0.6060897604610993 -0.47597031437477033 0.381477287529954 0 0 0 0
1028726000 -0.0310651892518676 0.6082887928912435 -0.47669966740314507 0.3838194712975381 0 0 0 0
1029717000 -0.03251496551236388 0.6116089941066558 -0.4748700488862614 0.3807814448600663 0 0 0 0
1030707000 -0.030664876965504306 0.6136019318287214 -0.4663343795121624 0.38822479224108164 0 0 0 0
1031698000 -0.0291291289258116 0.6111574282786327 -0.4632235427734103 0.3891754503893358 0 0 0 0
1032689000 -0.028159432089895835 0.6117241597000485 -0.45994190068585644 0.3880553583473592 0 0 0 0
1033679000 -0.016604133000917943 0.6102240541317542 -0.4504991932367433 0.3952867953096499 0 0 0 0
1034670000 -0.022060397793692895 0.6154597818534568 -0.4550241277908451 0.3889464867912984 0 0 0 0
1035660000 -0.028808393321180494 0.6177461793226653 -0.4536250602148143 0.38376513940340357 0 0 0 0
1036651000 -0.023486711549798183 0.6226570834740917 -0.4473762390934278 0.39160479386219726 0 0 0 0
1037642000 -0.012271543112434606 0.6225275025019728 -0.44134232006656837 0.3944899659499028 0 0 0 0
1038632000 -0.01635505037423831 0.620837358634218 -0.4399729544598327 0.3916056247181089 0 0 0 0
1039623000 -0.010585490718468147 0.6224639923821856 -0.4386919456244409 0.39039612239359023 0 0 0 0
1040613000 -0.013925707733720316 0.6213033508835227 -0.43290424458646776 0.3915735615929889 0 0 0 0
1041604000 -0.0097074358494784 0.6261097092650569 -0.42926762595229906 0.39538022170746384 0 0 0 0
1042594000 -0.008343042332071046 0.6241455987061768 -0.42961662402674305 0.38676653591418814 0 0 0 0
1043585000 -0.004971118731749114 0.6250350528956524 -0.42688117210586324 0.3878468364669602 0 0 0 0
1044576000 -0.0019220808636091367 0.6252307628584111 -0.41523735159268627 0.39723113580278724 0 0 0 0
1045566000 0.005591018154766493 0.6283404252875766 -0.4242057266574222 0.38724648696146147 0 0 0 0
1046557000 0.007340628995207215 0.628118098650192 -0.42095015665872815 0.3871323069657814 0 0 0 0
1047547000 0.012252193168085665 0.6270029048869041 -0.41382570290240384 0.39047139790377255 0 0 0 0
1048538000 0.004863093478223689 0.6277776123831206 -0.41461391533494757 0.3861412966358966 0 0 0 0
1049529000 0.009905622571323925 0.6295396426614015 -0.41356099564286497 0.38654536065560186 0 0 0 0
1050519000 0.022370694010480655 0.6293133928702024 -0.40985365126886025 0.3886614696191155 0 0 0 0
1051510000 0.021880982170738132 0.6307202219497298 -0.401510772329992 0.3935562016742432 0 0 0 0
1052500000 0.021658109469810834 0.6314960775230796 -0.408098230132764 0.38416821072415636 0 0 0 0
1053491000 0.02753174997818577 0.6308629106277261 -0.4049266062232257 0.3878706504785014 0 0 0 0
1054481000 0.03431907732056744 0.6334792717860882 -0.4028758744629563 0.3868474798234681 0 0 0 0
1055472000 0.03206183430172569 0.6291191305225311 -0.40095557033736734 0.3871684353127315 0 0 0 0
1056463000 0.027282826443548864 0.6312347952304258 -0.40675479942300713 0.37984103599488817 0 0 0 0
1057453000 0.04328550190794287 0.6325587457700341 -0.4008255100189695 0.38761495123303064 0 0 0 0
1058444000 0.03890141644613355 0.6314443797354751 -0.4007470997208922 0.381912403606208 0 0 0 0
1059434000 0.04508628265439662 0.6290813746523217 -0.3976188795551579 0.3837130835141183 0 0 0 0
1060425000 0.05085606681276192 0.6296033923233045 -0.3983959186778435 0.3856354340943791 0 0 0 0
1061415000 0.04878860022822198 0.62534566591774 -0.391108524961229 0.3887256422568063 0 0 0 0
1062406000 0.05054753228706723 0.6281398062346437 -0.39853963065377745 0.3821490255260883 0 0 0 0
1063397000 0.0530812956094054 0.6244704884830512 -0.39057102952949335 0.3903608056858109 0 0 0 0
1064387000 0.05640153802883244 0.6267945063640116 -0.3943775867033935 0.38682992476830474 0 0 0 0
1065378000 0.055148880031780055 0.6242205395994102 -0.39230003077654696 0.38733509350951806 0 0 0 0
1066368000 0.05369645318287848 0.6276866452751961 -0.3914954603056651 0.3860627790056803 0 0 0 0
1067359000 0.06535879379680246 0.6234086035913958 -0.39558918816743444 0.3834929945040201 0 0 0 0
1068350000 0.06618058329703459 0.6259857848890441 -0.3868322506912063 0.3938644976813868 0 0 0 0
1069340000 0.0757125624105269 0.6250688040497544 -0.38249514323135775 0.3977679568129355 0 0 0 0
1070331000 0.07605452040641769 0.6254926082012244 -0.385213451243162 0.3941578796480846 0 0 0 0
1071321000 0.07319104016729737 0.6215306462166807 -0.3850507308630305 0.3928566903481142 0 0 0 0
1072312000 0.07766364131210869 0.6225607376517552 -0.3847130249816293 0.3960539291593648 0 0 0 0
1073302000 0.08218219824278147 0.6239626128765725 -0.3865951326056395 0.39408001587685026 0 0 0 0
1074293000 0.07998810226911274 0.6189004503703703 -0.39292882358004855 0.38759332217589 0 0 0 0
1075284000 0.0816208269784828 0.6161623240944044 -0.37645314026978416 0.40289263598959707 0 0 0 0
1076274000 0.08728722052360413 0.6188359198315759 -0.3811769586378778 0.40001912370118964 0 0 0 0
1077265000 0.08786301515154638 0.6190625455140805 -0.3814857537072182 0.3984959931448868 0 0 0 0
1078255000 0.09519689246977656 0.6153996570267314 -0.3826545481139451 0.39805860331082177 0 0 0 0
1079246000 0.08755882035582413 0.6131252423987699 -0.37996139233073656 0.3992215907098395 0 0 0 0
1080236000 0.09290218626327547 0.6134644843255163 -0.3784889420714088 0.39950863549525756 0 0 0 0
1081227000 0.09298311728598678 0.613942561638544 -0.3786027811496878 0.40341572394195074 0 0 0 0
1082218000 0.0959109696616564 0.6134491453189223 -0.375544574866845 0.40523067288744435 0 0 0 0
1083208000 0.0954804492944395 0.6093867324439768 -0.3784450997525964 0.3975917545426279 0 0 0 0
1084199000 0.09749151389498995 0.6107050552358556 -0.3745066258128339 0.40762812258875714 0 0 0 0
1085189000 0.09772756925681723 0.6149962782066948 -0.37765328952676674 0.40521418022056793 0 0 0 0
1086180000 0.10442288033602558 0.61167156145714 -0.376090679204217 0.4046571341079817 0 0 0 0
1087171000 0.10312343783211118 0.6157766431273413 -0.3689529849061586 0.4141413083843951 0 0 0 0
1088161000 0.10316925883486527 0.6093972669903981 -0.36579835150247453 0.4134087817796848 0 0 0 0
1089152000 0.10654246131435438 0.6091903879499321 -0.3714168129182129 0.40967466540229847 0 0 0 0
1090142000 0.10795366616789616 0.6120901235799048 -0.36447876572563526 0.4178160363911257 0 0 0 0
1091133000 0.10765968080687324 0.6096670160628542 -0.3697167915003758 0.4141712409114085 0 0 0 0
1092123000 0.10233496234308483 0.6094617583157014 -0.36734685719021126 0.416061766237752 0 0 0 0
1093114000 0.1045687838939995 0.6065859567012851 -0.3638531329791679 0.4207181759342563 0 0 0 0
1094105000 0.10276211304253148 0.6086031196251706 -0.36472495213921324 0.4167187450131779 0 0 0 0
1095095000 0.1058702582265206 0.6055004565223534 -0.36378098762114697 0.4187556222429767 0 0 0 0
1096086000 0.10653161852324738 0.6108479281732622 -0.3672601893467695 0.42092865314054706 0 0 0 0
1097076000 0.10387860258859066 0.6053791738345399 -0.3612676584735808 0.4226699285058958 0 0 0 0
1098067000 0.11052720604379297 0.6087670483662152 -0.36728165814313485 0.4204101937406599 0 0 0 0
1099058000 0.11148098963190407 0.6090893201074666 -0.3561774823283412 0.4308180172454076 0 0 0 0
1100049000 0.10799660797089923 0.6123833994036241 -0.35813382498245483 0.430270019990598 0 0 0 0
1101039000 0.10876017989819535 0.6097671550141437 -0.3591171570311238 0.42826637030749254 0 0 0 0
1102030000 0.1139691045088994 0.6093133255821642 -0.35563028268408964 0.4348875570869205 0 0 0 0
1103020000 0.11259133503030237 0.6090755169560833 -0.35484543883433084 0.4342728231491961 0 0 0 0
1104011000 0.11238170849903051 0.6122677774468397 -0.3522730887557379 0.43843054075284016 0 0 0 0
1105001000 0.11645838155312764 0.6085156565013169 -0.3522073810473905 0.4355704231995204 0 0 0 0
1105992000 0.11451335571765846 0.6116908879503993 -0.34508092709984584 0.4458813671912716 0 0 0 0
1106983000 0.1160970663838572 0.610369105465614 -0.3540033084432169 0.43718694534667213 0 0 0 0
1107973000 0.11911885718232314 0.6139809429331639 -0.34849233666171736 0.44433859466062237 0 0 0 0
1108964000 0.10892812779596867 0.6144180116179517 -0.3514728601662158 0.4423459285141099 0 0 0 0
1109954000 0.11858553281497934 0.6121572847787603 -0.34645517130896936 0.4465604807701249 0 0 0 0
1110945000 0.11747684271351462 0.6153740606640685 -0.33647044283515865 0.4542123468162013 0 0 0 0
1111936000 0.11889302013934472 0.6160400775333117 -0.338511926406071 0.45064354701824993 0 0 0 0
1112926000 0.12744016183519766 0.6164798522326803 -0.34007860595080625 0.4521945679728722 0 0 0 0
1113917000 0.11858631728860478 0.6174075588319864 -0.33776836426718543 0.4522740212292408 0 0 0 0
1114907000 0.12215459867571517 0.6142617328238071 -0.3273243376884082 0.46099742311810304 0 0 0 0
1115898000 0.12793366711409035 0.6173993612850037 -0.32741866021710464 0.45986983013010974 0 0 0 0
1116889000 0.12973873119823798 0.6190330148296267 -0.33212959643338325 0.45854036997612907 0 0 0 0
1117879000 0.12776690670025476 0.6183485198963005 -0.3188229804764709 0.4648971933217868 0 0 0 0
1118870000 0.12596327558933074 0.621453463818102 -0.32245729757819025 0.46200887969356075 0 0 0 0
1119860000 0.13201193827129726 0.6199957870251698 -0.31598505043389447 0.4682184545907427 0 0 0 0
1120851000 0.13101218177039384 0.6221399560214649 -0.31285709789646876 0.46755702393990495 0 0 0 0
1121841000 0.13556992839665802 0.6257799354617057 -0.30998498282612574 0.47105579592015445 0 0 0 0
1122832000 0.13303158008266341 0.6258915880007039 -0.30648675603974385 0.46881322311954227 0 0 0 0
1123823000 0.14387380974634195 0.624320816438629 -0.30066114005940175 0.47431936696183646 0 0 0 0
1124813000 0.13970071330987446 0.6213134454093535 -0.2945433288888691 0.47235705943173345 0 0 0 0
1125804000 0.14700852140600604 0.6296315913275382 -0.2909205777578738 0.47696859700117517 0 0 0 0
1126794000 0.14895371009378733 0.6301277754066699 -0.2920801912123182 0.4734940627667065 0 0 0 0
1127785000 0.14181638834588065 0.6313408910846222 -0.2880219918663962 0.47201169384370484 0 0 0 0
1128776000 0.14668612538027787 0.6303113045263935 -0.28313060912474086 0.47470663342880004 0 0 0 0
1129766000 0.15396867285923932 0.6262387599717752 -0.28010005841982805 0.47314889981052766 0 0 0 0
1130757000 0.1535926241107245 0.6294007099279626 -0.27971273728825174 0.46993544688125916 0 0 0 0
1131747000 0.15340581397199196 0.6255428955105296 -0.26970445819277944 0.473624739400121 0 0 0 0
1132738000 0.15811267458238923 0.6294132180020212 -0.27122340329606914 0.4704626518428138 0 0 0 0
1133729000 0.16648289818067186 0.6248499495536851 -0.2608461885620007 0.470798117215515 0 0 0 0
1134719000 0.1602237211175999 0.6288245830406307 -0.255706943829811 0.4747599393392558 0 0 0 0
1135710000 0.16804601073478886 0.6247721521107804 -0.2539621527601288 0.46932042626863885 0 0 0 0
1136700000 0.17281275074746047 0.6280534399554094 -0.2554054972948227 0.46972553837456166 0 0 0 0
1137691000 0.1804665099918807 0.6253382192266432 -0.24671296301115522 0.47199398379019575 0 0 0 0
1138682000 0.17156978789274047 0.6287911020486888 -0.24413649317179292 0.4703127774374404 0 0 0 0
1139672000 0.17272265758874888 0.6281762229684542 -0.2448760051836721 0.46595251109649655 0 0 0 0
1140663000 0.17662254277239176 0.6304039555828853 -0.24217028275391736 0.46675585692915755 0 0 0 0
1141653000 0.18612754732945258 0.6275313278601791 -0.23626472800029472 0.4661360964548093 0 0 0 0
1142644000 0.19121151124767277 0.6320082774947094 -0.23252262133892074 0.4690794252411594 0 0 0 0
1143634000 0.1975443079507609 0.6273719328442594 -0.23901408838224125 0.4618672692504958 0 0 0 0
1144625000 0.18316499581534387 0.625502324266722 -0.23343480927281332 0.45688967621590076 0 0 0 0
1145616000 0.19493384544491385 0.626255763311112 -0.2294892938272056 0.4582723593255019 0 0 0 0
1146606000 0.1934065782997526 0.6271171270663206 -0.2304910459156098 0.45380299027634463 0 0 0 0
1147597000 0.19820712906987545 0.6240314249213739 -0.22562887339354268 0.45693796969402856 0 0 0 0
1148587000 0.20868546491074041 0.6186581191153707 -0.22529791301382143 0.4523415849222514 0 0 0 0
1149578000 0.20505468721425466 0.6297665320752209 -0.22706178319729187 0.4543378846614439 0 0 0 0
1150569000 0.2104260302300992 0.6230506270874707 -0.22192209628397938 0.45229458100844905 0 0 0 0
1151559000 0.21232417010984658 0.6215524593474684 -0.22147900796198886 0.4492573820951724 0 0 0 0
1152550000 0.21858935109019068 0.6216934786233083 -0.22244150329468032 0.45003081427136066 0 0 0 0
1153540000 0.21261433574431068 0.621912204896008 -0.22067067036451707 0.4464171389604998 0 0 0 0
1154531000 0.22478431554980058 0.615600245471578 -0.22031889707709015 0.4483903579033923 0 0 0 0
1155522000 0.22994378433272356 0.6139429864532969 -0.21780310331630126 0.4499583367526438 0 0 0 0
1156512000 0.2281613112720417 0.614867684232894 -0.2158939218903454 0.44682920485078415 0 0 0 0
1157503000 0.22671089248550252 0.614073145674945 -0.21738110001028305 0.4468108584459316 0 0 0 0
1158493000 0.24275166990790778 0.6106408714757439 -0.21550674711175405 0.448849519075392 0 0 0 0
1159484000 0.22709499781961937 0.6115134200426554 -0.21669970236057257 0.44294042548492807 0 0 0 0
1160474000 0.2311645667253218 0.6092201833418299 -0.22383596557109153 0.44010120207444353 0 0 0 0
1161465000 0.23395059745046143 0.6058449895479412 -0.21967186747818235 0.44111919180233305 0 0 0 0
1162456000 0.24316023599553854 0.6054269882900438 -0.21814919564758115 0.44074588650171287 0 0 0 0
1163446000 0.2432244944860734 0.6067501473069292 -0.214831509252782 0.4453673808062049 0 0 0 0
1164437000 0.24816765467947552 0.6051333409688158 -0.21696262823304024 0.4423308473193379 0 0 0 0
1165427000 0.2503604950207573 0.6010696942733317 -0.2121928809103822 0.44406619902414113 0 0 0 0
1166418000 0.24345376606760896 0.598603810651015 -0.21424746522026106 0.4403554824541462 0 0 0 0
1167409000 0.2470957335211643 0.5968824802390367 -0.2170407976855621 0.44049251382152343 0 0 0 0
1168399000 0.2645162281402323 0.5974023159753864 -0.21265407529715044 0.4453143693078954 0 0 0 0
1169390000 0.2514579742716509 0.5966466248030948 -0.21627780036429162 0.4416460553446147 0 0 0 0
1170380000 0.25978988334543657 0.5949976068779914 -0.20993938684362642 0.4457768637837238 0 0 0 0
1171371000 0.25979539184136213 0.5857620944106583 -0.20748125089020686 0.4446436283218204 0 0 0 0
1172362000 0.2570952819976364 0.5915577159720069 -0.21053760800935703 0.4442015192365701 0 0 0 0
1173352000 0.2737646717945998 0.5885883863504033 -0.2062759413302923 0.4498122316964601 0 0 0 0
1174343000 0.267665069011495 0.59078283323445 -0.20873471044241945 0.45057278213551916 0 0 0 0
1175333000 0.27035088865092316 0.5900674185695584 -0.20562267866339642 0.448065900751193 0 0 0 0
1176324000 0.27223774785165833 0.5851531210906074 -0.20726276790153675 0.4477946727760945 0 0 0 0
1177315000 0.27500641789653496 0.5836392532199478 -0.2113107503765394 0.45018144818093936 0 0 0 0
1178305000 0.28144190422824356 0.5753290568194612 -0.21028531467552825 0.44437270138609314 0 0 0 0
1179296000 0.2848212818030288 0.576776823518412 -0.20189354396256176 0.4511519545391442 0 0 0 0
1180286000 0.2780566437288233 0.5772475994796954 -0.20172014223929374 0.45269417314457444 0 0 0 0
1181277000 0.2804762349011375 0.5771482197719406 -0.19734485882769634 0.45507421409793125 0 0 0 0
1182267000 0.2787702320574051 0.576107291414214 -0.19810174053077417 0.45545289146222157 0 0 0 0
1183258000 0.2896133604583278 0.5701815897409199 -0.19314271322772603 0.45649985918840225 0 0 0 0
1184249000 0.27774922997239576 0.573514666433578 -0.198854986772313 0.4554193050184827 0 0 0 0
1185239000 0.28204633275552377 0.568047991756864 -0.1961844779285665 0.45735623848243223 0 0 0 0
1186230000 0.28231302007707565 0.5695912859518637 -0.19774654578080825 0.4560957455732998 0 0 0 0
1187220000 0.2838568991271977 0.5732082173176688 -0.2004044399708329 0.4583861022803447 0 0 0 0
1188211000 0.28805402749478987 0.5700780472296291 -0.19341402405269237 0.4599190436515886 0 0 0 0
1189202000 0.2808196385689366 0.5668756068294105 -0.20142032010378608 0.4571836905810281 0 0 0 0
1190192000 0.2907165072431975 0.5623169029105461 -0.1900555981511848 0.4617701689556804 0 0 0 0
1191183000 0.29681597087778705 0.5580173333383327 -0.19589496232680367 0.4612672503811089 0 0 0 0
1192173000 0.2907379374062758 0.5627106756780141 -0.18826252191352463 0.4640699316367871 0 0 0 0
1193164000 0.28980695101547155 0.5649230991359934 -0.187625724161623 0.46584994575551136 0 0 0 0
1194155000 0.2964149023385837 0.5604612810245833 -0.1871849312599174 0.46682720664378397 0 0 0 0
1195145000 0.28942539091857683 0.56423588128979 -0.18211983412237978 0.47266296478540504 0 0 0 0
1196136000 0.2942947870879192 0.562467078069641 -0.1906171856168008 0.4665706415614017 0 0 0 0
1197126000 0.2973136370333683 0.5586302525329556 -0.17800747231156275 0.4727828402935497 0 0 0 0
1198117000 0.2972535858420126 0.55985165199941 -0.18207285179231283 0.4727899446649979 0 0 0 0
1199108000 0.2974431013533146 0.5612681379063695 -0.17968668982710795 0.4735074712285675 0 0 0 0
