# HZ S RI R 50
1000000000 -0.03758990180107172 0.5568434368299752 -0.520869884631602 0.3115470576166001 0 0 0 0
1000990000 -0.03311377534846923 0.5586719280342978 -0.519404931047098 0.3157548370538723 0 0 0 0
1001981000 -0.03303904458665478 0.5555834416216976 -0.5191575472260914 0.31523453849848265 0 0 0 0
1002971000 -0.03657007241577828 0.5602159007120205 -0.5199259537598623 0.3165396130590026 0 0 0 0
1003962000 -0.03480077564847367 0.5592557634417622 -0.517498147716875 0.3214901116202329 0 0 0 0
1004952000 -0.035055252439497364 0.5588432453474773 -0.5196409757292789 0.31882213267342324 0 0 0 0
1005943000 -0.027261622402563405 0.5614399096925934 -0.5151509465786486 0.32572339503707876 0 0 0 0
1006934000 -0.02686379420983056 0.5638650280012543 -0.5113187784007214 0.3346117542809395 0 0 0 0
1007924000 -0.028962266743201598 0.5625443189336573 -0.5118653760885791 0.3332682645606803 0 0 0 0
1008915000 -0.029871085293849874 0.5628689661518015 -0.5135828793527634 0.33047986791994405 0 0 0 0
1009905000 -0.02824361672418195 0.5622521342512181 -0.507333703962544 0.3406928142287523 0 0 0 0
1010896000 -0.02967462545651158 0.5642511423759912 -0.5063152518677475 0.34349342742166183 0 0 0 0
1011886000 -0.025671899722663427 0.5640492656709494 -0.503089349601467 0.3453104901165716 0 0 0 0
1012877000 -0.032080886873052814 0.5602290158288857 -0.49912097472476596 0.34539969117831754 0 0 0 0
1013868000 -0.024817461642650685 0.5655880770912746 -0.5012570011404244 0.34702090209821224 0 0 0 0
1014858000 -0.02778608230289239 0.5661486451926536 -0.49718939186886146 0.3496274440273568 0 0 0 0
1015849000 -0.026629490758806686 0.5700662036322737 -0.49273845740611266 0.35674219716821476 0 0 0 0
1016839000 -0.023760662824788156 0.5704148344948378 -0.49073287592681913 0.35768947937454365 0 0 0 0
1017830000 -0.01960818747690976 0.5701974311386532 -0.4872674091581906 0.35963634026028724 0 0 0 0
1018821000 -0.021024527320531682 0.5772020104910993 -0.4880664989812602 0.36616600066375987 0 0 0 0
1019811000 -0.023379676320198158 0.5707044433143696 -0.4803353608307914 0.36769154098749757 0 0 0 0
1020802000 -0.017706473532858327 0.5744425022252783 -0.4769569676607286 0.3752948329981747 0 0 0 0
1021792000 -0.02145019062469455 0.5771797183813181 -0.4734687289658174 0.37328816165071554 0 0 0 0
1022783000 -0.017400845966978763 0.5795772585837373 -0.46977961057404344 0.3788522750386307 0 0 0 0
1023773000 -0.019303026832925816 0.5777983258373885 -0.4652584749428311 0.37798239035399145 0 0 0 0
1024764000 -0.01365411112384453 0.581430050203742 -0.4662101143800782 0.3790978276242465 0 0 0 0
1025755000 -0.017319069918950263 0.5834075448986628 -0.4643171740055811 0.377106063876891 0 0 0 0
1026745000 -0.01173972154189501 0.5843609149026455 -0.4618599558254929 0.3788311250401432 0 0 0 0
1027736000 -0.011412079916398166 0.5817163974178835 -0.4517040925933229 0.38610555511316896 0 0 0 0
1028726000 -0.006863504856276641 0.5849004009127621 -0.4563086583214219 0.3820966342486386 0 0 0 0
1029717000 -0.006150580457566205 0.5899693177510903 -0.45032550337550026 0.38315577100606 0 0 0 0
1030707000 -0.00723476353055235 0.5888735126028452 -0.4467274410974187 0.3849709277882587 0 0 0 0
1031698000 -0.005654681551786389 0.5902599029595433 -0.4433777400557786 0.38477483052310746 0 0 0 0
1032689000 -0.004617013217509602 0.5879712539488208 -0.4399338187805379 0.3845935985393848 0 0 0 0
1033679000 -0.0008784890012106766 0.5902671824011261 -0.4357042366889721 0.38626835357290473 0 0 0 0
1034670000 0.0005145019728766858 0.5941124514128802 -0.43435296424830566 0.38634344873448107 0 0 0 0
1035660000 0.0038986442533088814 0.5925781818238459 -0.4264832630330088 0.3885107192190149 0 0 0 0
1036651000 0.0031227757546269303 0.5983259258866362 -0.4228205514938825 0.39199367020710046 0 0 0 0
1037642000 0.011747035138778424 0.6000552451699392 -0.4184802322030502 0.3920302002915478 0 0 0 0
1038632000 0.011754255969968293 0.5974672171320757 -0.41597827827462586 0.39122122178364477 0 0 0 0
1039623000 0.016057331047941752 0.5958694432099201 -0.4166772066492642 0.3866872457852175 0 0 0 0
1040613000 0.015130149322479778 0.5960639289167312 -0.40917486047187746 0.38918688059513734 0 0 0 0
1041604000 0.01365582764146041 0.6004585956853511 -0.4126683583617797 0.38522919485190604 0 0 0 0
1042594000 0.015878573835823393 0.6003535165716549 -0.4066342337198376 0.38570477699347816 0 0 0 0
1043585000 0.02267986183032579 0.5983185999299474 -0.4037783530340712 0.38448765294353293 0 0 0 0
1044576000 0.024526548132155178 0.6006606667547818 -0.3977969260651724 0.388855442036592 0 0 0 0
1045566000 0.030465250053677957 0.6045384036353856 -0.399845414198238 0.385165065559891 0 0 0 0
1046557000 0.030405893109897185 0.6033550927900495 -0.39872202067663975 0.38358572838008204 0 0 0 0
1047547000 0.03272568363672534 0.6023017890449259 -0.38809650922599914 0.3888497147991016 0 0 0 0
1048538000 0.03539830228860401 0.6018482532638334 -0.39302385848847843 0.38145494095015 0 0 0 0
1049529000 0.03685241409555549 0.6013125092897703 -0.3940629261373608 0.38014740265189445 0 0 0 0
1050519000 0.045710377734450344 0.6015833687914506 -0.3920773316127385 0.379490007513836 0 0 0 0
1051510000 0.046987206672144156 0.6041436692376438 -0.38345881382840824 0.38543085012350825 0 0 0 0
1052500000 0.05398671462505354 0.6037703852818842 -0.38751719971914733 0.3791199931483449 0 0 0 0
1053491000 0.05432846901169634 0.6037492115146851 -0.38519796255555416 0.3808574952723244 0 0 0 0
1054481000 0.05701476082578984 0.6066214769428131 -0.38165522381530365 0.3820196515784293 0 0 0 0
1055472000 0.059646542331445195 0.6018558268587978 -0.37870684671291943 0.3819548656129551 0 0 0 0
1056463000 0.057465303552618405 0.602670710925551 -0.3851682330013922 0.37610327494660395 0 0 0 0
1057453000 0.06685082966818916 0.6065209608868753 -0.379039104636428 0.38286053606627 0 0 0 0
1058444000 0.06828847586780114 0.6042164236622037 -0.3782453534070717 0.3786992214642118 0 0 0 0
1059434000 0.06771021576111697 0.6012207774397064 -0.37700318236676855 0.3785322517423353 0 0 0 0
1060425000 0.07367714834622666 0.6018186236264349 -0.38007134467439707 0.3779902408000065 0 0 0 0
1061415000 0.07496069313462511 0.5985644031606858 -0.37327125121454297 0.3789565132992242 0 0 0 0
1062406000 0.0738681022686118 0.5993369297293598 -0.37821683832101255 0.37463431805899255 0 0 0 0
1063397000 0.07402610599562827 0.5982852655918584 -0.3737307336026046 0.38024353036550823 0 0 0 0
1064387000 0.09089177850692397 0.5973094051447153 -0.37585478569810443 0.37850254722025334 0 0 0 0
1065378000 0.08882940178436934 0.6005255757268194 -0.37122828240728134 0.3822156125614595 0 0 0 0
1066368000 0.08590404276485465 0.6013645771304716 -0.37303570330904046 0.37968454589357126 0 0 0 0
1067359000 0.09240822339120072 0.5975534436277667 -0.3708515613284722 0.3828928765686937 0 0 0 0
1068350000 0.09519879028903472 0.5971166878103854 -0.36867565716935397 0.38483025895046247 0 0 0 0
1069340000 0.098896154266284 0.5949212754143199 -0.36464052234298727 0.3885018455764744 0 0 0 0
1070331000 0.09495653422891784 0.5950877261765845 -0.3690811982816668 0.38227132563553745 0 0 0 0
1071321000 0.10264367477268461 0.5919015934188004 -0.3690390929897479 0.38580347987001656 0 0 0 0
1072312000 0.10125126900320637 0.5931743535649533 -0.36652390780450067 0.3869178058423789 0 0 0 0
1073302000 0.10310724520369355 0.5916414775192629 -0.37146816948964334 0.3816602294878663 0 0 0 0
1074293000 0.10748076113783636 0.5913098735719459 -0.372224047882992 0.3817476786802405 0 0 0 0
1075284000 0.10875436129555421 0.5890173844811507 -0.36223908456469195 0.3894862880098314 0 0 0 0
1076274000 0.1129444445126316 0.5915540536454933 -0.364455160909969 0.3885168448210969 0 0 0 0
1077265000 0.11647834606144084 0.5871042086473923 -0.3598599860693265 0.3943475503719719 0 0 0 0
1078255000 0.11918703266306939 0.5895493083732555 -0.3627424067095862 0.3919822085747791 0 0 0 0
1079246000 0.1211221799854308 0.5840233008732014 -0.3634613498000185 0.39019891184661404 0 0 0 0
1080236000 0.11799204802586452 0.5870689872798888 -0.3557058378744957 0.39672372446569354 0 0 0 0
1081227000 0.121306840297409 0.584964350307223 -0.36703078794405086 0.38930870613144236 0 0 0 0
1082218000 0.12225589003436653 0.58348829166549 -0.3612161680241104 0.39299310592662773 0 0 0 0
1083208000 0.12554605814951084 0.5813926264272412 -0.3589630300667369 0.392606294675011 0 0 0 0
1084199000 0.12347831805926363 0.583425135909149 -0.36218002821848566 0.3949481246419113 0 0 0 0
1085189000 0.12379452682458994 0.586068500528168 -0.3619392225337228 0.39662962779539784 0 0 0 0
1086180000 0.12859672716311907 0.5830138309931912 -0.35980942316749887 0.39619338223297235 0 0 0 0
1087171000 0.1304083540383767 0.5869857927185153 -0.35178586712366405 0.4050463162911008 0 0 0 0
1088161000 0.13113966844461536 0.5832421309926363 -0.35005224726766987 0.4037489688947106 0 0 0 0
1089152000 0.13566882844942504 0.5795966898784688 -0.3533871099278256 0.40294815602178835 0 0 0 0
1090142000 0.12852496785486445 0.5805149659498348 -0.3489650939242331 0.40853466604580324 0 0 0 0
1091133000 0.1283801004467583 0.578049323392352 -0.3528892074157 0.40463046613685494 0 0 0 0
1092123000 0.12932310409109476 0.5785604781506292 -0.35113893103613086 0.40673920836989097 0 0 0 0
1093114000 0.1360662983468556 0.576953771627727 -0.34642207571043304 0.4127874077266097 0 0 0 0
1094105000 0.13367810368117738 0.5764874135715767 -0.3428023208926092 0.41190528898008566 0 0 0 0
1095095000 0.1334234018383891 0.57616911269713 -0.34706638489618896 0.4112076510556435 0 0 0 0
1096086000 0.1338904220523277 0.5801748137939092 -0.34932259175566693 0.41283520569801274 0 0 0 0
1097076000 0.13637384420271123 0.573400410125137 -0.34073726595307186 0.4157121587606973 0 0 0 0
1098067000 0.140204628041805 0.5772134938476485 -0.34810222948610825 0.41404403051613564 0 0 0 0
1099058000 0.13614027499739012 0.5801933134167088 -0.3437512423088117 0.41933597405176537 0 0 0 0
1100049000 0.14000260542322798 0.580652074778724 -0.339855716213681 0.42136021799380374 0 0 0 0
1101039000 0.14241797296667738 0.5801934676188994 -0.335775566432447 0.423314459803434 0 0 0 0
1102030000 0.14318419446421185 0.5779083371771169 -0.3381140312431429 0.4262580301731795 0 0 0 0
1103020000 0.14129981289993143 0.5772342892675721 -0.3331594518055779 0.42784860190571017 0 0 0 0
1104011000 0.14171102785395187 0.5801936168279305 -0.3371208341499694 0.428720302032854 0 0 0 0
1105001000 0.14643574140812818 0.5779709225183365 -0.33409613808446054 0.42877863562666974 0 0 0 0
1105992000 0.1381252727204962 0.5792044543478054 -0.33276572984060954 0.43154286675625825 0 0 0 0
1106983000 0.14959025602030637 0.578888609909947 -0.32881556326256905 0.43395156405689833 0 0 0 0
1107973000 0.14978108538363102 0.5800681685521257 -0.3301121234447229 0.43453620883606714 0 0 0 0
1108964000 0.14605246700285926 0.5813694023478001 -0.3285908480881097 0.4372488497844638 0 0 0 0
1109954000 0.15217727611631768 0.578682580731269 -0.3242071802086031 0.4382878795120268 0 0 0 0
1110945000 0.14783952571734812 0.5826269720514483 -0.31963012588203993 0.4423408552320048 0 0 0 0
1111936000 0.14994928335732716 0.5814564657915936 -0.31874824447799194 0.44165535051428007 0 0 0 0
1112926000 0.15766029668522596 0.5837546981560804 -0.316928843058302 0.44741811078687727 0 0 0 0
1113917000 0.15056576326045434 0.5835943921013673 -0.3169848583362524 0.44442868176996164 0 0 0 0
1114907000 0.1537784946186766 0.5804989628306122 -0.30668328455810373 0.44932200933905425 0 0 0 0
1115898000 0.15998310817756092 0.5814009287084595 -0.30794108312247515 0.4496412210007561 0 0 0 0
1116889000 0.16172828956345925 0.5858801070533821 -0.3093685166031115 0.44984981677245833 0 0 0 0
1117879000 0.15568778846008638 0.5849668636704233 -0.29743877404625696 0.4555272470142293 0 0 0 0
1118870000 0.16194946480013275 0.5856244455798945 -0.298215386039884 0.4541567970304101 0 0 0 0
1119860000 0.16576222294324977 0.583772613747124 -0.28578648050902056 0.4630523669419552 0 0 0 0
1120851000 0.16619601555996963 0.583133626883479 -0.28634488418761633 0.46115083650329164 0 0 0 0
1121841000 0.1675299410504267 0.5872157377843102 -0.2824997801411657 0.46148816825095096 0 0 0 0
1122832000 0.16767494948167705 0.5858902491463853 -0.28131906047587035 0.46040275494287414 0 0 0 0
1123823000 0.17675604114138574 0.5857365688682823 -0.2764013649076284 0.4621138993326737 0 0 0 0
1124813000 0.16835712013705276 0.5857256725034546 -0.2742232247299596 0.45929687258176366 0 0 0 0
1125804000 0.18368708335326983 0.5896433709010889 -0.2729053395483109 0.4627645525117344 0 0 0 0
1126794000 0.1791729578370744 0.5934730022647178 -0.27382156058679624 0.4606979922146045 0 0 0 0
1127785000 0.17900046173500808 0.5901058524810475 -0.26461353688029715 0.4605265715676732 0 0 0 0
1128776000 0.18228529112995337 0.5863835635711726 -0.25778841924054136 0.4622354844223716 0 0 0 0
1129766000 0.18358852097212794 0.5912222797489853 -0.2615362028890884 0.458308994370915 0 0 0 0
1130757000 0.1863722408485339 0.592302352894336 -0.25626746605697137 0.4570950881641235 0 0 0 0
1131747000 0.1881470857005316 0.5870365598897979 -0.2465615829046208 0.46042396143437003 0 0 0 0
1132738000 0.19398443308034863 0.5880314677497802 -0.24670289382089042 0.4571789187164812 0 0 0 0
1133729000 0.195222850437466 0.5868845243206658 -0.24164182815587665 0.4531602881414034 0 0 0 0
1134719000 0.19661553631782372 0.5884116037581599 -0.23440444216843603 0.45773566384144493 0 0 0 0
1135710000 0.20004616542813933 0.585993224209244 -0.23158244985932053 0.45310939515792786 0 0 0 0
1136700000 0.2087435850821866 0.5863168606965112 -0.22785808172961214 0.4568666351193909 0 0 0 0
1137691000 0.20442847434947803 0.5894192611225534 -0.2253477908703512 0.4549639201027202 0 0 0 0
1138682000 0.19914309629928909 0.5913110692818333 -0.22443558696350996 0.45299634042490644 0 0 0 0
1139672000 0.20517948648366421 0.5910506756876864 -0.22533567334007656 0.44874470478990713 0 0 0 0
1140663000 0.20972345611333806 0.5867870816865456 -0.22231089026489528 0.4486393479700679 0 0 0 0
1141653000 0.2175341779489521 0.5924301149018867 -0.21440422697286832 0.45056644038484633 0 0 0 0
1142644000 0.22226835344444884 0.5904517139411247 -0.2182232111697163 0.44774550740340396 0 0 0 0
1143634000 0.22851365648000063 0.5849302857164472 -0.21791519938770493 0.4456299703171339 0 0 0 0
1144625000 0.2154898722061176 0.5875693702918586 -0.21493418299255412 0.44050507838117325 0 0 0 0
1145616000 0.22387286115972946 0.5854720009158384 -0.21730973752366742 0.4375210735661954 0 0 0 0
1146606000 0.22252087765369777 0.5839934243730448 -0.2128159940455798 0.4349027040758807 0 0 0 0
1147597000 0.22560849443038924 0.5865503380584344 -0.20731520567663023 0.4383530642446612 0 0 0 0
1148587000 0.2346846839699876 0.5796605046947784 -0.2110680013821924 0.4330091186796802 0 0 0 0
1149578000 0.24594945196764972 0.5827622762624491 -0.20189943577023423 0.4384636567144195 0 0 0 0
1150569000 0.24121526216992192 0.5786976169925546 -0.20930050706638736 0.43005398056478245 0 0 0 0
1151559000 0.24189459829824791 0.5799356459650552 -0.20344770006480228 0.42956578929098316 0 0 0 0
1152550000 0.2497698279178849 0.5794734549555707 -0.20311527156295917 0.4310952843974207 0 0 0 0
1153540000 0.24548098037688998 0.5753322916851056 -0.2084079188515928 0.4245669991177109 0 0 0 0
1154531000 0.24727359425692674 0.5770565981317227 -0.20766338590026903 0.425523668277238 0 0 0 0
1155522000 0.25944844583752924 0.568382893257078 -0.20278714191867375 0.4278331893709888 0 0 0 0
1156512000 0.2562974921090684 0.5708386982987466 -0.19899442939343193 0.4263030975771254 0 0 0 0
1157503000 0.2559016514103232 0.5698208593426948 -0.198529602595657 0.42719083414758824 0 0 0 0
1158493000 0.26988415656854287 0.5684102376178515 -0.201375595930091 0.4277889788547383 0 0 0 0
1159484000 0.258468473314855 0.5662849231405712 -0.19994434410411213 0.42487480453956933 0 0 0 0
1160474000 0.2696190552834826 0.5626910346582322 -0.20103822423171291 0.42433621548969114 0 0 0 0
1161465000 0.2725356730485328 0.5609997189957137 -0.20083883307987094 0.42250540794880165 0 0 0 0
1162456000 0.2679582054227673 0.5616076410730418 -0.20555904941019962 0.420311102496117 0 0 0 0
1163446000 0.277342215435094 0.5608594287766495 -0.19954248876373915 0.42496537112155214 0 0 0 0
1164437000 0.2811877313110002 0.5570076526487822 -0.19589103436706334 0.4256386630042396 0 0 0 0
1165427000 0.2858392014819376 0.5561709417831653 -0.1926969153366332 0.42682629288350327 0 0 0 0
1166418000 0.27843208371457623 0.5548241356733131 -0.19715045628874542 0.4232111419038634 0 0 0 0
1167409000 0.2784750848573586 0.552959351203694 -0.19940721526114133 0.4226743646255498 0 0 0 0
1168399000 0.2931141547397242 0.5506356441882612 -0.20129306809565237 0.4227015789252217 0 0 0 0
1169390000 0.29030550603569255 0.5467931513777821 -0.19640641291657923 0.42557676845508186 0 0 0 0
1170380000 0.29251831862463973 0.5455208347152916 -0.19572385841015036 0.42591218470389175 0 0 0 0
1171371000 0.29558856359844365 0.5427972883027101 -0.1912762424935393 0.4273114784421661 0 0 0 0
1172362000 0.290476513289584 0.5457928350212952 -0.19487310274403835 0.4260978519052742 0 0 0 0
1173352000 0.29960002771863636 0.5495190331644725 -0.19153045184926232 0.4296891189817641 0 0 0 0
1174343000 0.30615609663894816 0.5435010937576034 -0.18856781314084373 0.4321906674395159 0 0 0 0
1175333000 0.3021476157277914 0.5457420830750555 -0.1873716737171964 0.4297671285189654 0 0 0 0
1176324000 0.300212088110883 0.5381338926593667 -0.1900253889718929 0.4302643197655873 0 0 0 0
1177315000 0.3126190345860487 0.5316069436490108 -0.1847074854061585 0.4359020995682438 0 0 0 0
1178305000 0.30680508893865727 0.5323807601401571 -0.1964743535798275 0.4255764619963208 0 0 0 0
1179296000 0.314248066650422 0.5288179373028372 -0.19251885382937833 0.4298478144032161 0 0 0 0
1180286000 0.3090625261730807 0.5350420508835891 -0.1881602031686375 0.43367690403344666 0 0 0 0
1181277000 0.30616673230505964 0.5295510656776573 -0.1892957910237406 0.433012007917326 0 0 0 0
1182267000 0.3127050616650945 0.528257180429531 -0.18332167205087221 0.43527226823781967 0 0 0 0
1183258000 0.31305565656085543 0.5238861470803037 -0.18405133452302364 0.43600164752814613 0 0 0 0
1184249000 0.3078679675923214 0.5269198684290658 -0.18546784316225118 0.43836296194689506 0 0 0 0
1185239000 0.31274028094973655 0.5229915438986028 -0.18275255606344573 0.43843266419674437 0 0 0 0
1186230000 0.30915638047268706 0.5213727129688353 -0.18468411412473518 0.43873941559735796 0 0 0 0
1187220000 0.31355074108536274 0.523024128534102 -0.18076547580218896 0.4414396648747155 0 0 0 0
1188211000 0.3153593379190224 0.5227220687488732 -0.177794528602456 0.4436294488979167 0 0 0 0
1189202000 0.31420091202976064 0.5160759775032359 -0.18368708249442034 0.4407434114226571 0 0 0 0
1190192000 0.32373962775262316 0.5111457552418815 -0.17715687667346458 0.4445529003595683 0 0 0 0
1191183000 0.32177631674265555 0.5109808366990521 -0.17949340774607667 0.4445854002386541 0 0 0 0
1192173000 0.3199467562823463 0.5132253700671704 -0.17321597286263116 0.4474342228351596 0 0 0 0
1193164000 0.3264688373713 0.5152036847034549 -0.16545006972584647 0.4523373389697065 0 0 0 0
1194155000 0.3281929055985392 0.5089670124807723 -0.17633321882288336 0.44826828497820526 0 0 0 0
1195145000 0.3218542754014548 0.5170517805136549 -0.16945093114053844 0.45449537370977355 0 0 0 0
1196136000 0.33135145917419484 0.5087364981371683 -0.1709273151830581 0.45162262319393565 0 0 0 0
1197126000 0.32906647157223806 0.5090907744305184 -0.15749456752495894 0.456986454157078 0 0 0 0
1198117000 0.3279113364875061 0.5095514276860099 -0.16733560879162207 0.4556991077411704 0 0 0 0
1199108000 0.3228255336860337 0.5109414626071956 -0.16068232036841631 0.4579886972008009 0 0 0 0
