# Hz S DB R 50
! CMT, C1420, 19038819, 22.4.2/3
! Date: 2023-03-14 09:49:52
! Data: Format (Calibration Info)
! Freq	S11:dB/Ang(F2)	S21:dB/Ang(F2)	S12:dB/Ang(F2)	S22:dB/Ang(F2)
1.00000000000E+09	-6.33593670313E-01	-3.45094999564E+01	-7.38857593161E+01	6.81291683877E+01	-7.39095246130E+01	6.81771084256E+01	-6.24474814343E-01	-3.56008679427E+01
1.08000000000E+09	-7.13933766244E-01	-6.28975399015E+01	-7.27561826724E+01	3.99571369365E+01	-7.28186263552E+01	4.07091322500E+01	-6.98666999739E-01	-6.41126352646E+01
1.16000000000E+09	-8.15154758261E-01	-9.16228595855E+01	-7.18406701440E+01	9.08495838117E+00	-7.20442290157E+01	1.15796579364E+01	-7.86305755798E-01	-9.26009162554E+01
1.24000000000E+09	-9.36675469761E-01	-1.20540983685E+02	-7.11423019752E+01	-2.19042805133E+01	-7.11755195304E+01	-1.89298483773E+01	-8.97137726433E-01	-1.21390470513E+02
1.32000000000E+09	-1.06750416834E+00	-1.49957424603E+02	-7.09942660349E+01	-5.16122102109E+01	-7.06873457071E+01	-4.83740823411E+01	-1.02510091417E+00	-1.50494256461E+02
1.40000000000E+09	-1.20938257133E+00	-1.79647808103E+02	-7.04052678688E+01	-7.76071278610E+01	-6.98003915699E+01	-7.54684936800E+01	-1.16248956594E+00	1.79807511783E+02
1.48000000000E+09	-1.34877113434E+00	1.50141538326E+02	-6.94214812413E+01	-1.04367621792E+02	-6.89285282574E+01	-1.05154745287E+02	-1.29900011660E+00	1.49842113147E+02
1.56000000000E+09	-1.48190892498E+00	1.19465682570E+02	-6.82501855165E+01	-1.34057107639E+02	-6.80004006384E+01	-1.34769624694E+02	-1.44081359017E+00	1.19027927196E+02
1.64000000000E+09	-1.60545627075E+00	8.82420973143E+01	-6.71712826175E+01	-1.64548161990E+02	-6.69355336300E+01	-1.65292437743E+02	-1.56795766273E+00	8.77730103251E+01
1.72000000000E+09	-1.71370038119E+00	5.63762089923E+01	-6.60049872262E+01	1.63161448226E+02	-6.58649009831E+01	1.61366156816E+02	-1.67331768437E+00	5.57669112763E+01
1.80000000000E+09	-1.79278440715E+00	2.38413012107E+01	-6.53236684807E+01	1.28019749196E+02	-6.52361954240E+01	1.28341735156E+02	-1.76315322765E+00	2.32343946322E+01
1.88000000000E+09	-1.84978313802E+00	-9.48209819091E+00	-6.49289573088E+01	9.40814523453E+01	-6.47579609897E+01	9.49835013870E+01	-1.81612737865E+00	-9.95717658029E+00
1.96000000000E+09	-1.86690677590E+00	-4.31506481134E+01	-6.44915349999E+01	6.07384623839E+01	-6.43111496783E+01	6.18688609356E+01	-1.83520339708E+00	-4.34174075029E+01
2.04000000000E+09	-1.84950924994E+00	-7.68593313196E+01	-6.43098799646E+01	2.77884666014E+01	-6.39672952716E+01	2.80943884268E+01	-1.81105108014E+00	-7.69741360214E+01
2.12000000000E+09	-1.79543677517E+00	-1.09985786212E+02	-6.42729756403E+01	-6.88801431038E+00	-6.39577773167E+01	-6.85195479010E+00	-1.76403598959E+00	-1.10081730001E+02
2.20000000000E+09	-1.73004233618E+00	-1.42185372094E+02	-6.47448553451E+01	-3.69858228670E+01	-6.44700128500E+01	-3.78275379498E+01	-1.69035238033E+00	-1.42401062678E+02
2.28000000000E+09	-1.66354217533E+00	-1.73164166140E+02	-6.46318645702E+01	-6.60515324163E+01	-6.46468161556E+01	-6.79365259260E+01	-1.62573889563E+00	-1.73413034103E+02
2.36000000000E+09	-1.61948443659E+00	1.57238130430E+02	-6.51002470929E+01	-9.35575097648E+01	-6.49792909665E+01	-9.31920614543E+01	-1.57530660611E+00	1.56860270207E+02
2.44000000000E+09	-1.60606068262E+00	1.28758245671E+02	-6.46940006382E+01	-1.14125360514E+02	-6.43195911422E+01	-1.15585094989E+02	-1.56120507568E+00	1.28350357299E+02
2.52000000000E+09	-1.63278573950E+00	1.01346221337E+02	-6.40916525111E+01	-1.42648234154E+02	-6.40464115674E+01	-1.44446464217E+02	-1.58261454629E+00	1.00718366409E+02
2.60000000000E+09	-1.70768638817E+00	7.42862324001E+01	-6.31677923582E+01	-1.68829735541E+02	-6.31855660556E+01	-1.69024636782E+02	-1.65162315762E+00	7.37651576994E+01
2.68000000000E+09	-1.82881582075E+00	4.75364246208E+01	-6.17403872765E+01	1.62591724425E+02	-6.17236000315E+01	1.60784155787E+02	-1.76831292911E+00	4.68318513179E+01
2.76000000000E+09	-2.00542012042E+00	2.01821383376E+01	-6.11536531440E+01	1.29888777990E+02	-6.12900342640E+01	1.30015756048E+02	-1.93614165461E+00	1.96821351640E+01
2.84000000000E+09	-2.22962357689E+00	-7.93596139213E+00	-6.02075705932E+01	9.99584450847E+01	-6.01216068049E+01	1.00565351280E+02	-2.16579480589E+00	-8.45993835129E+00
2.92000000000E+09	-2.50056598757E+00	-3.77763067745E+01	-5.93093952395E+01	6.62200792642E+01	-5.94010427804E+01	6.50181156371E+01	-2.42952640018E+00	-3.79682748710E+01
3.00000000000E+09	-2.77627193735E+00	-6.92908093731E+01	-5.91590603233E+01	3.45273931145E+01	-5.90447746388E+01	3.60793765537E+01	-2.73547617667E+00	-6.94669449493E+01
3.08000000000E+09	-3.02400752736E+00	-1.02978944017E+02	-5.86432171148E+01	2.09945346362E+00	-5.83718112357E+01	4.31986619442E-01	-3.00669438754E+00	-1.02980624963E+02
3.16000000000E+09	-3.16411049685E+00	-1.38123191528E+02	-5.82721406297E+01	-2.69534152350E+01	-5.82200763577E+01	-2.85336114476E+01	-3.20501421557E+00	-1.38520178703E+02
3.24000000000E+09	-3.17409229106E+00	-1.73990016919E+02	-5.73789834953E+01	-5.59288280968E+01	-5.75021629363E+01	-5.83241831992E+01	-3.22679198881E+00	-1.74897397777E+02
3.32000000000E+09	-3.04024131183E+00	1.50711004912E+02	-5.66018663127E+01	-8.93512895483E+01	-5.68822511266E+01	-8.96562182827E+01	-3.11937539827E+00	1.49136285306E+02
3.40000000000E+09	-2.83856723661E+00	1.17045704128E+02	-5.62906259369E+01	-1.20726967640E+02	-5.61076739202E+01	-1.19552264938E+02	-2.89088224864E+00	1.14705693216E+02
3.48000000000E+09	-2.62598604431E+00	8.53954308699E+01	-5.54922934765E+01	-1.52828990409E+02	-5.55528380510E+01	-1.53983731660E+02	-2.66427248251E+00	8.25001369155E+01
3.56000000000E+09	-2.47483942627E+00	5.53443621623E+01	-5.54795614545E+01	1.75685979346E+02	-5.52105380344E+01	1.76791460633E+02	-2.46835079111E+00	5.21421017571E+01
3.64000000000E+09	-2.37362929461E+00	2.67432807935E+01	-5.45812387883E+01	1.46414830797E+02	-5.42626232328E+01	1.40750147085E+02	-2.34035718355E+00	2.38442462005E+01
3.72000000000E+09	-2.36372247815E+00	-8.55692475316E-01	-5.39333785122E+01	1.11180014143E+02	-5.42842206378E+01	1.12793371207E+02	-2.28307579489E+00	-3.64461497286E+00
3.80000000000E+09	-2.41271676710E+00	-2.81500407907E+01	-5.35456062883E+01	8.03206422840E+01	-5.34573586186E+01	8.06079618407E+01	-2.31338787614E+00	-3.02002134090E+01
3.88000000000E+09	-2.54196976762E+00	-5.51086994997E+01	-5.30955669366E+01	4.70587812640E+01	-5.34894803861E+01	4.62654891160E+01	-2.41351389189E+00	-5.69136858792E+01
3.96000000000E+09	-2.72763138548E+00	-8.29713844760E+01	-5.26007101356E+01	1.64130798992E+01	-5.24316163357E+01	1.76775339741E+01	-2.58038155709E+00	-8.38446621103E+01
4.04000000000E+09	-2.94562170281E+00	-1.11181007888E+02	-5.23414653044E+01	-1.69681640573E+01	-5.22336228385E+01	-1.71105650879E+01	-2.80168540840E+00	-1.11546722191E+02
4.12000000000E+09	-3.19322180954E+00	-1.40415696165E+02	-5.15574753692E+01	-4.65627859202E+01	-5.17765224192E+01	-4.61163502233E+01	-3.07079480527E+00	-1.40238392532E+02
4.20000000000E+09	-3.43648657451E+00	-1.70526908826E+02	-5.13393912596E+01	-8.00331754411E+01	-5.11480666108E+01	-8.12212307690E+01	-3.35410941611E+00	-1.70446173825E+02
4.28000000000E+09	-3.65232213314E+00	1.58290366973E+02	-5.03850126904E+01	-1.11809277262E+02	-5.08258272692E+01	-1.11349565896E+02	-3.63039397698E+00	1.58558273919E+02
4.36000000000E+09	-3.82538294067E+00	1.26351506352E+02	-5.02153013228E+01	-1.44918324995E+02	-5.01315339872E+01	-1.41454925355E+02	-3.86677802460E+00	1.25755524546E+02
4.44000000000E+09	-3.94304870456E+00	9.34120466789E+01	-4.94989577960E+01	-1.76403509524E+02	-4.93037740497E+01	-1.77133039692E+02	-4.01150347776E+00	9.27399136423E+01
4.52000000000E+09	-3.98601706138E+00	6.02760694302E+01	-4.90553089176E+01	1.48633444794E+02	-4.89592147578E+01	1.49433932650E+02	-4.08121119566E+00	5.89206600646E+01
4.60000000000E+09	-3.98363130944E+00	2.67364342579E+01	-4.85071951771E+01	1.15750583045E+02	-4.82999680244E+01	1.17282967738E+02	-4.05109674726E+00	2.55989609121E+01
4.68000000000E+09	-3.93005773669E+00	-6.56187782610E+00	-4.83525622149E+01	8.03381475430E+01	-4.81841721720E+01	8.13567654906E+01	-3.98304873717E+00	-8.01210098120E+00
4.76000000000E+09	-3.85811465133E+00	-3.97303427116E+01	-4.79237028773E+01	4.93029265712E+01	-4.79755086641E+01	4.78267319622E+01	-3.83536543220E+00	-4.04490575160E+01
4.84000000000E+09	-3.75158471931E+00	-7.20500064321E+01	-4.75471291993E+01	1.41249104713E+01	-4.77099689180E+01	1.52737240756E+01	-3.69200000979E+00	-7.24074601539E+01
4.92000000000E+09	-3.66622992885E+00	-1.03598651807E+02	-4.72837734898E+01	-1.81087778653E+01	-4.74486991193E+01	-1.91347708989E+01	-3.53681783071E+00	-1.02796460899E+02
5.00000000000E+09	-3.55844069764E+00	-1.33948969726E+02	-4.71080404226E+01	-5.25545328527E+01	-4.70525896459E+01	-5.12700886203E+01	-3.44769385444E+00	-1.32690519176E+02
5.08000000000E+09	-3.49945037475E+00	-1.63051532351E+02	-4.74684323356E+01	-8.55030557276E+01	-4.71741982767E+01	-8.47657253203E+01	-3.35389751861E+00	-1.61439787040E+02
5.16000000000E+09	-3.44862001187E+00	1.68678699969E+02	-4.70042884467E+01	-1.16671668716E+02	-4.71649450912E+01	-1.17152770151E+02	-3.36700119111E+00	1.70367439247E+02
5.24000000000E+09	-3.45698278178E+00	1.41418881629E+02	-4.70158458362E+01	-1.49768883548E+02	-4.70915258197E+01	-1.47856386163E+02	-3.36449172702E+00	1.42515567084E+02
5.32000000000E+09	-3.50501780251E+00	1.14474149737E+02	-4.70027849506E+01	-1.78330675992E+02	-4.65089927201E+01	1.78670101052E+02	-3.47886297037E+00	1.15551981986E+02
5.40000000000E+09	-3.62341491551E+00	8.78891627965E+01	-4.58872400129E+01	1.50136693237E+02	-4.63767508305E+01	1.48575605068E+02	-3.63177486694E+00	8.76321483748E+01
5.48000000000E+09	-3.83546123911E+00	6.06685215269E+01	-4.59621437001E+01	1.16291854060E+02	-4.58719395824E+01	1.18775524354E+02	-3.87181460692E+00	5.99311987561E+01
5.56000000000E+09	-4.12586609330E+00	3.24843737302E+01	-4.56743465032E+01	8.71696691695E+01	-4.54205007348E+01	8.48734452099E+01	-4.17898496206E+00	3.06385079194E+01
5.64000000000E+09	-4.50479541561E+00	2.45755405142E+00	-4.47277565009E+01	5.21813895968E+01	-4.47512444205E+01	5.41195674139E+01	-4.53650643555E+00	6.23423781290E-02
5.72000000000E+09	-4.91762272973E+00	-2.94938733594E+01	-4.42612925088E+01	1.94045430013E+01	-4.45349888627E+01	1.89604354611E+01	-4.89095711487E+00	-3.24150616790E+01
5.80000000000E+09	-5.29440260886E+00	-6.37259710827E+01	-4.40005432318E+01	-1.52521034032E+01	-4.37209566697E+01	-1.33118296737E+01	-5.19654367423E+00	-6.64192701458E+01
5.88000000000E+09	-5.52125660778E+00	-9.96118961718E+01	-4.37822136779E+01	-4.85502090750E+01	-4.38014281627E+01	-4.96233170904E+01	-5.33841480068E+00	-1.01835456460E+02
5.96000000000E+09	-5.53032003721E+00	-1.35996712077E+02	-4.31624234971E+01	-8.27267225528E+01	-4.32675824718E+01	-8.21601834364E+01	-5.32591757597E+00	-1.37139979262E+02
6.04000000000E+09	-5.31620344000E+00	-1.71164996182E+02	-4.30975571010E+01	-1.20982110233E+02	-4.30843292709E+01	-1.18267353575E+02	-5.11341834933E+00	-1.72136998327E+02
6.12000000000E+09	-4.99214294301E+00	1.55695620762E+02	-4.33276992187E+01	-1.53339930563E+02	-4.32689398761E+01	-1.53714989373E+02	-4.83561811211E+00	1.55012739565E+02
6.20000000000E+09	-4.65617099538E+00	1.24832981397E+02	-4.31119919767E+01	1.72737605063E+02	-4.33539660774E+01	1.74034983099E+02	-4.52577907780E+00	1.23448136395E+02
6.28000000000E+09	-4.37604058278E+00	9.56387359382E+01	-4.35640656823E+01	1.40986680623E+02	-4.33074572086E+01	1.41110157552E+02	-4.28698171028E+00	9.42506487946E+01
6.36000000000E+09	-4.17426841217E+00	6.80192629316E+01	-4.32393696705E+01	1.10878036264E+02	-4.34120425236E+01	1.09692751607E+02	-4.13467426114E+00	6.55910586985E+01
6.44000000000E+09	-4.12667868444E+00	4.10897261310E+01	-4.35226793260E+01	7.82648468917E+01	-4.32970032016E+01	7.87767666643E+01	-4.05279078212E+00	3.83151641491E+01
6.52000000000E+09	-4.17643591606E+00	1.43332551351E+01	-4.33143469682E+01	4.82008908657E+01	-4.30811046255E+01	4.80462314257E+01	-4.08637976556E+00	1.10003320078E+01
6.60000000000E+09	-4.36020796768E+00	-1.28755965283E+01	-4.26831313559E+01	1.44699454966E+01	-4.28525676346E+01	1.45026440642E+01	-4.19087239160E+00	-1.59085974143E+01
6.68000000000E+09	-4.62315593042E+00	-4.07892916132E+01	-4.30409941534E+01	-1.78608465731E+01	-4.28655704716E+01	-1.70060620382E+01	-4.41038824282E+00	-4.36754416318E+01
6.76000000000E+09	-4.99692770585E+00	-6.99599902998E+01	-4.23847900600E+01	-4.72413445307E+01	-4.25553649117E+01	-4.73901363488E+01	-4.65417311926E+00	-7.19194470265E+01
6.84000000000E+09	-5.39371840800E+00	-1.00316286491E+02	-4.19938550597E+01	-8.21042655717E+01	-4.20770313506E+01	-7.95766818900E+01	-4.98941528347E+00	-1.01081819511E+02
6.92000000000E+09	-5.75802382890E+00	-1.31917975600E+02	-4.20014200974E+01	-1.09911189418E+02	-4.19584846497E+01	-1.12400346065E+02	-5.30220145283E+00	-1.31382959425E+02
7.00000000000E+09	-6.05023647881E+00	-1.64514585032E+02	-4.10985973510E+01	-1.43364910325E+02	-4.15892126093E+01	-1.42802658069E+02	-5.63030277902E+00	-1.62520772912E+02
7.08000000000E+09	-6.21798689866E+00	1.62715891329E+02	-4.12777739347E+01	-1.78206711305E+02	-4.08814988315E+01	-1.74361165607E+02	-5.85850774186E+00	1.65619877116E+02
7.16000000000E+09	-6.24788890119E+00	1.29753439053E+02	-4.05164443558E+01	1.52853767153E+02	-4.04131762171E+01	1.52454758952E+02	-6.05809097136E+00	1.33064806235E+02
7.24000000000E+09	-6.19950056659E+00	9.76537827117E+01	-3.97636819993E+01	1.18683575611E+02	-3.98840438971E+01	1.20088517556E+02	-6.11741787944E+00	1.00365365866E+02
7.32000000000E+09	-6.12827057008E+00	6.58011532063E+01	-3.93697036212E+01	8.72872234353E+01	-3.90621464708E+01	8.68967211231E+01	-6.18791963406E+00	6.76746112179E+01
7.40000000000E+09	-6.10273533998E+00	3.42240170574E+01	-3.81316308699E+01	5.29194319687E+01	-3.83349270415E+01	5.35213723452E+01	-6.16013318376E+00	3.47669403824E+01
7.48000000000E+09	-6.11537422827E+00	2.91224218723E+00	-3.75330975109E+01	1.48931107548E+01	-3.71618817006E+01	1.70868369916E+01	-6.17257745806E+00	2.34321448038E+00
7.56000000000E+09	-6.16754341168E+00	-2.86302544160E+01	-3.64163726017E+01	-2.41220041982E+01	-3.64346374551E+01	-2.50277541340E+01	-6.10032295473E+00	-2.96122031214E+01
7.64000000000E+09	-6.15651296269E+00	-5.96492731524E+01	-3.64213882076E+01	-6.93595003681E+01	-3.65262312534E+01	-6.79162216900E+01	-5.99134830116E+00	-6.07087349795E+01
7.72000000000E+09	-6.07571608144E+00	-9.09476297713E+01	-3.76217820304E+01	-1.09267026055E+02	-3.72719087428E+01	-1.08411235346E+02	-5.75277355155E+00	-9.14190648052E+01
7.80000000000E+09	-5.98889847546E+00	-1.21452920064E+02	-3.83001175396E+01	-1.43826056190E+02	-3.85411654801E+01	-1.44717957092E+02	-5.56464675158E+00	-1.21122105983E+02
7.88000000000E+09	-5.91172970119E+00	-1.51449086984E+02	-3.95004292493E+01	-1.78133120906E+02	-3.95836128673E+01	-1.75698671025E+02	-5.41575466207E+00	-1.50519271714E+02
7.96000000000E+09	-5.84807712033E+00	1.79712923964E+02	-4.02645433569E+01	1.53618912513E+02	-4.01188077335E+01	1.53780929152E+02	-5.35559097806E+00	-1.78563727183E+02
8.04000000000E+09	-5.79649629069E+00	1.52268372947E+02	-4.03433720834E+01	1.22808888785E+02	-4.02996901727E+01	1.26673255154E+02	-5.36740285917E+00	1.53545708465E+02
8.12000000000E+09	-5.79935258160E+00	1.25219484209E+02	-4.07401102224E+01	9.60419726564E+01	-3.99842593733E+01	9.62997889720E+01	-5.48479145858E+00	1.26618114415E+02
8.20000000000E+09	-5.87985407815E+00	9.87883571881E+01	-4.00693685332E+01	6.50714903198E+01	-4.02597645867E+01	6.45887119002E+01	-5.72445518257E+00	9.89341658158E+01
8.28000000000E+09	-6.09011892497E+00	7.17219318433E+01	-4.00123719520E+01	3.31249877687E+01	-3.97170174726E+01	3.43506877187E+01	-6.07256029376E+00	7.08610817144E+01
8.36000000000E+09	-6.45973720655E+00	4.36772150109E+01	-3.96110480570E+01	2.87418927649E+00	-3.96474188042E+01	2.39869686676E+00	-6.56957418230E+00	4.11819648915E+01
8.44000000000E+09	-7.00773646337E+00	1.33928827393E+01	-3.93114795158E+01	-3.01388878835E+01	-3.89837735101E+01	-2.72911163459E+01	-7.14167371675E+00	9.63903691978E+00
8.52000000000E+09	-7.70270258477E+00	-1.95370712810E+01	-3.87728951420E+01	-6.08877482393E+01	-3.84705876039E+01	-6.26489375722E+01	-7.70334288960E+00	-2.46300141487E+01
8.60000000000E+09	-8.45278248569E+00	-5.51931195943E+01	-3.78325904688E+01	-9.75176619029E+01	-3.82038973282E+01	-9.50793165043E+01	-8.06468875473E+00	-6.08040894730E+01
8.68000000000E+09	-8.99578984630E+00	-9.34388623272E+01	-3.74963986218E+01	-1.33505792060E+02	-3.73598274748E+01	-1.30133711894E+02	-8.15783001857E+00	-9.79778152808E+01
8.76000000000E+09	-9.09284182850E+00	-1.31428913264E+02	-3.71892450991E+01	-1.69876806152E+02	-3.71154864432E+01	-1.67937045447E+02	-7.88826794551E+00	-1.33824673482E+02
8.84000000000E+09	-8.80367806065E+00	-1.66418543611E+02	-3.71813232555E+01	1.48988816886E+02	-3.67132979072E+01	1.52433034806E+02	-7.40034738235E+00	-1.67076063285E+02
8.92000000000E+09	-8.21387062641E+00	1.61418245132E+02	-3.80696696144E+01	1.11059764721E+02	-3.74866955715E+01	1.12467978195E+02	-6.80912640819E+00	1.62439305074E+02
9.00000000000E+09	-7.53719060715E+00	1.32737610260E+02	-3.90993386822E+01	7.92768490106E+01	-3.85414984250E+01	7.82938322261E+01	-6.30903109833E+00	1.33854612659E+02
