# Hz S DB R 50
! CMT, C1420, 19038819, 22.4.2/3
! Date: 2023-03-14 09:50:22
! Data: Format (Calibration Info)
! Freq	S11:dB/Ang(F2)	S21:dB/Ang(F2)	S12:dB/Ang(F2)	S22:dB/Ang(F2)
1.00000000000E+09	-2.34188572768E+00	-8.13293690331E+01	-5.87212340899E+01	-2.54841240975E+01	-5.99018333245E+01	-2.16121674217E+01	-2.43463766346E+00	-8.50137856458E+01
1.08000000000E+09	-2.56838177435E+00	-1.13552297014E+02	-5.84808002735E+01	-5.38337007507E+01	-5.94728408885E+01	-4.92583813756E+01	-2.64362572085E+00	-1.17156672113E+02
1.16000000000E+09	-2.83016912423E+00	-1.46677804317E+02	-5.79625391290E+01	-8.18193278267E+01	-5.86147479412E+01	-7.74948797363E+01	-2.89626073457E+00	-1.50281425341E+02
1.24000000000E+09	-3.09621959770E+00	1.79378756927E+02	-5.69068826061E+01	-1.13128315334E+02	-5.75327907381E+01	-1.08281369813E+02	-3.15307311006E+00	1.75843343997E+02
1.32000000000E+09	-3.34766838670E+00	1.44442329013E+02	-5.58729977399E+01	-1.44143736199E+02	-5.62594488111E+01	-1.39495485736E+02	-3.41830580951E+00	1.40786469078E+02
1.40000000000E+09	-3.55085057703E+00	1.08885953848E+02	-5.46312698742E+01	-1.78007263831E+02	-5.48996402735E+01	-1.73656414499E+02	-3.62004240931E+00	1.04909613506E+02
1.48000000000E+09	-3.70171643835E+00	7.27672378994E+01	-5.34522124966E+01	1.47579448291E+02	-5.35990532211E+01	1.51877453505E+02	-3.77227766690E+00	6.85087398254E+01
1.56000000000E+09	-3.77106263638E+00	3.64149803737E+01	-5.22021840733E+01	1.09459892142E+02	-5.22628564650E+01	1.12622511088E+02	-3.81790331906E+00	3.16755686125E+01
1.64000000000E+09	-3.77244852481E+00	-4.42667226001E-02	-5.12948473394E+01	7.14913104701E+01	-5.13241296716E+01	7.34812481860E+01	-3.79955071415E+00	-4.72313139114E+00
1.72000000000E+09	-3.70250360645E+00	-3.60540163345E+01	-5.07163119025E+01	3.03022250897E+01	-5.06453810772E+01	3.29451905217E+01	-3.69691573727E+00	-4.07153675722E+01
1.80000000000E+09	-3.59727244489E+00	-7.14547753858E+01	-5.04827498502E+01	-8.95182181293E+00	-5.03980411558E+01	-6.30487565990E+00	-3.56889699813E+00	-7.56989132563E+01
1.88000000000E+09	-3.45426773436E+00	-1.05849027192E+02	-5.01840063631E+01	-4.68138555593E+01	-5.00351335109E+01	-4.52273504090E+01	-3.42750610869E+00	-1.09628765609E+02
1.96000000000E+09	-3.32719337710E+00	-1.38887142886E+02	-5.00728776481E+01	-8.49115700004E+01	-4.98625658250E+01	-8.32944429707E+01	-3.30447669585E+00	-1.42338196595E+02
2.04000000000E+09	-3.22456821426E+00	-1.70616108563E+02	-4.99260408828E+01	-1.22450767601E+02	-4.97952818466E+01	-1.21621814772E+02	-3.21028468428E+00	-1.73952643963E+02
2.12000000000E+09	-3.18251428564E+00	1.58879797264E+02	-4.98540621621E+01	-1.58898734173E+02	-4.97652221848E+01	-1.58627614333E+02	-3.17532450085E+00	1.55586351753E+02
2.20000000000E+09	-3.20065103432E+00	1.29214796243E+02	-4.97525984095E+01	1.64832252282E+02	-4.96473826175E+01	1.64715518055E+02	-3.19746914428E+00	1.25976301028E+02
2.28000000000E+09	-3.29530706907E+00	1.00184214053E+02	-4.95735456498E+01	1.29147725724E+02	-4.94371597321E+01	1.28885526897E+02	-3.30394998653E+00	9.68313680921E+01
2.36000000000E+09	-3.47576078330E+00	7.10788769021E+01	-4.92510197772E+01	9.30314758463E+01	-4.91929374450E+01	9.23994169574E+01	-3.49391032889E+00	6.75593489731E+01
2.44000000000E+09	-3.74010488557E+00	4.16150117003E+01	-4.88625739628E+01	5.67720928206E+01	-4.88162434443E+01	5.57401446818E+01	-3.77552110649E+00	3.77832913320E+01
2.52000000000E+09	-4.09778910317E+00	1.08765156433E+01	-4.84515198069E+01	1.96779962982E+01	-4.84547286965E+01	1.86100756838E+01	-4.12275836561E+00	6.80240398206E+00
2.60000000000E+09	-4.51261217714E+00	-2.15022528771E+01	-4.80660316543E+01	-1.83664385386E+01	-4.80706978116E+01	-1.96147476591E+01	-4.55155924174E+00	-2.58101686010E+01
2.68000000000E+09	-4.93204923804E+00	-5.61361951144E+01	-4.77425359482E+01	-5.72192115756E+01	-4.77779983965E+01	-5.84518163756E+01	-4.95008012889E+00	-6.07439863276E+01
2.76000000000E+09	-5.24309373131E+00	-9.27833035419E+01	-4.74986105891E+01	-9.67382518199E+01	-4.75655196077E+01	-9.79366789651E+01	-5.26707132573E+00	-9.75403860369E+01
2.84000000000E+09	-5.34610625746E+00	-1.30924310054E+02	-4.74527444915E+01	-1.36676295869E+02	-4.75245084228E+01	-1.37949092274E+02	-5.34034507902E+00	-1.35911762667E+02
2.92000000000E+09	-5.18393646235E+00	-1.68570226760E+02	-4.75303725854E+01	-1.76629078539E+02	-4.76506405422E+01	-1.77925005699E+02	-5.18175861645E+00	-1.73759776691E+02
3.00000000000E+09	-4.85595686582E+00	1.55240675861E+02	-4.77876775672E+01	1.43882071221E+02	-4.78862603819E+01	1.42569110868E+02	-4.80797485821E+00	1.49924539807E+02
3.08000000000E+09	-4.46715138781E+00	1.21737025656E+02	-4.81634162724E+01	1.05215003084E+02	-4.82426497676E+01	1.03710235648E+02	-4.41969452616E+00	1.16351535699E+02
3.16000000000E+09	-4.14444971743E+00	9.03483604095E+01	-4.85459216003E+01	6.69332125350E+01	-4.86719564376E+01	6.56110353041E+01	-4.05518780979E+00	8.50548155634E+01
3.24000000000E+09	-3.90814857956E+00	6.10373074965E+01	-4.89768016406E+01	3.00678006110E+01	-4.90848981643E+01	2.86340471664E+01	-3.81954883211E+00	5.62221623025E+01
3.32000000000E+09	-3.81347781183E+00	3.30414208440E+01	-4.93191910722E+01	-6.52758994184E+00	-4.94158955556E+01	-7.80618513388E+00	-3.68881888717E+00	2.83874545017E+01
3.40000000000E+09	-3.83564190744E+00	5.70011011737E+00	-4.95172323473E+01	-4.23604753357E+01	-4.96339553789E+01	-4.38348785069E+01	-3.70878122759E+00	1.89585317240E+00
3.48000000000E+09	-3.99285745250E+00	-2.14718517606E+01	-4.96333345280E+01	-7.84936905409E+01	-4.97371508457E+01	-8.02063261143E+01	-3.84405391491E+00	-2.50242578746E+01
3.56000000000E+09	-4.27123890034E+00	-4.92051274967E+01	-4.96668387308E+01	-1.14955075816E+02	-4.97719178204E+01	-1.16760989917E+02	-4.10721539334E+00	-5.17915499821E+01
3.64000000000E+09	-4.65685346429E+00	-7.79937150917E+01	-4.95979036236E+01	-1.52553552885E+02	-4.97191439868E+01	-1.54327178896E+02	-4.51409235469E+00	-8.00572056087E+01
3.72000000000E+09	-5.12188943252E+00	-1.08330964680E+02	-4.95315820082E+01	1.69098515887E+02	-4.96911703299E+01	1.67214358414E+02	-4.99163426195E+00	-1.09604506321E+02
3.80000000000E+09	-5.61238015713E+00	-1.40545200951E+02	-4.95661677793E+01	1.29497772265E+02	-4.97437032053E+01	1.27619549738E+02	-5.56536699133E+00	-1.41562085345E+02
3.88000000000E+09	-6.02971253985E+00	-1.74693685422E+02	-4.97231887674E+01	8.88602215634E+01	-4.99424071716E+01	8.71684668216E+01	-6.08465832313E+00	-1.75611669304E+02
3.96000000000E+09	-6.30051443025E+00	1.49790312289E+02	-5.00518517070E+01	4.77140122436E+01	-5.03201248182E+01	4.57914925280E+01	-6.46000565344E+00	1.48099848882E+02
4.04000000000E+09	-6.34538634406E+00	1.13752966260E+02	-5.06370011593E+01	6.37123355414E+00	-5.09419778683E+01	4.57729430383E+00	-6.57635705678E+00	1.11134183961E+02
4.12000000000E+09	-6.23027597908E+00	7.80862025500E+01	-5.14299750072E+01	-3.48338442526E+01	-5.17519541928E+01	-3.60485646825E+01	-6.44874027248E+00	7.42492587366E+01
4.20000000000E+09	-5.96143588347E+00	4.35030417625E+01	-5.24087498430E+01	-7.50114095915E+01	-5.27949350570E+01	-7.62345653047E+01	-6.12048826208E+00	3.93492774052E+01
4.28000000000E+09	-5.69100963416E+00	1.04193240809E+01	-5.35790020208E+01	-1.14574789265E+02	-5.40129489818E+01	-1.15672294900E+02	-5.77061607574E+00	5.73778679058E+00
4.36000000000E+09	-5.41868193707E+00	-2.16006092364E+01	-5.49276965195E+01	-1.53045083231E+02	-5.54071242988E+01	-1.53918629786E+02	-5.41727238512E+00	-2.53369193703E+01
4.44000000000E+09	-5.23160825960E+00	-5.20890528623E+01	-5.63324646490E+01	1.69592896555E+02	-5.68336361062E+01	1.69521419930E+02	-5.20663211161E+00	-5.56759421754E+01
4.52000000000E+09	-5.11158567143E+00	-8.21155923782E+01	-5.78565442292E+01	1.33867493571E+02	-5.83531775902E+01	1.34525951827E+02	-5.01723277710E+00	-8.48064588795E+01
4.60000000000E+09	-5.05679708032E+00	-1.11132391351E+02	-5.93989647245E+01	9.97821352723E+01	-5.98919762440E+01	1.01197250779E+02	-4.98567216323E+00	-1.13440715545E+02
4.68000000000E+09	-5.07731923379E+00	-1.39986629669E+02	-6.09175865554E+01	6.72353167073E+01	-6.14440871683E+01	6.94194130323E+01	-4.96732006916E+00	-1.41781352436E+02
4.76000000000E+09	-5.13553377266E+00	-1.68227610706E+02	-6.23249896019E+01	3.65636522829E+01	-6.28602617129E+01	3.95205745000E+01	-5.10066213520E+00	-1.69842955361E+02
4.84000000000E+09	-5.28030308698E+00	1.63400468298E+02	-6.36568027620E+01	7.37458188060E+00	-6.41480752255E+01	1.13561304181E+01	-5.27694355466E+00	1.61777422430E+02
4.92000000000E+09	-5.45843703069E+00	1.35099381945E+02	-6.47932060731E+01	-2.01679257008E+01	-6.51718732911E+01	-1.50942074994E+01	-5.57654494628E+00	1.32967081925E+02
5.00000000000E+09	-5.73633067680E+00	1.06355463018E+02	-6.56514438798E+01	-4.65252451745E+01	-6.58346396630E+01	-4.08847149786E+01	-5.89489245603E+00	1.03144585458E+02
5.08000000000E+09	-6.07673226847E+00	7.68358843623E+01	-6.61862671341E+01	-7.19146429071E+01	-6.60861495178E+01	-6.61712197263E+01	-6.35127459794E+00	7.26250437173E+01
5.16000000000E+09	-6.51351727927E+00	4.59665124851E+01	-6.63251200549E+01	-9.78572636302E+01	-6.60121285065E+01	-9.25596837158E+01	-6.72387083886E+00	3.99970777132E+01
5.24000000000E+09	-6.98300720984E+00	1.34338425816E+01	-6.61142687120E+01	-1.24682210740E+02	-6.56852661658E+01	-1.20504477133E+02	-7.16045340833E+00	6.96301201372E+00
5.32000000000E+09	-7.44822936581E+00	-2.14453068480E+01	-6.57666925052E+01	-1.53499408173E+02	-6.53119337227E+01	-1.50438278333E+02	-7.43476115576E+00	-2.88443177822E+01
5.40000000000E+09	-7.70038472606E+00	-5.80456660062E+01	-6.53413401987E+01	1.76133103426E+02	-6.48996667395E+01	1.78385536803E+02	-7.50482545544E+00	-6.42155151830E+01
5.48000000000E+09	-7.71623995112E+00	-9.53060812852E+01	-6.49640809060E+01	1.44260155907E+02	-6.45380615425E+01	1.46076523630E+02	-7.37209504563E+00	-1.00469912654E+02
5.56000000000E+09	-7.40649059469E+00	-1.31531998800E+02	-6.47053561838E+01	1.11695278257E+02	-6.42982919386E+01	1.12848472476E+02	-7.02751907539E+00	-1.34745194961E+02
5.64000000000E+09	-6.97597175730E+00	-1.65647389610E+02	-6.45216571266E+01	7.84975857931E+01	-6.41843883250E+01	7.96886371564E+01	-6.61454502789E+00	-1.67586415939E+02
5.72000000000E+09	-6.47986177814E+00	1.62796533088E+02	-6.44104397291E+01	4.58321768234E+01	-6.41215281001E+01	4.68047786399E+01	-6.22479749920E+00	1.61890185459E+02
5.80000000000E+09	-6.10215911994E+00	1.33547507232E+02	-6.43217849898E+01	1.34438691901E+01	-6.40455866618E+01	1.41768372213E+01	-5.92985655969E+00	1.32602851410E+02
5.88000000000E+09	-5.82221341781E+00	1.05830885314E+02	-6.41952940077E+01	-1.86938100194E+01	-6.38938487419E+01	-1.81686616050E+01	-5.74420526589E+00	1.04915531525E+02
5.96000000000E+09	-5.71615721339E+00	7.92480680718E+01	-6.39772041267E+01	-5.07320821186E+01	-6.36631968999E+01	-5.04034085023E+01	-5.67657264339E+00	7.74658337952E+01
6.04000000000E+09	-5.74161259942E+00	5.29274509513E+01	-6.36333528549E+01	-8.27417111037E+01	-6.33354678428E+01	-8.26499843012E+01	-5.73246381346E+00	5.09354500645E+01
6.12000000000E+09	-5.95041100414E+00	2.66660007016E+01	-6.32033450964E+01	-1.15240320129E+02	-6.29089193904E+01	-1.15286154583E+02	-5.93541211639E+00	2.39040599288E+01
6.20000000000E+09	-6.30736113247E+00	-5.82083643444E-01	-6.26878182063E+01	-1.48344310300E+02	-6.24251583372E+01	-1.48516564164E+02	-6.25985955062E+00	-3.12713094697E+00
6.28000000000E+09	-6.81567912636E+00	-2.87053922076E+01	-6.20943315034E+01	1.77742623783E+02	-6.18612165607E+01	1.77408690349E+02	-6.73989689683E+00	-3.18442894990E+01
6.36000000000E+09	-7.46479920196E+00	-5.90418973913E+01	-6.14929794910E+01	1.42847997338E+02	-6.12981545272E+01	1.42318999330E+02	-7.26060986885E+00	-6.12824073864E+01
6.44000000000E+09	-8.11824000085E+00	-9.12509843172E+01	-6.09225800717E+01	1.06914069303E+02	-6.07407336450E+01	1.06338457127E+02	-7.91638132109E+00	-9.28373730682E+01
6.52000000000E+09	-8.71731459890E+00	-1.26033642121E+02	-6.03938909728E+01	7.02607233983E+01	-6.02586759140E+01	6.95592392355E+01	-8.46083438102E+00	-1.26118660832E+02
6.60000000000E+09	-9.01884376430E+00	-1.61861940274E+02	-5.99805262324E+01	3.28657258526E+01	-5.98642868526E+01	3.19777880639E+01	-8.93785026916E+00	-1.61305147229E+02
6.68000000000E+09	-9.04825926877E+00	1.61862764903E+02	-5.96861586642E+01	-4.78493293183E+00	-5.95917751095E+01	-5.85033563242E+00	-9.06350098784E+00	1.62840933060E+02
6.76000000000E+09	-8.77046532479E+00	1.27006537869E+02	-5.94547604707E+01	-4.25102603234E+01	-5.94003759609E+01	-4.34484788363E+01	-9.04006795386E+00	1.27010423116E+02
6.84000000000E+09	-8.40840643597E+00	9.36707510362E+01	-5.93090865976E+01	-8.02814132347E+01	-5.92829211685E+01	-8.10723200576E+01	-8.71132378396E+00	9.23528971848E+01
6.92000000000E+09	-8.00756993668E+00	6.23642396113E+01	-5.92087737459E+01	-1.17826065729E+02	-5.91992177206E+01	-1.18615750045E+02	-8.38226197775E+00	5.93184518124E+01
7.00000000000E+09	-7.73107689828E+00	3.21464140813E+01	-5.91615487562E+01	-1.55340628308E+02	-5.91596166057E+01	-1.56120301118E+02	-7.99035691827E+00	2.78822275478E+01
7.08000000000E+09	-7.53049838814E+00	2.83092777889E+00	-5.91358946188E+01	1.67228079936E+02	-5.91289065863E+01	1.66413583699E+02	-7.75452863900E+00	-2.40442421429E+00
7.16000000000E+09	-7.48471747314E+00	-2.61338563000E+01	-5.91283233695E+01	1.29743523223E+02	-5.91464381386E+01	1.29006384962E+02	-7.50513904899E+00	-3.17410301330E+01
7.24000000000E+09	-7.51105177608E+00	-5.50284145358E+01	-5.91573454644E+01	9.25331938543E+01	-5.91865191072E+01	9.18242698809E+01	-7.45307699198E+00	-6.04411802548E+01
7.32000000000E+09	-7.63739066655E+00	-8.40751430102E+01	-5.91974130118E+01	5.51990656400E+01	-5.92270155047E+01	5.44872890174E+01	-7.39964244158E+00	-8.89672501741E+01
7.40000000000E+09	-7.78126660933E+00	-1.13261547824E+02	-5.92661466188E+01	1.80070184383E+01	-5.92865888821E+01	1.72214869601E+01	-7.50394939928E+00	-1.16959420869E+02
7.48000000000E+09	-7.96205546540E+00	-1.42251400782E+02	-5.93379251085E+01	-1.91478412350E+01	-5.93726524376E+01	-2.03204396899E+01	-7.59358986023E+00	-1.45299856661E+02
7.56000000000E+09	-8.13889217217E+00	-1.71222090131E+02	-5.93827939944E+01	-5.63319756204E+01	-5.94391464908E+01	-5.76128877726E+01	-7.85116100410E+00	-1.73026116810E+02
7.64000000000E+09	-8.37905708259E+00	1.60078478055E+02	-5.94431741790E+01	-9.38302694879E+01	-5.95388625679E+01	-9.49805725993E+01	-8.13025798685E+00	1.58337749624E+02
7.72000000000E+09	-8.65182287833E+00	1.31099252335E+02	-5.95134155478E+01	-1.31457840690E+02	-5.96206032997E+01	-1.32460510833E+02	-8.54669113728E+00	1.29879613357E+02
7.80000000000E+09	-9.01428298560E+00	1.02102064482E+02	-5.96146883637E+01	-1.69424240771E+02	-5.97181838628E+01	-1.70359712408E+02	-9.04001933249E+00	9.96510794002E+01
7.88000000000E+09	-9.49412023875E+00	7.18861750894E+01	-5.97632083042E+01	1.52360591849E+02	-5.98747911148E+01	1.51484183567E+02	-9.61030772926E+00	6.91302025525E+01
7.96000000000E+09	-1.00653743777E+01	4.04628575193E+01	-6.00079758815E+01	1.14040397043E+02	-6.01427710839E+01	1.13018610227E+02	-1.01998356626E+01	3.56709522306E+01
8.04000000000E+09	-1.06439196412E+01	6.60926801726E+00	-6.03817272780E+01	7.63188921844E+01	-6.05153528501E+01	7.52332229750E+01	-1.06725024763E+01	1.53898828631E+00
8.12000000000E+09	-1.11005375801E+01	-2.93196647725E+01	-6.06620152158E+01	3.95664450376E+01	-6.08115282289E+01	3.85857065122E+01	-1.09108796901E+01	-3.48878429375E+01
8.20000000000E+09	-1.12144500311E+01	-6.71954973647E+01	-6.07287454454E+01	2.50181637956E+00	-6.08810320130E+01	1.57459640805E+00	-1.06765118435E+01	-7.03377987896E+01
8.28000000000E+09	-1.09123035556E+01	-1.04182673922E+02	-6.08136378437E+01	-3.59570654764E+01	-6.09326804412E+01	-3.68402753393E+01	-1.02240288162E+01	-1.05269093956E+02
8.36000000000E+09	-1.02992913449E+01	-1.39053758951E+02	-6.10673803013E+01	-7.49192609321E+01	-6.11955626187E+01	-7.57423315213E+01	-9.56185772706E+00	-1.37208793888E+02
8.44000000000E+09	-9.60501810887E+00	-1.70277411700E+02	-6.14371933193E+01	-1.13403394744E+02	-6.15935201511E+01	-1.14213150641E+02	-8.97343253900E+00	-1.67328432018E+02
8.52000000000E+09	-8.98840530758E+00	1.61078544518E+02	-6.18741489115E+01	-1.51300556052E+02	-6.20261274396E+01	-1.52007250770E+02	-8.46594248004E+00	1.64994665944E+02
8.60000000000E+09	-8.53164283763E+00	1.34882050797E+02	-6.22982978233E+01	1.71371884399E+02	-6.24380058603E+01	1.70868492628E+02	-8.17901675552E+00	1.38498728122E+02
8.68000000000E+09	-8.28100315863E+00	1.09861042785E+02	-6.26832088954E+01	1.34605858537E+02	-6.28378218518E+01	1.34133131390E+02	-8.02850460845E+00	1.13122928884E+02
8.76000000000E+09	-8.23262749828E+00	8.59336288788E+01	-6.29971918597E+01	9.79552151404E+01	-6.31482004484E+01	9.75351988523E+01	-8.12990499982E+00	8.80486458981E+01
8.84000000000E+09	-8.47153599686E+00	6.17140050380E+01	-6.32741195477E+01	6.10123134939E+01	-6.34100517853E+01	6.09934947653E+01	-8.37773936344E+00	6.30697149410E+01
8.92000000000E+09	-8.94111115839E+00	3.72350997644E+01	-6.35108217799E+01	2.37429419288E+01	-6.36768538979E+01	2.38728574913E+01	-8.94540964143E+00	3.72386997000E+01
9.00000000000E+09	-9.80455103790E+00	1.10263221529E+01	-6.37999132726E+01	-1.42956393941E+01	-6.39462859092E+01	-1.44176466216E+01	-9.65370347459E+00	1.00412824445E+01
