# Hz S DB R 50
! CMT, C1420, 19038819, 22.4.2/3
! Date: 2023-03-14 09:50:56
! Data: Format (Calibration Info)
! Freq	S11:dB/Ang(F2)	S21:dB/Ang(F2)	S12:dB/Ang(F2)	S22:dB/Ang(F2)
1.00000000000E+09	-2.52638451608E+00	-8.44122374415E+01	-5.97411400242E+01	-2.33095291731E+01	-5.96147507300E+01	-2.47276296256E+01	-2.52661963124E+00	-8.63823215647E+01
1.08000000000E+09	-2.76644792115E+00	-1.16929799321E+02	-5.94179392564E+01	-5.13545125198E+01	-5.92224251126E+01	-5.35476256829E+01	-2.74054899143E+00	-1.18622349413E+02
1.16000000000E+09	-3.03534715405E+00	-1.50292494446E+02	-5.86249836969E+01	-8.05114962385E+01	-5.84945470625E+01	-8.31175369212E+01	-2.99833880986E+00	-1.51869608704E+02
1.24000000000E+09	-3.30304810854E+00	1.75466826492E+02	-5.75066508353E+01	-1.12108857573E+02	-5.74931208487E+01	-1.14280986471E+02	-3.25796860450E+00	1.74112364818E+02
1.32000000000E+09	-3.55454405898E+00	1.40323612157E+02	-5.64235217435E+01	-1.43038552448E+02	-5.64680121638E+01	-1.44927981012E+02	-3.52344614529E+00	1.38894641192E+02
1.40000000000E+09	-3.74071778293E+00	1.04604359969E+02	-5.51624112567E+01	-1.76919565135E+02	-5.52511740413E+01	-1.79192034671E+02	-3.71940184407E+00	1.02924371555E+02
1.48000000000E+09	-3.86811884362E+00	6.83732383213E+01	-5.38745248592E+01	1.49180283638E+02	-5.40405846377E+01	1.46259718691E+02	-3.86392014762E+00	6.64401042015E+01
1.56000000000E+09	-3.91016375365E+00	3.20138287614E+01	-5.25606956607E+01	1.10090004330E+02	-5.27361989962E+01	1.07676206839E+02	-3.89726038213E+00	2.95829994865E+01
1.64000000000E+09	-3.88735784544E+00	-4.31104461315E+00	-5.16733091078E+01	7.09119156299E+01	-5.19095343258E+01	6.84821630387E+01	-3.86812788464E+00	-6.78370293656E+00
1.72000000000E+09	-3.80140826144E+00	-4.02079743199E+01	-5.10385600108E+01	3.02995379668E+01	-5.12847797891E+01	2.81711579881E+01	-3.75497592464E+00	-4.26903885346E+01
1.80000000000E+09	-3.68927406005E+00	-7.54234336047E+01	-5.08108433841E+01	-8.80707155803E+00	-5.11347255449E+01	-1.09327661096E+01	-3.62014157472E+00	-7.75713824065E+01
1.88000000000E+09	-3.54456876311E+00	-1.09543253019E+02	-5.04498853397E+01	-4.70144474383E+01	-5.08264438925E+01	-4.92091242534E+01	-3.47288495464E+00	-1.11385065506E+02
1.96000000000E+09	-3.42254878542E+00	-1.42354462485E+02	-5.03330141499E+01	-8.51825500011E+01	-5.07518001861E+01	-8.70921724297E+01	-3.34858312024E+00	-1.43976653821E+02
2.04000000000E+09	-3.32580808611E+00	-1.73823744195E+02	-5.02592676869E+01	-1.23281778879E+02	-5.05926030914E+01	-1.24177887331E+02	-3.25371381217E+00	-1.75524058263E+02
2.12000000000E+09	-3.29814208123E+00	1.55890623083E+02	-5.02944912144E+01	-1.60369975349E+02	-5.05365068279E+01	-1.60510472060E+02	-3.22025914034E+00	1.54065005881E+02
2.20000000000E+09	-3.31963305559E+00	1.26382112755E+02	-5.02488225905E+01	1.63319075619E+02	-5.03985607968E+01	1.63445201302E+02	-3.24631559715E+00	1.24479239078E+02
2.28000000000E+09	-3.41992282148E+00	9.73833896469E+01	-4.99396415351E+01	1.28076455164E+02	-5.01724991756E+01	1.28336291570E+02	-3.35630638187E+00	9.53572155799E+01
2.36000000000E+09	-3.59009460277E+00	6.82777614030E+01	-4.97419663694E+01	9.19872529095E+01	-4.98812667200E+01	9.22832348466E+01	-3.55174220208E+00	6.60714134429E+01
2.44000000000E+09	-3.85028052837E+00	3.87461207044E+01	-4.94017594854E+01	5.56904069118E+01	-4.94565983453E+01	5.59495273701E+01	-3.83806454202E+00	3.62604354005E+01
2.52000000000E+09	-4.20631014318E+00	7.88642454664E+00	-4.89557804228E+01	1.86217531277E+01	-4.90662186139E+01	1.90510593278E+01	-4.19061099074E+00	5.19435130328E+00
2.60000000000E+09	-4.61945838890E+00	-2.46384310563E+01	-4.84659479603E+01	-1.93717187645E+01	-4.86238351983E+01	-1.89539390997E+01	-4.62123276210E+00	-2.75242936536E+01
2.68000000000E+09	-5.03155600450E+00	-5.94111551497E+01	-4.81142598625E+01	-5.82910659778E+01	-4.82364114603E+01	-5.78895083604E+01	-5.01817697987E+00	-6.25897623359E+01
2.76000000000E+09	-5.32985705797E+00	-9.61019326217E+01	-4.79039820785E+01	-9.77252844712E+01	-4.79704222255E+01	-9.73618630730E+01	-5.32325596144E+00	-9.94837444867E+01
2.84000000000E+09	-5.40185234169E+00	-1.34176248341E+02	-4.77987161060E+01	-1.38024224905E+02	-4.79116489647E+01	-1.37349615479E+02	-5.37897695775E+00	-1.37867087631E+02
2.92000000000E+09	-5.22353629299E+00	-1.71641221050E+02	-4.79262910904E+01	-1.77793031960E+02	-4.79936573380E+01	-1.77175486729E+02	-5.20214333648E+00	-1.75631690384E+02
3.00000000000E+09	-4.87904708988E+00	1.52446173453E+02	-4.81204455602E+01	1.42382453210E+02	-4.82230632752E+01	1.43377791935E+02	-4.81829101518E+00	1.48238189678E+02
3.08000000000E+09	-4.47650368273E+00	1.19211128983E+02	-4.85167556585E+01	1.03897624947E+02	-4.85491707920E+01	1.04583804147E+02	-4.42622115198E+00	1.14849826028E+02
3.16000000000E+09	-4.15421633047E+00	8.80817783098E+01	-4.88882830563E+01	6.58664728899E+01	-4.89472729930E+01	6.67381963422E+01	-4.06437205277E+00	8.37241690307E+01
3.24000000000E+09	-3.92443739227E+00	5.89388110695E+01	-4.93199003263E+01	2.93671708154E+01	-4.93161032704E+01	2.98855399771E+01	-3.83377596529E+00	5.50069265117E+01
3.32000000000E+09	-3.83856793098E+00	3.10472128525E+01	-4.96184190670E+01	-7.15980544777E+00	-4.96022696160E+01	-6.62572775045E+00	-3.70829098432E+00	2.72717048870E+01
3.40000000000E+09	-3.86802535555E+00	3.80480054676E+00	-4.98353240117E+01	-4.27918687932E+01	-4.97873862686E+01	-4.27935401763E+01	-3.73545335416E+00	8.32283892672E-01
3.48000000000E+09	-4.03353837278E+00	-2.33418396071E+01	-4.99181269524E+01	-7.92061171299E+01	-4.98576399819E+01	-7.92325793236E+01	-3.87824638127E+00	-2.60731812732E+01
3.56000000000E+09	-4.31738246602E+00	-5.11158847029E+01	-4.99139850724E+01	-1.15866314619E+02	-4.98539894464E+01	-1.15884033190E+02	-4.14853661201E+00	-5.28523447132E+01
3.64000000000E+09	-4.70903587056E+00	-7.99205217021E+01	-4.98266586927E+01	-1.53571605197E+02	-4.97616447922E+01	-1.53747554221E+02	-4.56423376242E+00	-8.11674973075E+01
3.72000000000E+09	-5.17836231677E+00	-1.10315448149E+02	-4.97867317759E+01	1.67766047402E+02	-4.97289366759E+01	1.67509365411E+02	-5.05016311135E+00	-1.10810111732E+02
3.80000000000E+09	-5.68086138418E+00	-1.42646280785E+02	-4.98332902431E+01	1.28122223144E+02	-4.97723712764E+01	1.27756821940E+02	-5.62719309297E+00	-1.42887392206E+02
3.88000000000E+09	-6.08447997247E+00	-1.76868851898E+02	-5.00090602642E+01	8.75269821616E+01	-4.99643534048E+01	8.72465541582E+01	-6.14407202096E+00	-1.77044927119E+02
3.96000000000E+09	-6.34089510170E+00	1.47523234461E+02	-5.03794805687E+01	4.64461397314E+01	-5.03412009797E+01	4.58267270593E+01	-6.50768116562E+00	1.46592417898E+02
4.04000000000E+09	-6.36679138966E+00	1.11470679314E+02	-5.09944030500E+01	5.16565035299E+00	-5.09618991698E+01	4.40133803162E+00	-6.60974503485E+00	1.09604043579E+02
4.12000000000E+09	-6.23382687731E+00	7.58909388616E+01	-5.18143548328E+01	-3.57984243541E+01	-5.17766208889E+01	-3.63806103468E+01	-6.46478155200E+00	7.27730042728E+01
4.20000000000E+09	-5.95193019293E+00	4.13985136310E+01	-5.28780449698E+01	-7.62461891642E+01	-5.28232899745E+01	-7.67431463351E+01	-6.12902690660E+00	3.79798682437E+01
4.28000000000E+09	-5.67561133441E+00	8.48425245062E+00	-5.40680325711E+01	-1.15411029255E+02	-5.40338022940E+01	-1.16169209414E+02	-5.77368147648E+00	4.47572830677E+00
4.36000000000E+09	-5.40564365274E+00	-2.33506022706E+01	-5.54477022535E+01	-1.53626417928E+02	-5.53954992871E+01	-1.54229353878E+02	-5.42327862663E+00	-2.64664541568E+01
4.44000000000E+09	-5.22319166189E+00	-5.36880489296E+01	-5.69012227356E+01	1.69594708323E+02	-5.68390077065E+01	1.69168403467E+02	-5.21540020489E+00	-5.67408062012E+01
4.52000000000E+09	-5.10705845075E+00	-8.36045566656E+01	-5.84343268790E+01	1.34360829437E+02	-5.83556241766E+01	1.33951668816E+02	-5.03115677178E+00	-8.57968860102E+01
4.60000000000E+09	-5.05861656398E+00	-1.12518825769E+02	-5.99245514288E+01	1.00697075057E+02	-5.98872134495E+01	1.00324312370E+02	-5.00498561028E+00	-1.14402788150E+02
4.68000000000E+09	-5.09156875265E+00	-1.41315085192E+02	-6.14770797718E+01	6.87326431415E+01	-6.14877824658E+01	6.82557234186E+01	-4.99140603927E+00	-1.42705275826E+02
4.76000000000E+09	-5.15141135703E+00	-1.69500017122E+02	-6.28420213796E+01	3.87630246942E+01	-6.29175737957E+01	3.83078715231E+01	-5.13062135837E+00	-1.70772041471E+02
4.84000000000E+09	-5.30036127748E+00	1.62149046728E+02	-6.41506515695E+01	1.02348114420E+01	-6.41933960043E+01	9.84035778203E+00	-5.31109884123E+00	1.60843660053E+02
4.92000000000E+09	-5.49358971278E+00	1.33810780933E+02	-6.52191600704E+01	-1.65933255398E+01	-6.52247190321E+01	-1.69590225996E+01	-5.61521667852E+00	1.32008305573E+02
5.00000000000E+09	-5.77224416263E+00	1.05009463443E+02	-6.59594885667E+01	-4.24835582068E+01	-6.59631786105E+01	-4.29818599891E+01	-5.93578658643E+00	1.02149483742E+02
5.08000000000E+09	-6.11335292614E+00	7.54253531830E+01	-6.62931641593E+01	-6.75660518966E+01	-6.63007545089E+01	-6.90060405736E+01	-6.39484981680E+00	7.15748054172E+01
5.16000000000E+09	-6.54394913313E+00	4.44746473535E+01	-6.62581117526E+01	-9.39443664944E+01	-6.63517467738E+01	-9.56264839158E+01	-6.76585858250E+00	3.88985207948E+01
5.24000000000E+09	-7.00973877358E+00	1.19182412458E+01	-6.59632403487E+01	-1.21405164808E+02	-6.60674725454E+01	-1.22987441461E+02	-7.19994071196E+00	5.81936307572E+00
5.32000000000E+09	-7.46975796681E+00	-2.29986594009E+01	-6.55451367148E+01	-1.50833991291E+02	-6.56794737546E+01	-1.52220131913E+02	-7.46667527097E+00	-3.00280692207E+01
5.40000000000E+09	-7.71266426718E+00	-5.95753993329E+01	-6.50897783804E+01	1.78335093283E+02	-6.52129221890E+01	1.77415188034E+02	-7.52795505742E+00	-6.53903118835E+01
5.48000000000E+09	-7.71066603947E+00	-9.68128581501E+01	-6.47323084294E+01	1.45893312571E+02	-6.47779314368E+01	1.45303786451E+02	-7.38622846445E+00	-1.01596751191E+02
5.56000000000E+09	-7.39754601207E+00	-1.32898594531E+02	-6.44737030248E+01	1.12911839398E+02	-6.44275825165E+01	1.12582951664E+02	-7.03487277889E+00	-1.35794741850E+02
5.64000000000E+09	-6.99509055939E+00	-1.67008918123E+02	-6.43531545758E+01	7.95069725482E+01	-6.42021520870E+01	7.94569916878E+01	-6.61841141083E+00	-1.68541955618E+02
5.72000000000E+09	-6.50505034997E+00	1.61509301061E+02	-6.42622530148E+01	4.65546696175E+01	-6.41010262892E+01	4.64816273045E+01	-6.22979366520E+00	1.61023430942E+02
5.80000000000E+09	-6.12002726688E+00	1.32329051856E+02	-6.41489206085E+01	1.40148212918E+01	-6.40103732313E+01	1.38623339980E+01	-5.93493370574E+00	1.31806079507E+02
5.88000000000E+09	-5.82991399143E+00	1.04743452111E+02	-6.40328359730E+01	-1.82025784621E+01	-6.39179364014E+01	-1.84075797413E+01	-5.75395369219E+00	1.04160108767E+02
5.96000000000E+09	-5.71608038609E+00	7.82689201734E+01	-6.37960967630E+01	-5.03152709796E+01	-6.36910829568E+01	-5.07329478597E+01	-5.69107869955E+00	7.67325504748E+01
6.04000000000E+09	-5.73710585161E+00	5.20788100302E+01	-6.34530865968E+01	-8.26032388970E+01	-6.33897195342E+01	-8.07117377362E+01	-5.75310672315E+00	5.02397978949E+01
6.12000000000E+09	-5.94545951665E+00	2.58712751426E+01	-6.30363660017E+01	-1.15330707832E+02	-6.31201531564E+01	-1.12356073917E+02	-5.96142730026E+00	2.32068287052E+01
6.20000000000E+09	-6.30456039030E+00	-1.29303987381E+00	-6.25269743887E+01	-1.48774099139E+02	-6.27136757972E+01	-1.46596270838E+02	-6.29072060158E+00	-3.81864332772E+00
6.28000000000E+09	-6.82794527980E+00	-2.93902628232E+01	-6.19640299908E+01	1.77006822547E+02	-6.23030992609E+01	1.78508893986E+02	-6.77823081461E+00	-3.25655672228E+01
6.36000000000E+09	-7.48412440315E+00	-5.98102424653E+01	-6.14182824418E+01	1.41930611625E+02	-6.19692648928E+01	1.43711972138E+02	-7.30562755764E+00	-6.20534530826E+01
6.44000000000E+09	-8.15667976225E+00	-9.20566743852E+01	-6.08497424813E+01	1.05847602998E+02	-6.16239371302E+01	1.08587199564E+02	-7.96667605492E+00	-9.36900829261E+01
6.52000000000E+09	-8.75869042000E+00	-1.26991889848E+02	-6.03606676561E+01	6.90339873647E+01	-6.11247986465E+01	7.33408110195E+01	-8.50679664017E+00	-1.27059314114E+02
6.60000000000E+09	-9.07815818918E+00	-1.63013502452E+02	-5.99710664889E+01	3.16257169741E+01	-5.99420632160E+01	3.25044938810E+01	-8.98394257839E+00	-1.62338996513E+02
6.68000000000E+09	-9.08567607415E+00	1.60548195709E+02	-5.97107635350E+01	-6.03956025718E+00	-5.95885215030E+01	-5.01275131420E+00	-9.09625163387E+00	1.61772405849E+02
6.76000000000E+09	-8.75723511274E+00	1.25857918562E+02	-5.94901313094E+01	-4.38701136677E+01	-5.97839029419E+01	-4.04932134752E+01	-9.06231373473E+00	1.25979021939E+02
6.84000000000E+09	-8.35767448528E+00	9.27604516708E+01	-5.93510108354E+01	-8.14743010256E+01	-5.93287800767E+01	-7.93926305795E+01	-8.72074085332E+00	9.13948855347E+01
6.92000000000E+09	-7.94953391528E+00	6.15851711692E+01	-5.92794880248E+01	-1.18767536407E+02	-5.92936191880E+01	-1.17830189032E+02	-8.38711145961E+00	5.84544214812E+01
7.00000000000E+09	-7.67715257203E+00	3.14490594030E+01	-5.92503789076E+01	-1.56210603187E+02	-5.93408022760E+01	-1.55535362737E+02	-7.99750895303E+00	2.71184064342E+01
7.08000000000E+09	-7.47746679287E+00	2.22764154871E+00	-5.92171149233E+01	1.66352957705E+02	-5.93988408526E+01	1.67205564583E+02	-7.76462828075E+00	-3.05713459378E+00
7.16000000000E+09	-7.44269176489E+00	-2.66785711011E+01	-5.92529970384E+01	1.28926475714E+02	-5.95008885227E+01	1.29912498206E+02	-7.52439727188E+00	-3.23318953083E+01
7.24000000000E+09	-7.48884716555E+00	-5.54497582894E+01	-5.93236461061E+01	9.18380261759E+01	-5.96248308067E+01	9.28085163399E+01	-7.48346802606E+00	-6.10227860471E+01
7.32000000000E+09	-7.67141151343E+00	-8.43462254085E+01	-5.94048068034E+01	5.48968850647E+01	-5.97390921018E+01	5.52042344666E+01	-7.44171515825E+00	-8.95694392536E+01
7.40000000000E+09	-7.94778141539E+00	-1.13290417954E+02	-5.95257221145E+01	1.78136852503E+01	-5.97270163692E+01	1.71579888696E+01	-7.55525636774E+00	-1.17641963655E+02
7.48000000000E+09	-8.20801923674E+00	-1.42600790587E+02	-5.96340416232E+01	-1.94228993024E+01	-5.98217147841E+01	-1.97872571532E+01	-7.64355506084E+00	-1.46024751529E+02
7.56000000000E+09	-8.43544111907E+00	-1.72049489700E+02	-5.97267532622E+01	-5.65929441140E+01	-5.98913325684E+01	-5.54546915595E+01	-7.90345346292E+00	-1.73811205509E+02
7.64000000000E+09	-8.68595521834E+00	1.58753384575E+02	-5.98077442048E+01	-9.37938516832E+01	-5.98072911015E+01	-9.17569843951E+01	-8.17943529378E+00	1.57529225604E+02
7.72000000000E+09	-8.90423290767E+00	1.29283900882E+02	-5.98830040117E+01	-1.31087844564E+02	-5.97204592132E+01	-1.29655443444E+02	-8.59499028594E+00	1.29097242849E+02
7.80000000000E+09	-9.20106145460E+00	9.99675411849E+01	-5.99600458606E+01	-1.68907526550E+02	-5.96437930207E+01	-1.68116325699E+02	-9.09035448543E+00	9.88974441116E+01
7.88000000000E+09	-9.56236746860E+00	6.96148776673E+01	-6.01010344097E+01	1.52701419789E+02	-5.98235870342E+01	1.52776318218E+02	-9.66629741260E+00	6.84203041417E+01
7.96000000000E+09	-9.98666326316E+00	3.84280209869E+01	-6.03459508727E+01	1.14315368964E+02	-6.01670059673E+01	1.14315469674E+02	-1.02540311357E+01	3.50590413150E+01
8.04000000000E+09	-1.04529732965E+01	5.29700440790E+00	-6.07053861603E+01	7.66144976178E+01	-6.05072527090E+01	7.81034030137E+01	-1.07284839924E+01	9.65495810970E-01
8.12000000000E+09	-1.08971590461E+01	-2.94779305919E+01	-6.09552978214E+01	4.01141734071E+01	-6.08149512613E+01	4.31788481894E+01	-1.09644311506E+01	-3.55115925507E+01
8.20000000000E+09	-1.11312355141E+01	-6.62711778766E+01	-6.10168838199E+01	2.90607242502E+00	-6.10858014012E+01	6.88860055177E+00	-1.07274894688E+01	-7.10019115108E+01
8.28000000000E+09	-1.10483739837E+01	-1.02812775606E+02	-6.11323054889E+01	-3.58976546976E+01	-6.13895317028E+01	-3.04628851618E+01	-1.02770378081E+01	-1.05991462551E+02
8.36000000000E+09	-1.06401032047E+01	-1.38020645841E+02	-6.14505341156E+01	-7.46975695956E+01	-6.17144988404E+01	-6.89343410064E+01	-9.60498703637E+00	-1.37960866029E+02
8.44000000000E+09	-1.00816033834E+01	-1.69861515756E+02	-6.18504079787E+01	-1.13062153900E+02	-6.22841803405E+01	-1.05267011449E+02	-9.00686541007E+00	-1.68042894491E+02
8.52000000000E+09	-9.51062097497E+00	1.60775020469E+02	-6.23148022093E+01	-1.50805236503E+02	-6.28141157237E+01	-1.43587218165E+02	-8.49118137859E+00	1.64310371863E+02
8.60000000000E+09	-9.02789181999E+00	1.33958725531E+02	-6.27377061199E+01	1.72066518174E+02	-6.32437624259E+01	1.77020969877E+02	-8.20014380590E+00	1.37866499043E+02
8.68000000000E+09	-8.70230599777E+00	1.08422798361E+02	-6.30939735772E+01	1.35413745064E+02	-6.35387276408E+01	1.38063192503E+02	-8.04382123971E+00	1.12552120146E+02
8.76000000000E+09	-8.53601474824E+00	8.42069015963E+01	-6.33944625652E+01	9.88109421600E+01	-6.39043258211E+01	1.00044719944E+02	-8.14518143479E+00	8.75430422517E+01
8.84000000000E+09	-8.65166962524E+00	5.96686098024E+01	-6.36425174829E+01	6.19119866074E+01	-6.39395455761E+01	6.23590674652E+01	-8.39513072651E+00	6.26421652310E+01
8.92000000000E+09	-8.96139464143E+00	3.52635501301E+01	-6.38461145228E+01	2.45507707233E+01	-6.41073062929E+01	2.42584842136E+01	-8.96886051571E+00	3.69005938054E+01
9.00000000000E+09	-9.68673226104E+00	9.52144369905E+00	-6.41077255442E+01	-1.35921990505E+01	-6.43871618399E+01	-1.35633733306E+01	-9.69234516022E+00	9.74080105574E+00
