# Hz S DB R 50
! CMT, C1420, 19038819, 22.4.2/3
! Date: 2023-03-14 09:51:29
! Data: Format (Calibration Info)
! Freq	S11:dB/Ang(F2)	S21:dB/Ang(F2)	S12:dB/Ang(F2)	S22:dB/Ang(F2)
1.00000000000E+09	-3.06990656773E+00	-8.44707192178E+01	-6.11486454829E+01	-3.45874081165E+01	-6.57670432434E+01	-1.69575102500E+01	-2.59905905612E+00	-8.75512036877E+01
1.08000000000E+09	-3.62468561731E+00	-1.17051388776E+02	-6.13415338668E+01	-5.64500092082E+01	-6.29447944758E+01	-3.18132585138E+01	-2.81625439809E+00	-1.19888777300E+02
1.16000000000E+09	-4.15373112494E+00	-1.51080056956E+02	-6.04049144818E+01	-8.96601474987E+01	-6.25974449060E+01	-6.58256043865E+01	-3.07829675236E+00	-1.53269120852E+02
1.24000000000E+09	-4.52210992918E+00	1.73764062027E+02	-6.03211640018E+01	-1.14715178661E+02	-6.01206042441E+01	-8.61489341665E+01	-3.33788095564E+00	1.72645694714E+02
1.32000000000E+09	-4.64632754231E+00	1.37505445122E+02	-5.89745758038E+01	-1.37718603040E+02	-5.70327384028E+01	-1.16421480263E+02	-3.60440564563E+00	1.37260567850E+02
1.40000000000E+09	-4.52395096608E+00	1.01246760359E+02	-5.65216552402E+01	-1.68823365629E+02	-5.48946083979E+01	-1.60011214038E+02	-3.79443580692E+00	1.01232608951E+02
1.48000000000E+09	-4.26425975585E+00	6.51375716841E+01	-5.45300470508E+01	1.52487041960E+02	-5.36026536615E+01	1.58186183527E+02	-3.93283174405E+00	6.46345497803E+01
1.56000000000E+09	-3.99992388228E+00	2.95235255846E+01	-5.30024432973E+01	1.12522272931E+02	-5.25218132570E+01	1.16518548298E+02	-3.95635928120E+00	2.77727800444E+01
1.64000000000E+09	-3.86963140426E+00	-5.74655145209E+00	-5.18990577354E+01	7.02016994491E+01	-5.17104644480E+01	7.39898594158E+01	-3.91912544914E+00	-8.61452542879E+00
1.72000000000E+09	-3.91059567099E+00	-4.05413185016E+01	-5.12600488772E+01	2.85134783506E+01	-5.14404848280E+01	3.17557590900E+01	-3.79678298289E+00	-4.44229440740E+01
1.80000000000E+09	-4.10963619471E+00	-7.48540689287E+01	-5.11460146876E+01	-1.24294884838E+01	-5.13340032964E+01	-7.62852561357E+00	-3.65758611812E+00	-7.92645344989E+01
1.88000000000E+09	-4.34210287262E+00	-1.08500384925E+02	-5.10279720584E+01	-5.13629485628E+01	-5.10904970488E+01	-4.59236955271E+01	-3.50514053961E+00	-1.12985100712E+02
1.96000000000E+09	-4.54379024993E+00	-1.41401691024E+02	-5.10191698044E+01	-8.93169277854E+01	-5.10793707003E+01	-8.41424672431E+01	-3.37999623438E+00	-1.45476581648E+02
2.04000000000E+09	-4.61361852811E+00	-1.73440822081E+02	-5.10392567465E+01	-1.25940511684E+02	-5.08625831809E+01	-1.21400776331E+02	-3.28422657709E+00	-1.76903117653E+02
2.12000000000E+09	-4.55986113465E+00	1.55505484937E+02	-5.09939298087E+01	-1.61275055412E+02	-5.06291375907E+01	-1.57376749716E+02	-3.25441638164E+00	1.52735937453E+02
2.20000000000E+09	-4.39493219315E+00	1.25180391797E+02	-5.08236758450E+01	1.63741364367E+02	-5.03398746554E+01	1.66194335187E+02	-3.28239625065E+00	1.23203917161E+02
2.28000000000E+09	-4.20243819208E+00	9.55838074148E+01	-5.04829356958E+01	1.28602330089E+02	-5.00023580633E+01	1.29737422678E+02	-3.39807895933E+00	9.41020393810E+01
2.36000000000E+09	-4.05359404446E+00	6.60733825445E+01	-4.99831069257E+01	9.23873057822E+01	-4.96401832058E+01	9.26326612515E+01	-3.59884417262E+00	6.47874634451E+01
2.44000000000E+09	-4.03060075522E+00	3.65232858200E+01	-4.93773899293E+01	5.55734102382E+01	-4.92058875101E+01	5.53795746392E+01	-3.89126202168E+00	3.49202850158E+01
2.52000000000E+09	-4.20418020451E+00	6.15520699984E+00	-4.88170521855E+01	1.76934570458E+01	-4.87226157736E+01	1.74368523114E+01	-4.24997752709E+00	3.74091521082E+00
2.60000000000E+09	-4.59061382664E+00	-2.52782600612E+01	-4.83813732702E+01	-2.12966706401E+01	-4.83286932402E+01	-2.15407330644E+01	-4.68155648845E+00	-2.90744544129E+01
2.68000000000E+09	-5.16938884860E+00	-5.84966272780E+01	-4.80859991596E+01	-6.08231868073E+01	-4.80475888076E+01	-6.09454252141E+01	-5.07457256349E+00	-6.42446914692E+01
2.76000000000E+09	-5.80960397635E+00	-9.37071297310E+01	-4.78763407941E+01	-1.00508161225E+02	-4.78527017654E+01	-1.00787704753E+02	-5.36868662185E+00	-1.01218990330E+02
2.84000000000E+09	-6.29700814075E+00	-1.31294190724E+02	-4.78091571598E+01	-1.40550580131E+02	-4.77697879270E+01	-1.40278989121E+02	-5.40753102014E+00	-1.39614517406E+02
2.92000000000E+09	-6.37910085351E+00	-1.69482779223E+02	-4.79122314867E+01	1.79820726986E+02	-4.78983152526E+01	1.79637194829E+02	-5.21473381470E+00	-1.77262819696E+02
3.00000000000E+09	-6.05077019415E+00	1.53156594663E+02	-4.82176940302E+01	1.40779864739E+02	-4.81875133091E+01	1.39756959825E+02	-4.82544779591E+00	1.46723301020E+02
3.08000000000E+09	-5.41533013689E+00	1.18683740672E+02	-4.85619322295E+01	1.02106155100E+02	-4.85344270532E+01	1.00652103089E+02	-4.43214949872E+00	1.13485837158E+02
3.16000000000E+09	-4.75418827798E+00	8.69277001991E+01	-4.89685169909E+01	6.45213882006E+01	-4.89411356790E+01	6.34363728667E+01	-4.07244472886E+00	8.25187195469E+01
3.24000000000E+09	-4.24753819481E+00	5.73501923332E+01	-4.93376627163E+01	2.80683074770E+01	-4.93222483463E+01	2.70537657999E+01	-3.84604101324E+00	5.39352931468E+01
3.32000000000E+09	-3.94652331861E+00	2.94523733386E+01	-4.96105164308E+01	-8.35316796784E+00	-4.95872685793E+01	-9.31048178182E+00	-3.72759100569E+00	2.62796280221E+01
3.40000000000E+09	-3.85091335270E+00	2.56760572535E+00	-4.97754853512E+01	-4.44918712622E+01	-4.97449393563E+01	-4.57812261046E+01	-3.76134713158E+00	-1.27131085278E-01
3.48000000000E+09	-3.99135159609E+00	-2.38600338768E+01	-4.98644145354E+01	-8.11364532963E+01	-4.98032779148E+01	-8.25003894827E+01	-3.91046829241E+00	-2.70201518806E+01
3.56000000000E+09	-4.35086628645E+00	-5.06104108848E+01	-4.98888272746E+01	-1.17995473408E+02	-4.97994791936E+01	-1.19260037686E+02	-4.18708648660E+00	-5.38075282125E+01
3.64000000000E+09	-4.91197036934E+00	-7.82560717393E+01	-4.98559979791E+01	-1.55789002519E+02	-4.97508199909E+01	-1.57404728879E+02	-4.60890679751E+00	-8.21711263288E+01
3.72000000000E+09	-5.62744191874E+00	-1.07659907079E+02	-4.98508696801E+01	1.65620200567E+02	-4.97396032658E+01	1.63576401701E+02	-5.09782090736E+00	-1.11885575326E+02
3.80000000000E+09	-6.41936111441E+00	-1.39594945985E+02	-4.99016222976E+01	1.26159129398E+02	-4.98099615041E+01	1.23673787503E+02	-5.67588246182E+00	-1.44036684985E+02
3.88000000000E+09	-7.07454410536E+00	-1.74611036289E+02	-5.01056159651E+01	8.55758279511E+01	-5.00666403134E+01	8.29360118686E+01	-6.18809666599E+00	-1.78283933330E+02
3.96000000000E+09	-7.38599990887E+00	1.47968677538E+02	-5.04775146985E+01	4.46313032810E+01	-5.05089889066E+01	4.17656491970E+01	-6.53926498381E+00	1.45314879075E+02
4.04000000000E+09	-7.21052492571E+00	1.09958010212E+02	-5.10913699361E+01	3.50196495200E+00	-5.12056170449E+01	4.89415198706E-01	-6.62659687193E+00	1.08332803576E+02
4.12000000000E+09	-6.71835782731E+00	7.32568539849E+01	-5.19358016317E+01	-3.76712612143E+01	-5.21148672700E+01	-4.02341146577E+01	-6.46874029195E+00	7.15660321952E+01
4.20000000000E+09	-6.09186635400E+00	3.88195102235E+01	-5.30375783902E+01	-7.80193675324E+01	-5.32293048578E+01	-8.01087642929E+01	-6.12663473746E+00	3.68560133913E+01
4.28000000000E+09	-5.60782604142E+00	6.72682314022E+00	-5.43562867724E+01	-1.16912630536E+02	-5.45142238945E+01	-1.18610607120E+02	-5.76675232188E+00	3.44876029826E+00
4.36000000000E+09	-5.29946093565E+00	-2.38969488578E+01	-5.58380936662E+01	-1.54711876454E+02	-5.59706787976E+01	-1.56118111210E+02	-5.41637267207E+00	-2.74038502748E+01
4.44000000000E+09	-5.23367383846E+00	-5.29705344397E+01	-5.74609090346E+01	1.69179266438E+02	-5.75502062876E+01	1.67770143059E+02	-5.20852887110E+00	-5.76188957352E+01
4.52000000000E+09	-5.35008910824E+00	-8.17721600309E+01	-5.92323250380E+01	1.35140996119E+02	-5.92702874546E+01	1.33608317396E+02	-5.02663005273E+00	-8.66187035057E+01
4.60000000000E+09	-5.59624828960E+00	-1.09982132450E+02	-6.08594458127E+01	1.03377347270E+02	-6.09150530352E+01	1.01794307487E+02	-5.00310305524E+00	-1.15197943378E+02
4.68000000000E+09	-5.92733042397E+00	-1.38650189246E+02	-6.24486712230E+01	7.27687495810E+01	-6.25748262686E+01	7.12866121318E+01	-4.99305925211E+00	-1.43467748695E+02
4.76000000000E+09	-6.22968005737E+00	-1.67414045183E+02	-6.38294552212E+01	4.41184711574E+01	-6.39899720843E+01	4.30259904791E+01	-5.13496584829E+00	-1.71540342328E+02
4.84000000000E+09	-6.50039812822E+00	1.63099912308E+02	-6.50809060543E+01	1.68030152185E+01	-6.52497579499E+01	1.62127427789E+01	-5.31930790015E+00	1.60083087932E+02
4.92000000000E+09	-6.64130778454E+00	1.33322225564E+02	-6.57969107211E+01	-9.03844418243E+00	-6.59899292300E+01	-8.39336090249E+00	-5.62775006816E+00	1.31210497190E+02
5.00000000000E+09	-6.72226672533E+00	1.03022428071E+02	-6.62129688888E+01	-3.51131269716E+01	-6.63551346961E+01	-3.39895318127E+01	-5.94918225600E+00	1.01335037217E+02
5.08000000000E+09	-6.74323929536E+00	7.24923750561E+01	-6.61695101082E+01	-6.18502835110E+01	-6.62627819880E+01	-6.06983811692E+01	-6.40955076629E+00	7.07334008796E+01
5.16000000000E+09	-6.80218032042E+00	4.12106418507E+01	-6.60033336102E+01	-8.97754954281E+01	-6.59817700738E+01	-8.85777955690E+01	-6.77879266005E+00	3.80247396953E+01
5.24000000000E+09	-6.93667798750E+00	9.27392743071E+00	-6.55048014552E+01	-1.19079590076E+02	-6.54524990064E+01	-1.18515105768E+02	-7.21080005589E+00	4.90747663144E+00
5.32000000000E+09	-7.20677559639E+00	-2.37070433136E+01	-6.50329175609E+01	-1.50265550089E+02	-6.49579487741E+01	-1.50527847129E+02	-7.46944722551E+00	-3.09485617728E+01
5.40000000000E+09	-7.63138112043E+00	-5.71222462035E+01	-6.46040503239E+01	1.77074124226E+02	-6.45794481935E+01	1.76647990709E+02	-7.52414260232E+00	-6.63134674458E+01
5.48000000000E+09	-8.15938746679E+00	-9.17982812023E+01	-6.42395403448E+01	1.44150980318E+02	-6.42763381159E+01	1.43056447553E+02	-7.37078751394E+00	-1.02489279131E+02
5.56000000000E+09	-8.52603551806E+00	-1.26808519837E+02	-6.40429044715E+01	1.10053869443E+02	-6.42237715771E+01	1.09427857887E+02	-7.01565443199E+00	-1.36607412832E+02
5.64000000000E+09	-8.73662282407E+00	-1.61664363821E+02	-6.41163357709E+01	7.63924003226E+01	-6.43768824959E+01	7.67949458812E+01	-6.59651948019E+00	-1.69269064283E+02
5.72000000000E+09	-8.51508337999E+00	1.64812878109E+02	-6.42390596383E+01	4.46419157734E+01	-6.43748846828E+01	4.59399631399E+01	-6.20897691312E+00	1.60382566721E+02
5.80000000000E+09	-8.10212753170E+00	1.33422877269E+02	-6.42136886807E+01	1.40561912833E+01	-6.41783878782E+01	1.53480999783E+01	-5.91839300449E+00	1.31229495024E+02
5.88000000000E+09	-7.50942448596E+00	1.03918557691E+02	-6.40335122116E+01	-1.70411917089E+01	-6.38903892508E+01	-1.57971315357E+01	-5.74223308996E+00	1.03656866507E+02
5.96000000000E+09	-6.93672776611E+00	7.63054539118E+01	-6.36829124735E+01	-4.88765951275E+01	-6.32963504065E+01	-5.17119121579E+01	-5.68242904058E+00	7.62540063440E+01
6.04000000000E+09	-6.44291818772E+00	4.90423901820E+01	-6.32798689782E+01	-8.10149526722E+01	-6.29873716129E+01	-8.26858393856E+01	-5.74847150881E+00	4.97659023520E+01
6.12000000000E+09	-6.18125886061E+00	2.25830537568E+01	-6.28191036117E+01	-1.14505721777E+02	-6.25876221409E+01	-1.14948693566E+02	-5.95947692579E+00	2.27234528706E+01
6.20000000000E+09	-6.16763068856E+00	-3.84043547446E+00	-6.23714207416E+01	-1.48624218361E+02	-6.21761184414E+01	-1.49043345455E+02	-6.29049407070E+00	-4.32194204646E+00
6.28000000000E+09	-6.43876972530E+00	-2.99373687515E+01	-6.19248230098E+01	1.76435532369E+02	-6.17510293811E+01	1.76225767218E+02	-6.77811751720E+00	-3.31270623237E+01
6.36000000000E+09	-6.97932821975E+00	-5.68739325415E+01	-6.15089210261E+01	1.41249830162E+02	-6.13537611356E+01	1.40900484077E+02	-7.30181734778E+00	-6.26642519672E+01
6.44000000000E+09	-7.71888009752E+00	-8.45586220610E+01	-6.10556416525E+01	1.05237168158E+02	-6.09241372091E+01	1.05361054991E+02	-7.95384931711E+00	-9.43347449241E+01
6.52000000000E+09	-8.67013982324E+00	-1.14356848859E+02	-6.06814461142E+01	6.91355074087E+01	-6.04898258640E+01	6.93809346053E+01	-8.48498743560E+00	-1.27698394120E+02
6.60000000000E+09	-9.54422839366E+00	-1.46875731985E+02	-6.02407673583E+01	3.27636155878E+01	-6.00523203274E+01	3.25542910570E+01	-8.94627707714E+00	-1.62947087387E+02
6.68000000000E+09	-1.03362124198E+01	1.76880909568E+02	-5.98552124374E+01	-4.26194254391E+00	-5.97483526108E+01	-5.15592380198E+00	-9.05003996363E+00	1.61190916836E+02
6.76000000000E+09	-1.05289441002E+01	1.37505296122E+02	-5.94866904137E+01	-4.21707427477E+01	-5.93403293824E+01	-4.76894874577E+01	-9.01337186859E+00	1.25426705369E+02
6.84000000000E+09	-1.00796521637E+01	9.78660517400E+01	-5.92333514970E+01	-8.05749342043E+01	-5.92057652551E+01	-8.24134630673E+01	-8.67157618916E+00	9.08783809118E+01
6.92000000000E+09	-9.16614280437E+00	6.14963785516E+01	-5.91217408610E+01	-1.19151805203E+02	-5.90786189459E+01	-1.20436693676E+02	-8.33922541478E+00	5.79762704105E+01
7.00000000000E+09	-8.27419273496E+00	2.85043856722E+01	-5.91178958366E+01	-1.57538480991E+02	-5.90973971894E+01	-1.58757292091E+02	-7.94848818106E+00	2.66359002803E+01
7.08000000000E+09	-7.53087739616E+00	-1.32381658550E+00	-5.91873549427E+01	1.64553942387E+02	-5.91846608342E+01	1.63406964898E+02	-7.71872161475E+00	-3.55786049051E+00
7.16000000000E+09	-7.07157610359E+00	-2.89990884137E+01	-5.93168340396E+01	1.27163051290E+02	-5.93440427292E+01	1.25694933522E+02	-7.47660358341E+00	-3.28438976974E+01
7.24000000000E+09	-6.83269833574E+00	-5.51624006089E+01	-5.94307020427E+01	9.02205860162E+01	-5.94283456916E+01	8.76781175096E+01	-7.43068283083E+00	-6.14816028336E+01
7.32000000000E+09	-6.84055535198E+00	-8.06417385033E+01	-5.95868629515E+01	5.33110095895E+01	-5.94923070412E+01	4.99112182716E+01	-7.38692427903E+00	-9.00115692354E+01
7.40000000000E+09	-7.01936693909E+00	-1.05965994459E+02	-5.97185014448E+01	1.67638288169E+01	-5.97147969700E+01	1.32791187070E+01	-7.49581863109E+00	-1.18020482876E+02
7.48000000000E+09	-7.38276695770E+00	-1.31527240708E+02	-5.98241056284E+01	-1.99181221006E+01	-5.98256191936E+01	-2.34595928185E+01	-7.58946402088E+00	-1.46372450498E+02
7.56000000000E+09	-7.88761573847E+00	-1.58128211820E+02	-5.98601103727E+01	-5.64416395382E+01	-5.98345356392E+01	-6.10388766737E+01	-7.84734452139E+00	-1.74120373288E+02
7.64000000000E+09	-8.57208845867E+00	1.73927030961E+02	-5.98378297573E+01	-9.37567182309E+01	-5.99342849028E+01	-9.94280303036E+01	-8.13508981644E+00	1.57208624589E+02
7.72000000000E+09	-9.33544417665E+00	1.43485646612E+02	-5.98404859539E+01	-1.31525785091E+02	-6.00803400168E+01	-1.34477724055E+02	-8.54780135279E+00	1.28726322318E+02
7.80000000000E+09	-1.01172974730E+01	1.10779634771E+02	-5.98894194439E+01	-1.69977043402E+02	-5.99979838518E+01	-1.70729913416E+02	-9.04196427896E+00	9.84692210492E+01
7.88000000000E+09	-1.07742758766E+01	7.49161202483E+01	-6.00552699969E+01	1.51378473411E+02	-6.03401754840E+01	1.48963141673E+02	-9.60955255870E+00	6.78476401429E+01
7.96000000000E+09	-1.10875467265E+01	3.75677166313E+01	-6.03457425162E+01	1.12788592774E+02	-6.05159623603E+01	1.11468057270E+02	-1.01981949709E+01	3.43590402824E+01
8.04000000000E+09	-1.09761454345E+01	-7.93143781481E-02	-6.07723989229E+01	7.53905646430E+01	-6.09448991545E+01	7.40986241167E+01	-1.06628677437E+01	1.38136036970E-01
8.12000000000E+09	-1.05570177447E+01	-3.58124525010E+01	-6.10944538055E+01	3.94805972246E+01	-6.12786508147E+01	3.72066754198E+01	-1.08789093996E+01	-3.62258848493E+01
8.20000000000E+09	-9.98700731959E+00	-6.95516421171E+01	-6.12300153456E+01	3.13045492251E+00	-6.14071013720E+01	8.42314921635E-01	-1.06267653647E+01	-7.16304633717E+01
8.28000000000E+09	-9.45197739465E+00	-1.00625311742E+02	-6.13527881783E+01	-3.44754571053E+01	-6.15005309560E+01	-3.88889388637E+01	-1.01657211933E+01	-1.06397470980E+02
8.36000000000E+09	-9.01831748648E+00	-1.30261702565E+02	-6.16166603375E+01	-7.26049042400E+01	-6.18978854130E+01	-7.73358539962E+01	-9.50789735986E+00	-1.38260603936E+02
8.44000000000E+09	-8.71306111218E+00	-1.58237065428E+02	-6.19599567818E+01	-1.10340081464E+02	-6.23891400413E+01	-1.14435310920E+02	-8.92208331631E+00	-1.68256681993E+02
8.52000000000E+09	-8.54895518468E+00	1.74294390072E+02	-6.23482443785E+01	-1.48175046420E+02	-6.26156813733E+01	-1.49837987243E+02	-8.42683748929E+00	1.64111275247E+02
8.60000000000E+09	-8.51677092271E+00	1.47542296717E+02	-6.27176039804E+01	1.74272461403E+02	-6.31963181017E+01	1.69545045834E+02	-8.14661314888E+00	1.37657194267E+02
8.68000000000E+09	-8.64523314932E+00	1.20562157000E+02	-6.31043935439E+01	1.36871261329E+02	-6.35184352023E+01	1.32085142038E+02	-8.00710359631E+00	1.12298923359E+02
8.76000000000E+09	-8.87600951922E+00	9.36187909141E+01	-6.34270700602E+01	9.95375784169E+01	-6.37648673729E+01	9.56262971832E+01	-8.11441106638E+00	8.72177751989E+01
8.84000000000E+09	-9.29168401983E+00	6.57367908523E+01	-6.37116001638E+01	6.18415461845E+01	-6.40767788759E+01	5.87871433981E+01	-8.37385853408E+00	6.22583818779E+01
8.92000000000E+09	-9.77696347678E+00	3.72499362327E+01	-6.39832864493E+01	2.40590570525E+01	-6.42491901273E+01	2.16598024952E+01	-8.94634277008E+00	3.63918352731E+01
9.00000000000E+09	-1.04227974533E+01	7.09692507983E+00	-6.43093511723E+01	-1.39953041530E+01	-6.45172785510E+01	-1.60573863272E+01	-9.66926153410E+00	9.14667254753E+00
