# HZ S RI R 50
1000000000 0.937933336227178 0.23153251633947905 -0.0002476448140305812 9.138777750417882e-05 0 0 0 0
1000990000 0.9392487691419291 0.22261991577334286 -5.410579086245407e-05 0.00013551627612330694 0 0 0 0
1001981000 0.9374697266318865 0.22082661633244405 6.074065850128349e-05 0.0001912681200206517 0 0 0 0
1002971000 0.9434301648349553 0.2167439204149329 -0.0002597129241288467 0.0001895061833380728 0 0 0 0
1003962000 0.9416147104780325 0.21859860485322666 4.9612747885093955e-05 0.0001768404575573248 0 0 0 0
1004952000 0.9419265031852954 0.2082764447854271 -0.00037825234764147126 0.00036439800494523865 0 0 0 0
1005943000 0.9460916943934735 0.19185261417008648 -0.0002084948793364665 0.0004601164089030269 0 0 0 0
1006934000 0.9481692374301752 0.1900753944704559 -0.00028616373380509224 0.0002324457816758512 0 0 0 0
1007924000 0.948127950811886 0.1878075041476301 -0.0001430721025587117 -0.0001815359997411076 0 0 0 0
1008915000 0.9490879013431369 0.18493774377506347 -0.00015035576209999863 0.00041846416044275886 0 0 0 0
1009905000 0.9468721629235191 0.17669456519725474 -0.00027248399010489386 0.00018765425526960706 0 0 0 0
1010896000 0.951063441661666 0.1703387487257648 -0.00011414476727042449 0.0002235598449691795 0 0 0 0
1011886000 0.9506239796853094 0.16268923777318053 -0.0001727508585707789 0.00023095530468329896 0 0 0 0
1012877000 0.946652108526349 0.17105626706998306 -4.655108258583664e-05 0.0004098837941541834 0 0 0 0
1013868000 0.9503377893876491 0.15705194081989965 -0.0002321285126336177 0.00029696618218368086 0 0 0 0
1014858000 0.9513938962818598 0.15372111725267432 -0.00013061898994489203 2.471659797145543e-05 0 0 0 0
1015849000 0.9546890977669986 0.15233733814145642 3.014438433830113e-05 8.08657708818137e-06 0 0 0 0
1016839000 0.95545869617851 0.14101181345243344 -5.491490265335172e-05 0.00038480191540347144 0 0 0 0
1017830000 0.9558343428407224 0.14191131407976748 1.3102178208610703e-05 0.00015672185621060322 0 0 0 0
1018821000 0.9568785490474744 0.12307560679219004 -6.195856268668648e-05 0.00047604666567380356 0 0 0 0
1019811000 0.956303561027165 0.12917139488073665 1.1095267872924154e-05 0.0002626858820576151 0 0 0 0
1020802000 0.954647401938448 0.1229965983715127 0.00011958001425815277 0.0003842772222732328 0 0 0 0
1021792000 0.9588511900103072 0.1191193526589263 -4.303268918873101e-06 1.6962230571140615e-05 0 0 0 0
1022783000 0.9600892198008816 0.11327621412681853 6.473792181248014e-05 0.0002952446283791483 0 0 0 0
1023773000 0.9587152337812186 0.11014946984668954 0.0001424651240382594 0.00047275491181657654 0 0 0 0
1024764000 0.9597952709937685 0.10077329837633843 0.00012722230933738575 0.00021339411862194457 0 0 0 0
1025755000 0.9583720217826204 0.09272814717629436 1.9836759761019093e-05 8.245520867229937e-05 0 0 0 0
1026745000 0.9602113388073416 0.08260460865914065 -0.0001305662927589517 0.00018787580092966325 0 0 0 0
1027736000 0.9600251303667161 0.08624486358207649 4.625178677510526e-06 0.000120823164997694 0 0 0 0
1028726000 0.9625026773114804 0.0780700554942021 -0.00012143556454762168 0.00022052857171335905 0 0 0 0
1029717000 0.961302045251028 0.07728449694010865 -0.00017591676630787764 0.00034647448703263687 0 0 0 0
1030707000 0.9579408924074563 0.06000146358717319 -0.00013862820864506137 0.00028929024871356774 0 0 0 0
1031698000 0.9630476779857466 0.06395313778771675 2.5314744112391803e-05 0.0002465133533726756 0 0 0 0
1032689000 0.9562999028960952 0.06761274676711322 0.00011037246769777983 4.8367120995485745e-05 0 0 0 0
1033679000 0.959591233717882 0.05478900556010403 6.0962002600049736e-05 0.0002710352785349258 0 0 0 0
1034670000 0.9579274891793197 0.04939135135022258 -0.00025088884481702596 0.0002166206044386101 0 0 0 0
1035660000 0.958822377710367 0.0471497015275838 -7.416478673702847e-05 0.00017774456312378068 0 0 0 0
1036651000 0.9584712045850442 0.03631130180917198 0.00032788363376010153 0.00020714888131617002 0 0 0 0
1037642000 0.961394164363906 0.021031676674571505 0.00010125388148711579 0.00016647856217182083 0 0 0 0
1038632000 0.9613500434845771 0.024748941010297797 6.53001128650256e-05 0.00034461823328928593 0 0 0 0
1039623000 0.9610749152186312 0.01975494151857045 9.402760309779072e-05 0.00010954217201334748 0 0 0 0
1040613000 0.9595216234882051 0.017598326116292303 -1.3106411034954438e-05 0.00026957783398866595 0 0 0 0
1041604000 0.9642461585381222 0.005456529557580885 -0.00015820208574161625 -2.5137859020526237e-05 0 0 0 0
1042594000 0.9613582705750783 0.011223858115434429 -6.739560406585996e-05 0.00020957716631339973 0 0 0 0
1043585000 0.9627209876533783 -0.0004761043720367375 -0.00031535823640833416 0.0002583383256975293 0 0 0 0
1044576000 0.956611808269163 -0.008170013336999479 8.209442546251517e-05 5.3092216931775236e-05 0 0 0 0
1045566000 0.9591013764173599 -0.007631186990125308 8.695111300686264e-05 5.035871316252728e-05 0 0 0 0
1046557000 0.9601099931330194 -0.006793136243054004 -0.0001441263500084261 0.00012147555469812227 0 0 0 0
1047547000 0.9587491483132923 -0.014927657744306424 8.375424044761715e-05 0.00017139300227178467 0 0 0 0
1048538000 0.9562268513992592 -0.019076749677037468 -0.00012351399735943894 2.2357296857206188e-05 0 0 0 0
1049529000 0.9610386424703155 -0.02422098916361303 -0.0003071433783403122 0.00013818924536534104 0 0 0 0
1050519000 0.9559390819366392 -0.04669802055406121 -1.0474127470638616e-05 1.56067109210702e-05 0 0 0 0
1051510000 0.9553773566326805 -0.03702152407388494 9.724260395495502e-06 0.00029990645197187823 0 0 0 0
1052500000 0.9611457031429228 -0.052257873351630166 -0.0002962667415881055 8.301267760269192e-05 0 0 0 0
1053491000 0.9580916146994467 -0.062465019940939205 -0.00013569741064289696 0.00021711752751645732 0 0 0 0
1054481000 0.9591243713451403 -0.06391561374444822 7.410513196048547e-06 0.0003821449612047094 0 0 0 0
1055472000 0.9535897316687219 -0.058932417606098624 3.6114356370232125e-05 0.00020124431586864507 0 0 0 0
1056463000 0.9578832784109207 -0.07152577442195653 7.983248540497075e-05 0.0002374540804708825 0 0 0 0
1057453000 0.9580552119389236 -0.07665168858701854 -7.387706337922714e-05 0.00022365400048166502 0 0 0 0
1058444000 0.9544034513783434 -0.07127268188776606 2.7042126095272363e-07 0.0002964934377470634 0 0 0 0
1059434000 0.9547345819675629 -0.08149727657342248 -0.0002792010450845187 0.00013322902707840712 0 0 0 0
1060425000 0.9545808084339996 -0.08301904695847928 -0.00016714402881834608 0.0002334348960442093 0 0 0 0
1061415000 0.9501137201224158 -0.09703051310916212 2.9048401702457394e-05 2.4073291304365234e-05 0 0 0 0
1062406000 0.9522629510148145 -0.10799939747435489 -0.0001809634489260222 3.540629973169271e-05 0 0 0 0
1063397000 0.9521009695418465 -0.11293777098814109 -3.0763169828095424e-05 0.00017749829565020324 0 0 0 0
1064387000 0.9499657156202757 -0.11764804849294305 -0.00011544920271506161 0.00015780655932875706 0 0 0 0
1065378000 0.9521063105120452 -0.11532535911646835 -0.00011595051583830608 0.0001539880532458726 0 0 0 0
1066368000 0.9493909854610475 -0.1277416163143298 1.8670632090709885e-05 -6.542239157012815e-06 0 0 0 0
1067359000 0.9474580243431362 -0.13358652342824373 -9.918076999240693e-05 0.00015440982933603322 0 0 0 0
1068350000 0.9443917417336929 -0.13367545393501187 6.021054042724932e-05 8.166201244409097e-05 0 0 0 0
1069340000 0.9424147466497759 -0.12941765020193677 1.412707964840381e-05 8.974731362154878e-05 0 0 0 0
1070331000 0.9462397674115801 -0.1420768763613314 3.5627835581081265e-05 0.00025580623929936003 0 0 0 0
1071321000 0.9381700498871305 -0.15292914098447313 -0.00014686536510309122 0.00032975791685506026 0 0 0 0
1072312000 0.9432338104807068 -0.15403954655555777 -0.00022388293095230844 0.0001808387640728624 0 0 0 0
1073302000 0.9438490271639661 -0.1598479919698252 5.897920972926606e-05 6.992472652868504e-05 0 0 0 0
1074293000 0.9420539900885129 -0.15737039222779936 -0.00028091787432846276 1.3445170857235218e-05 0 0 0 0
1075284000 0.9441557565624821 -0.15855792895015944 0.0001262772721963428 -6.469299917381703e-05 0 0 0 0
1076274000 0.9430976802887073 -0.16537538081486428 -0.00012131760065517072 0.00021742341773759146 0 0 0 0
1077265000 0.9404505408894415 -0.17766762127674088 -0.00018464070753470844 0.000403995004528311 0 0 0 0
1078255000 0.9357427678476635 -0.18474041422773207 -0.00018133383811713434 -7.495551611520319e-05 0 0 0 0
1079246000 0.9337820266896129 -0.19653818915238944 -8.31121575225543e-05 0.0002210818193211396 0 0 0 0
1080236000 0.9374054174503643 -0.1918201020070653 -0.00022287841744344562 0.00024387266113815633 0 0 0 0
1081227000 0.93448335788868 -0.19628607102365078 -0.0001572563538339194 0.00037763977645266435 0 0 0 0
1082218000 0.9354209562922553 -0.20215033477052338 -0.0001411439572037316 0.00041070357208684556 0 0 0 0
1083208000 0.9338614487971096 -0.2102664872941056 1.369455453034148e-05 0.00036976126302535803 0 0 0 0
1084199000 0.9251526514056734 -0.22008847009330068 -4.432603888197657e-05 0.00028788048286974404 0 0 0 0
1085189000 0.9231915592812802 -0.2242337960566334 2.455974171507157e-05 0.0003009411371391508 0 0 0 0
1086180000 0.9244748138485301 -0.22738361152602724 -6.054947468384824e-05 9.930409534876814e-05 0 0 0 0
1087171000 0.9216241535765504 -0.23778119293476377 -6.819656226425078e-05 6.7970256359193e-05 0 0 0 0
1088161000 0.9200747341212281 -0.2337959160752324 -0.00025528932681847383 0.00024466111129066757 0 0 0 0
1089152000 0.9173114088392346 -0.2493104396109286 9.729366625467315e-05 0.0001348478890046746 0 0 0 0
1090142000 0.915963878018698 -0.24856079245629817 1.721694202948434e-05 0.0001558968389233541 0 0 0 0
1091133000 0.917749432155505 -0.2496777987421421 -0.00014691006192458028 0.0003356921918717739 0 0 0 0
1092123000 0.9168941615833814 -0.25632056068565834 0.00011392837485588704 0.0001716991634943355 0 0 0 0
1093114000 0.9154705705102096 -0.26020222999138426 -2.3840481194084628e-05 0.00017365569576259285 0 0 0 0
1094105000 0.9173764049558144 -0.26331697145505095 0.0001973533613891098 0.00035880433197530326 0 0 0 0
1095095000 0.911914249736371 -0.27321118883519585 -6.291805813797509e-05 4.646113832110883e-05 0 0 0 0
1096086000 0.9035500724911051 -0.28389439846221803 -7.431896088116682e-05 0.0004338723571214605 0 0 0 0
1097076000 0.9071121673477791 -0.2816625114073375 0.00010525071017832809 0.00026347560201339085 0 0 0 0
1098067000 0.9027075269760496 -0.284816203035249 -8.165553390617309e-05 0.00012389419307406698 0 0 0 0
1099058000 0.9027296136645145 -0.29193086678537605 0.0003015372313509101 0.0002558164364017414 0 0 0 0
1100049000 0.9009893228934315 -0.2983721644476613 0.00021837391335007673 7.226354385829111e-05 0 0 0 0
1101039000 0.9012526060026078 -0.2992994514956441 0.00012377819142795143 0.00027043622407531205 0 0 0 0
1102030000 0.8971002687627312 -0.3080710846134595 0.0001419134129332998 0.00010236639544616688 0 0 0 0
1103020000 0.8936549215426954 -0.3190826879132778 6.731126886222096e-05 0.0002158643485485539 0 0 0 0
1104011000 0.8904133119689507 -0.321872688131494 0.0003533349396742755 0.0002879713665876317 0 0 0 0
1105001000 0.889183632576437 -0.3306817870503283 4.883057249959483e-05 0.00014779087794239605 0 0 0 0
1105992000 0.8934857610768789 -0.31623760030968023 -1.928841153594796e-05 0.0002583722819715899 0 0 0 0
1106983000 0.8855270692263439 -0.3356603107355174 2.346247671455822e-05 0.00025995641822563467 0 0 0 0
1107973000 0.8838773245095162 -0.3400086508477764 0.00011897817936591653 0.00022917001963329494 0 0 0 0
1108964000 0.8874949139521996 -0.3372434325018853 0.00013300384080858126 -0.00010006735271326135 0 0 0 0
1109954000 0.8772468121152273 -0.3488847568149394 4.3792485476689526e-05 7.634651093425746e-05 0 0 0 0
1110945000 0.8797800553210889 -0.34864061195537727 0.00012499223135840573 0.0002728999108891829 0 0 0 0
1111936000 0.8764890840711964 -0.3521627190849321 0.00032079523734320506 0.00024001190746714024 0 0 0 0
1112926000 0.8728230681967514 -0.3609864408114935 8.975786333529548e-05 5.935618463658136e-05 0 0 0 0
1113917000 0.8672774864478425 -0.37439426555326366 0.00018611196372918465 0.00013176726340072002 0 0 0 0
1114907000 0.8692754326103633 -0.3745867204845696 0.00022695763863338483 0.0001341195716614102 0 0 0 0
1115898000 0.8673533708234651 -0.376179656221261 0.00038869663860878196 4.74432341931156e-05 0 0 0 0
1116889000 0.8617370548378722 -0.38638133196992097 -3.9600527807762936e-05 0.00016998937758592412 0 0 0 0
1117879000 0.865072329195948 -0.37856296638246373 7.872926092690313e-05 0.0004105521046790806 0 0 0 0
1118870000 0.8612895392355282 -0.399653356759126 6.163301728591387e-05 0.00017702876575014404 0 0 0 0
1119860000 0.8520529199021744 -0.39874031272283456 0.00022105802246844152 0.0001834368996435236 0 0 0 0
1120851000 0.8446370339011328 -0.4067817140996268 -4.280357576732608e-06 0.00013564436106757477 0 0 0 0
1121841000 0.8488123316825008 -0.4078008535393391 0.0002457628768410455 -7.863950859039594e-05 0 0 0 0
1122832000 0.8427489083015509 -0.4193186747040908 -0.00013085092878688132 -3.693670782987073e-05 0 0 0 0
1123823000 0.8401407966751949 -0.4156430379677037 0.00037191201579033043 0.0002137621512729543 0 0 0 0
1124813000 0.8337824268690212 -0.43283101341183167 6.508873395034825e-05 0.00027606069649442014 0 0 0 0
1125804000 0.8268323688334933 -0.44080053398609664 0.00037574403555720325 0.000268094152248952 0 0 0 0
1126794000 0.8313073243516038 -0.43798819606514383 9.15218650074555e-05 7.375887109758016e-05 0 0 0 0
1127785000 0.8333076151531481 -0.43710257375203104 0.0001381266202639803 0.00013448478062691408 0 0 0 0
1128776000 0.8316577863274048 -0.43934764022540834 0.00028959655449808507 -5.0647276872991464e-05 0 0 0 0
1129766000 0.8214424353258125 -0.45467069473484045 0.00011438646890085038 1.1150344488736973e-05 0 0 0 0
1130757000 0.8169682788650608 -0.45759892296677906 5.198966218014439e-05 0.0002490773103306834 0 0 0 0
1131747000 0.8193970898845438 -0.46157639309340004 0.00015663847403312887 0.0002779631336086912 0 0 0 0
1132738000 0.8119624553954946 -0.46214155997488904 0.00010368444168028309 5.253428493680185e-05 0 0 0 0
1133729000 0.813133559180755 -0.47097997017829485 0.0002857281715586621 3.310108812867403e-05 0 0 0 0
1134719000 0.8161017678136431 -0.4717826337104923 0.00034503174371730875 0.00015406036299804934 0 0 0 0
1135710000 0.8130610263090222 -0.4718155478718436 0.00042913559933972003 0.00014832455612708524 0 0 0 0
1136700000 0.8042297260563902 -0.4892684358159758 0.00012636308267007944 0.00014638685069697782 0 0 0 0
1137691000 0.8025103495856944 -0.49274933306794 3.0167785648023988e-05 0.00026251996946245363 0 0 0 0
1138682000 0.8027716972486328 -0.4924495745784869 -1.5555929679249927e-05 0.00030619978379627403 0 0 0 0
1139672000 0.7979019227097374 -0.49329966410282977 0.00023601163508748063 0.00028128889456619893 0 0 0 0
1140663000 0.795587282217872 -0.5126259941666642 3.361183314648515e-05 0.0005733435256012618 0 0 0 0
1141653000 0.7934964687643746 -0.5120601856429452 0.00030347535734702035 0.0003637660564794511 0 0 0 0
1142644000 0.7869962755831518 -0.5003299870126884 0.00023094526576698834 0.0004146412077376575 0 0 0 0
1143634000 0.7764797912569807 -0.5243712061041021 5.789060064024196e-05 0.00036576176918019386 0 0 0 0
1144625000 0.7895000048913424 -0.5136878830386558 -5.7968835835526264e-05 0.00017774383763259795 0 0 0 0
1145616000 0.7750356549387087 -0.53022624108933 0.00019219706593432068 -6.734747926362673e-05 0 0 0 0
1146606000 0.7836480471794403 -0.5269675371413733 4.6736401520151676e-05 0.0001379020147770003 0 0 0 0
1147597000 0.7809258412549304 -0.5225827611973118 0.00021458882090577395 0.0003016771491195141 0 0 0 0
1148587000 0.7744182851901064 -0.5306808414658911 0.00020627738423446856 0.00041402207087964926 0 0 0 0
1149578000 0.757738897111891 -0.5463780303446019 0.00017392885234056383 0.00030357950002592014 0 0 0 0
1150569000 0.76249892979844 -0.5512781982810484 -0.00012002808036355652 0.0001958907719495958 0 0 0 0
1151559000 0.7650367533271086 -0.5524253244102673 0.00015248768086887742 0.00041461968381921574 0 0 0 0
1152550000 0.7528268145793704 -0.5627872723354183 6.951695250080252e-05 0.00023110314544882787 0 0 0 0
1153540000 0.757708803280678 -0.5620941362138678 8.77148812783931e-05 0.00022474093884864837 0 0 0 0
1154531000 0.7470481751821287 -0.562235666543105 0.0001928861071670352 0.00022977845716295255 0 0 0 0
1155522000 0.7426800487330512 -0.5656043901576179 -6.827012603217367e-05 0.000293295788817677 0 0 0 0
1156512000 0.7454549771097722 -0.5727730428703269 0.00023061847246364664 0.00010674091249280865 0 0 0 0
1157503000 0.7429499420614318 -0.5761044362391025 0.00020219020906354026 0.00032346761923268685 0 0 0 0
1158493000 0.7328246418859097 -0.5823539719811945 0.0001982897652938385 0.00021316564385767157 0 0 0 0
1159484000 0.7379885196608756 -0.5802551911900485 -9.826781841765499e-06 0.0001891180499763978 0 0 0 0
1160474000 0.7340287559914404 -0.583746835214386 0.0002957429230497143 0.00037205555082545343 0 0 0 0
1161465000 0.7323297065159597 -0.5906558952724777 0.00020350229189664075 0.0003473958288419825 0 0 0 0
1162456000 0.7269840094417449 -0.5951109167132843 0.00014349729935941478 0.0001876820489223333 0 0 0 0
1163446000 0.7101881349908177 -0.6104963642256427 0.00023768034538455265 0.0004077308751608987 0 0 0 0
1164437000 0.7104807745021435 -0.6082867529987404 0.00019992852048314688 0.00014764278463302226 0 0 0 0
1165427000 0.7147005928094515 -0.6071311579679682 0.00021843577748322917 0.00029985494555320215 0 0 0 0
1166418000 0.7120173550244069 -0.6172700584786164 0.0002681662766120456 0.0001626309774143901 0 0 0 0
1167409000 0.7102963668571375 -0.6112898609991925 0.000399818492708507 8.753339170172848e-05 0 0 0 0
1168399000 0.6906897354207083 -0.625092069154654 0.00011180353379282561 0.00031995149217598585 0 0 0 0
1169390000 0.6981422528992882 -0.6250872345586281 4.46587812596822e-06 0.00033126170402889883 0 0 0 0
1170380000 0.6988309601043736 -0.6283735004081782 0.00019065226002894814 0.0003818273333326683 0 0 0 0
1171371000 0.6987973598936625 -0.6204674736724676 0.00018321509151650233 4.3633049082338014e-05 0 0 0 0
1172362000 0.6922620703212932 -0.6359368478253721 0.00029487208301949677 0.00039357408340772175 0 0 0 0
1173352000 0.678795629089975 -0.6328237858345993 5.997979569957062e-05 0.00039651843675307256 0 0 0 0
1174343000 0.6708504131177905 -0.6461842549630925 -0.00010691972252874508 0.00029784891293822965 0 0 0 0
1175333000 0.6765588413517603 -0.6419515134469646 0.00028274989391044713 0.00029270698411876196 0 0 0 0
1176324000 0.6730568212127653 -0.6486366533194469 0.00022987498188720384 0.0001264490570347907 0 0 0 0
1177315000 0.6611337989674805 -0.6605488320602448 0.00030950856140173007 0.0002708108922803539 0 0 0 0
1178305000 0.6669527195408108 -0.6587308216961647 0.0002652922632069389 0.0004152821994863427 0 0 0 0
1179296000 0.6607917501096063 -0.6562603401003193 -3.6792653908693235e-05 0.00015469310326808274 0 0 0 0
1180286000 0.6474733367051728 -0.6669006434888076 9.166101939171629e-05 0.00032375392049887713 0 0 0 0
1181277000 0.6513935306532542 -0.665799373510471 0.0005319695812192994 0.00027596130037236107 0 0 0 0
1182267000 0.6444012422282092 -0.6729224165906443 0.00033629706556946327 0.00042836651808912733 0 0 0 0
1183258000 0.6346205152423228 -0.6760334073128246 -0.00015043058927097027 0.0002371693651365157 0 0 0 0
1184249000 0.6403629804188256 -0.683809991036477 0.00015857580891249798 0.00015802450945035418 0 0 0 0
1185239000 0.6310551324776258 -0.6824615109767102 0.0003820470730453624 0.0003564341848603166 0 0 0 0
1186230000 0.6248081857216127 -0.685200423529602 0.0002994136685781913 0.0002053390521291317 0 0 0 0
1187220000 0.6193193609429701 -0.690609964340295 2.1178543722883882e-05 0.0001902504970428918 0 0 0 0
1188211000 0.6183643939824927 -0.6917731077721762 0.0001997941108972958 9.400951179392507e-05 0 0 0 0
