# HZ S RI R 50
1000000000 0.6303154063464722 -0.4361598848449189 0.0011830451149149872 -4.9933254852457305e-05 0 0 0 0
1000990000 0.6268034858399172 -0.4400664362907882 0.0013521388789377985 -0.00022443787880300023 0 0 0 0
1001981000 0.6212527887115061 -0.4414199931191946 0.0012941096037811504 -0.0001227104775972376 0 0 0 0
1002971000 0.6133595245639641 -0.45133902321122826 0.0012178942517663232 -0.00010408763671904033 0 0 0 0
1003962000 0.6207562491798463 -0.4462824387781138 0.0012521565483544594 -0.00026033760546378124 0 0 0 0
1004952000 0.6121224009426208 -0.4538146189283088 0.0009691759845408626 -0.00014316981463180248 0 0 0 0
1005943000 0.6040008297117391 -0.46428334266597227 0.0012755347180463648 -9.236816423996112e-05 0 0 0 0
1006934000 0.6027621128678097 -0.46393952673668704 0.0010635406007071782 -8.370920807045673e-05 0 0 0 0
1007924000 0.5992833848960737 -0.46514420940316265 0.00114693169207288 -0.00032435661215476393 0 0 0 0
1008915000 0.593946617629927 -0.47338890752416835 0.0010998420439040024 2.8647433691201907e-05 0 0 0 0
1009905000 0.5880625386538519 -0.4767959029646624 0.0011362362254055624 -3.936136703125861e-05 0 0 0 0
1010896000 0.591531017269832 -0.4747631923470808 0.0009671916237757837 -0.0002674680484188154 0 0 0 0
1011886000 0.5878984172790698 -0.4820148591182362 0.0011231032098372605 -0.000260202207756847 0 0 0 0
1012877000 0.5811794562103904 -0.48530883203655906 0.0012325617641404457 -6.39720238857016e-05 0 0 0 0
1013868000 0.5813237954822413 -0.488954565935803 0.0011738498527521046 -0.0001192003298352199 0 0 0 0
1014858000 0.5749135198849169 -0.4954860136512823 0.001070145226779968 -0.00022804748648236196 0 0 0 0
1015849000 0.5707814259166051 -0.4997483829575162 0.0013304861154375955 -0.0004045761598582852 0 0 0 0
1016839000 0.5669655951124493 -0.5003077990241759 0.0009840923887546075 2.1670382392625137e-05 0 0 0 0
1017830000 0.5572245933178704 -0.5122867274172285 0.001130844311401113 -0.0003012668854624327 0 0 0 0
1018821000 0.552953950277265 -0.5098654259503794 0.0012223915628758156 -4.374603478207485e-05 0 0 0 0
1019811000 0.5556121136029138 -0.5142200001780853 0.001054665757306758 -0.00020199273841168928 0 0 0 0
1020802000 0.5503768225422281 -0.5102044868296284 0.001154814176813057 0.0001260290424028853 0 0 0 0
1021792000 0.5410378697831252 -0.5283043764240307 0.0010768073137477634 -0.0004298197167233727 0 0 0 0
1022783000 0.5446669976833564 -0.5208162915490857 0.001286061504320799 -0.000354238138851088 0 0 0 0
1023773000 0.5432041938732268 -0.5258767122287893 0.001191933031818072 -0.00021171777910773703 0 0 0 0
1024764000 0.529574381735952 -0.5312808783314547 0.00135010649582679 -0.00040850930135428494 0 0 0 0
1025755000 0.531629399678231 -0.5367834187526068 0.0011748833793842836 -0.0001639682610739621 0 0 0 0
1026745000 0.525717911521899 -0.5348847684615997 0.0011515492697459972 -0.00023219317395824405 0 0 0 0
1027736000 0.5264561148784368 -0.5423037253240957 0.0010266052529933312 -0.00024384044748323438 0 0 0 0
1028726000 0.5172878775870796 -0.5500811312981375 0.000868118914168692 -0.0003136554417927183 0 0 0 0
1029717000 0.5156741460344814 -0.5446024643449763 0.0011761691441616526 -0.00017748982333740164 0 0 0 0
1030707000 0.507380382704669 -0.5460906360011847 0.001102149807452273 -0.00016209281599103743 0 0 0 0
1031698000 0.5027802360664119 -0.5583979626483005 0.0013229489876063012 -0.00033947325649512616 0 0 0 0
1032689000 0.5034760563756427 -0.5612608188062502 0.0011278070913080323 -0.00039831520778412183 0 0 0 0
1033679000 0.504841297286486 -0.5627874383604502 0.0010540328080251048 -0.000131856672224526 0 0 0 0
1034670000 0.49850460853296646 -0.5622677100556933 0.0008683962503394202 -0.00028604202392588305 0 0 0 0
1035660000 0.4951983275425121 -0.5664656112726705 0.0011081516993847967 -0.0001764546133578618 0 0 0 0
1036651000 0.48599229382009335 -0.5671076159600255 0.0014070236634825845 -0.0002338901494590945 0 0 0 0
1037642000 0.48000000614968213 -0.5718540134423671 0.001055312611302439 -0.00032324289624774264 0 0 0 0
1038632000 0.4818013755750017 -0.5709730719268462 0.0011546451274420284 -1.4165447247348976e-06 0 0 0 0
1039623000 0.4745513191663467 -0.5777282080758779 0.0010258510498228517 -0.00027460928982230996 0 0 0 0
1040613000 0.4752897945759558 -0.575282434787247 0.0011317266211194857 -0.00016676181239039394 0 0 0 0
1041604000 0.4705628450232885 -0.5816350519843466 0.0013056424016956766 -0.00039176762524611503 0 0 0 0
1042594000 0.46780222015232203 -0.591602143450411 0.0012793526228573157 -0.00040831441231505396 0 0 0 0
1043585000 0.4653862030654633 -0.5869498718393319 0.0011538601742353456 -0.0005596531603818645 0 0 0 0
1044576000 0.4533359846300801 -0.5941190508987314 0.0013275963062065804 -0.00038606972372320014 0 0 0 0
1045566000 0.4487064702835102 -0.5945125123846476 0.001305878112049136 -0.00044955140888585434 0 0 0 0
1046557000 0.4456251915095148 -0.5992194238119533 0.0013106720760332348 -0.0004630814902459803 0 0 0 0
1047547000 0.44604742994962643 -0.5961336160590146 0.0010174422886620532 -0.0003433931476460824 0 0 0 0
1048538000 0.4431609437849896 -0.6024322086507004 0.0010026552814654417 -0.000561063516505605 0 0 0 0
1049529000 0.43818364506342183 -0.6109359981387537 0.0010728546358143062 -0.00042811220195428893 0 0 0 0
1050519000 0.42481297701815063 -0.6118751682360531 0.0012930200973689052 -0.0004762301387290023 0 0 0 0
1051510000 0.4267370782784744 -0.6103738955555161 0.0013780606870686003 -0.0003403820515014912 0 0 0 0
1052500000 0.42755352329990676 -0.6140120270370215 0.0009465559987325558 -0.00033446918048388565 0 0 0 0
1053491000 0.4138188395112949 -0.6197144866710995 0.0012758381182663683 -0.000550974890218533 0 0 0 0
1054481000 0.405749509804376 -0.625347840991469 0.0011061098173789899 -0.0002729540501398245 0 0 0 0
1055472000 0.40685523851011324 -0.6267449212937424 0.0013716583731683465 -0.0005416411213888664 0 0 0 0
1056463000 0.40419936928260564 -0.6272086181851048 0.0013559128839803177 -0.0006272446019161112 0 0 0 0
1057453000 0.3910282229217709 -0.6328890926643613 0.0012317382688379831 -0.0004636510229615304 0 0 0 0
1058444000 0.39361782097702047 -0.631287891894196 0.0011562830560127757 -0.00042136246370137775 0 0 0 0
1059434000 0.3935654490062459 -0.6321026908938356 0.0010478930915484538 -0.0005092197084311924 0 0 0 0
1060425000 0.385434500183981 -0.6375124985107202 0.0012084658197289463 -0.0005527103463085344 0 0 0 0
1061415000 0.3820740152708761 -0.6400773009349775 0.0012662839755856066 -0.0004546938064265896 0 0 0 0
1062406000 0.3697092969075228 -0.6406434991914091 0.0010275801631016933 -0.0004254269926887992 0 0 0 0
1063397000 0.3760382550395651 -0.6421765190923275 0.0009189598844987991 -0.0006825902390220738 0 0 0 0
1064387000 0.36480630304897926 -0.6475499525043182 0.0009657142495176549 -0.00042626388177148625 0 0 0 0
1065378000 0.36723650619957887 -0.6464139783249491 0.0013521905714419368 -0.0007267895825118448 0 0 0 0
1066368000 0.36422047228304877 -0.6457738185003519 0.0012697680508254928 -0.0005677854886905698 0 0 0 0
1067359000 0.3576378538827711 -0.64967898696681 0.0012634140219361248 -0.0007052294341107654 0 0 0 0
1068350000 0.3508067941309822 -0.6523028759345163 0.0012971020163417015 -0.0007874064891813434 0 0 0 0
1069340000 0.34739621506640184 -0.6508852527940889 0.0013003980177911018 -0.000781977089688559 0 0 0 0
1070331000 0.3461619013559848 -0.6540198040161544 0.0014517646930876703 -0.0005649683304428146 0 0 0 0
1071321000 0.3338806449503388 -0.6569034560058024 0.0011109732155223735 -0.0005569222696832589 0 0 0 0
1072312000 0.32825675282775013 -0.6612706872031057 0.001105638154037871 -0.0007260361830428743 0 0 0 0
1073302000 0.323828996897076 -0.6675112619744277 0.0011407560439412965 -0.00041275118158077303 0 0 0 0
1074293000 0.3274471389099779 -0.6645677989258422 0.0009382888668105259 -0.000435521448327029 0 0 0 0
1075284000 0.32433238428376115 -0.6643418749395827 0.0012450598008088396 -0.0007289743469434798 0 0 0 0
1076274000 0.3137169703944812 -0.6683643493846447 0.0009991350450724993 -0.0005205491528605414 0 0 0 0
1077265000 0.3101466738337426 -0.6704208026743065 0.0009116213975887872 -0.000544178345237012 0 0 0 0
1078255000 0.29679655093242413 -0.6747793615254192 0.001011019510616382 -0.0009070502106531423 0 0 0 0
1079246000 0.29842765725879705 -0.6742543901371847 0.0008918308207765221 -0.0005579485704698532 0 0 0 0
1080236000 0.2964376001584737 -0.6752482880193995 0.0009167329514439871 -0.0007526067212726242 0 0 0 0
1081227000 0.2885108675105525 -0.6760922125143282 0.0012521315606115761 -0.0006698246322879254 0 0 0 0
1082218000 0.28475230958224357 -0.678211657989079 0.000835359056244502 -0.0006861143658153482 0 0 0 0
1083208000 0.27326048633361943 -0.682125153989275 0.0011220167576058357 -0.0008438494993621001 0 0 0 0
1084199000 0.2704319902764395 -0.6770943169189917 0.001211344654891261 -0.0008983388801683107 0 0 0 0
1085189000 0.2614543931610363 -0.6768087757912039 0.0011474649006718715 -0.000754926794506687 0 0 0 0
1086180000 0.2600067547480872 -0.6811771472439856 0.0010283879781317756 -0.0009477699326529986 0 0 0 0
1087171000 0.2580778655573714 -0.6776179457758221 0.0009494308369265005 -0.0008116144542995424 0 0 0 0
1088161000 0.25061517406608524 -0.6820011413832758 0.0009198216306839092 -0.0007116489045842043 0 0 0 0
1089152000 0.25012213294136504 -0.6874190892365603 0.0010532854289928605 -0.0008811914051588482 0 0 0 0
1090142000 0.23615235484084338 -0.6822366133407693 0.0009556866817027617 -0.0010489035951471543 0 0 0 0
1091133000 0.24504596089221628 -0.6848112461369866 0.0010289934991273716 -0.0007564604588544102 0 0 0 0
1092123000 0.22918265524447742 -0.689743377818211 0.0011024160534773085 -0.0008759786736513937 0 0 0 0
1093114000 0.23170559097360038 -0.6891972371026438 0.0010436630819299448 -0.0007840026481763769 0 0 0 0
1094105000 0.2305581578635071 -0.6920285541151628 0.0010692494858514719 -0.0007944964384265594 0 0 0 0
1095095000 0.21816146956322502 -0.6929674671682544 0.0011080740248437782 -0.000960827749294725 0 0 0 0
1096086000 0.21672919028877985 -0.6871763138063308 0.0010146217361783993 -0.0008586974921690945 0 0 0 0
1097076000 0.21124814876325015 -0.6944454278652884 0.0009695611219411452 -0.0009079414965180516 0 0 0 0
1098067000 0.19802070075143427 -0.6910398089415417 0.000971531038213426 -0.0010224414667814056 0 0 0 0
1099058000 0.2062732669571468 -0.6940324302832808 0.0011001050758872376 -0.0009185990591984078 0 0 0 0
1100049000 0.18838510054550311 -0.6952887619762398 0.001031380654143543 -0.0009248046756486766 0 0 0 0
1101039000 0.1926953105883848 -0.6967449095711942 0.0008853002847544272 -0.0009637563547782495 0 0 0 0
1102030000 0.1846909669182684 -0.6945197595701795 0.0009046572570330485 -0.000991307531545645 0 0 0 0
1103020000 0.17360724470271513 -0.6972891993422543 0.0009500169558999302 -0.0011418527072813202 0 0 0 0
1104011000 0.17219517209518073 -0.6957894137327331 0.0010980133325979777 -0.0008435496563192007 0 0 0 0
1105001000 0.15821406133588606 -0.7045928199790763 0.0008522251817045385 -0.0009175953924644296 0 0 0 0
1105992000 0.15738917750914228 -0.7012884673702023 0.0008816446111585942 -0.0012157187448715752 0 0 0 0
1106983000 0.1605333060059733 -0.7008500867434396 0.0008005783787990782 -0.0009729870588990739 0 0 0 0
1107973000 0.15437416596614945 -0.7007653235847698 0.00082225859783059 -0.0009625387766957826 0 0 0 0
1108964000 0.1414836916156192 -0.7029881620527255 0.0009717444554523193 -0.0012150370407537712 0 0 0 0
1109954000 0.14763220524996337 -0.7043914210810629 0.0008152530395834855 -0.0013039526053146785 0 0 0 0
1110945000 0.14557455693775734 -0.7011090162025279 0.0009457042413598957 -0.001046477253280294 0 0 0 0
1111936000 0.14158004537519675 -0.7047114169834513 0.0010650503918455943 -0.0009039133604332495 0 0 0 0
1112926000 0.11842305783803084 -0.7060547247146092 0.0005674499942332732 -0.0009139822429369745 0 0 0 0
1113917000 0.1162628232353053 -0.7053876942709374 0.0010289847052282499 -0.0009240169212056008 0 0 0 0
1114907000 0.11475109028452103 -0.709128296461035 0.0009328935981789178 -0.0011838758868022905 0 0 0 0
1115898000 0.11116630122410355 -0.7035542659773226 0.0010134751892867575 -0.0010687735584705973 0 0 0 0
1116889000 0.09760364705394589 -0.7052766880899475 0.0006790725353393003 -0.000996285071664398 0 0 0 0
1117879000 0.09587674652375293 -0.706539621585901 0.0009661320345621409 -0.0011850737719463437 0 0 0 0
1118870000 0.09215298048853245 -0.7080543795735654 0.0007844869367517055 -0.0011040440030682108 0 0 0 0
1119860000 0.09573595262094829 -0.7043196415441113 0.000878760054014699 -0.0010138380926445337 0 0 0 0
1120851000 0.08401611023200993 -0.7055207010156674 0.0007596979350391773 -0.001125645672997253 0 0 0 0
1121841000 0.07378574782384029 -0.7046785274181292 0.0009685506095278262 -0.0012824147297843683 0 0 0 0
1122832000 0.07702248921312001 -0.7043929109882981 0.0006856706991489734 -0.0010741692792028022 0 0 0 0
1123823000 0.0746685715909711 -0.7082686416591336 0.0010717724205891225 -0.0009392402092667854 0 0 0 0
1124813000 0.0594288699259649 -0.7148382790620622 0.000801377685007353 -0.0010264571276584996 0 0 0 0
1125804000 0.059817779652857506 -0.7036247059205508 0.0007497583306333966 -0.0011118207051560602 0 0 0 0
1126794000 0.05360724446932261 -0.7092516144944724 0.0007961514662472282 -0.00106842319617202 0 0 0 0
1127785000 0.047215858464106586 -0.7076255874516846 0.0008830013826032678 -0.0012066790831480898 0 0 0 0
1128776000 0.03510050840769889 -0.7112253411766893 0.0011744287742702852 -0.0011794872692505506 0 0 0 0
1129766000 0.0415804446185699 -0.709282192579439 0.0008820783299990696 -0.0009505559094657151 0 0 0 0
1130757000 0.03216980451961144 -0.7096417595706982 0.0008643331047312946 -0.0009313124057480965 0 0 0 0
1131747000 0.026437414741790188 -0.7115093528052022 0.0007459106116158072 -0.0010466675718682988 0 0 0 0
1132738000 0.02565498491317202 -0.7063171431139942 0.0008040052916885888 -0.0008657927509520849 0 0 0 0
1133729000 0.010887256779976677 -0.7107059384473826 0.0008765794891645964 -0.0011228071146032006 0 0 0 0
1134719000 0.009360118618595618 -0.7093820455425248 0.0008586946362072353 -0.0009613464839446028 0 0 0 0
1135710000 0.0021377062614693935 -0.7158643245076817 0.0011472455529706771 -0.0011293838426710424 0 0 0 0
1136700000 0.002015214910823625 -0.7165622392109565 0.0010348543556051811 -0.0012698697371031796 0 0 0 0
1137691000 -0.0031173186857564182 -0.7116854243559975 0.0008911259124693278 -0.0010562737351800906 0 0 0 0
1138682000 -0.00021319466995742408 -0.7126629894506259 0.0009336692640207678 -0.0008007406945585919 0 0 0 0
1139672000 -0.007611647676465801 -0.7108296527038273 0.0010587091658428656 -0.0009225541596513969 0 0 0 0
1140663000 -0.013050268983130912 -0.7126626826079628 0.0008962849112949013 -0.0010084234918250074 0 0 0 0
1141653000 -0.02252086775481487 -0.7110734284138948 0.0010413157619101113 -0.0010068366413105848 0 0 0 0
1142644000 -0.02264632490339878 -0.7035598821637639 0.0009412967553444076 -0.000866020271742315 0 0 0 0
1143634000 -0.03292373289190873 -0.707456772178884 0.0009658315155049052 -0.0008948849861342722 0 0 0 0
1144625000 -0.036176594484374824 -0.7165977794071875 0.0006448139131777313 -0.0012465413504650434 0 0 0 0
1145616000 -0.04206974979989586 -0.708871249096764 0.001156535709585516 -0.0013425236592311135 0 0 0 0
1146606000 -0.04504002004464338 -0.70584709700037 0.0008448516323587503 -0.0013536535984614406 0 0 0 0
1147597000 -0.054748691819025475 -0.706739759537129 0.0009534787802659264 -0.0012448078594142343 0 0 0 0
1148587000 -0.05869673055301785 -0.714020183961103 0.0008832809333180253 -0.0012086982536417064 0 0 0 0
1149578000 -0.0667028640827156 -0.6992990920681734 0.0009379616045422517 -0.0012038597495695905 0 0 0 0
1150569000 -0.06572549650268258 -0.7063392680666426 0.0006562484181703765 -0.0011200645469473633 0 0 0 0
1151559000 -0.06739293580453802 -0.7069664527975493 0.0007302200055142134 -0.0011548113007734096 0 0 0 0
1152550000 -0.08114228365498173 -0.7060222318777962 0.0009647876700359142 -0.001146710643688002 0 0 0 0
1153540000 -0.07830133403722608 -0.7078819719553793 0.000959012139707868 -0.0013786657136123871 0 0 0 0
1154531000 -0.08973475795744155 -0.699803857247883 0.0009246221638678408 -0.0013403897484308251 0 0 0 0
1155522000 -0.09682232359376267 -0.7040061558815056 0.0007684179328305473 -0.0013728558738413561 0 0 0 0
1156512000 -0.09434866412905965 -0.7062291659280366 0.0009476958443948774 -0.0013460552655724088 0 0 0 0
1157503000 -0.10727076855806077 -0.7016613376497461 0.000788669850332649 -0.0014222125247977508 0 0 0 0
1158493000 -0.10110736744305047 -0.6987129933305968 0.0007851123023427903 -0.0012963388548882229 0 0 0 0
1159484000 -0.11053543939794595 -0.7019415545678944 0.0007209074462528558 -0.0012873058665063446 0 0 0 0
1160474000 -0.11418278154279637 -0.6997485170778421 0.000908453211888825 -0.0011126631065420233 0 0 0 0
1161465000 -0.12530092326309897 -0.6970953716224384 0.0008647638134579356 -0.0012046911698071034 0 0 0 0
1162456000 -0.12377870492433041 -0.6977943349786168 0.0006122906874296565 -0.0013242617022121597 0 0 0 0
1163446000 -0.13817587713849316 -0.6914030593932079 0.0008761587835439794 -0.0012987214924755836 0 0 0 0
1164437000 -0.140403307184678 -0.6864059890560898 0.0007151730731158761 -0.0013687658230335472 0 0 0 0
1165427000 -0.14237078924450447 -0.6910314575239167 0.0007127939340062172 -0.0012686541514623183 0 0 0 0
1166418000 -0.15028421117826218 -0.6949604239978682 0.0007384174044519636 -0.0014850545739713828 0 0 0 0
1167409000 -0.15134949075197246 -0.6901728114845269 0.0006863938443625539 -0.0013014056638798496 0 0 0 0
1168399000 -0.15573380884006027 -0.6828455885735509 0.0006624453995083924 -0.001410368194080074 0 0 0 0
1169390000 -0.1597824959591971 -0.6842074128994635 0.0006155399473811581 -0.0015321026275813196 0 0 0 0
1170380000 -0.16655096873192124 -0.6850727638392912 0.0006561348337659658 -0.0016229864165035934 0 0 0 0
1171371000 -0.166173594854647 -0.6884585032532831 0.0005789531966238384 -0.0014079801373207822 0 0 0 0
1172362000 -0.17468174291408647 -0.6862396256370074 0.0005672187070239079 -0.0014084299807717543 0 0 0 0
1173352000 -0.1740975621811396 -0.6784858137624844 0.0005779688888883837 -0.0011700376811389222 0 0 0 0
1174343000 -0.18100435322979386 -0.6731619343137063 0.0003912794005549191 -0.0015149382868109946 0 0 0 0
1175333000 -0.186394860479422 -0.6751169770245419 0.0006494350918080923 -0.0014344502493712746 0 0 0 0
1176324000 -0.19561274155645728 -0.6765622014481262 0.00034359652439775286 -0.0013709307624268957 0 0 0 0
1177315000 -0.19902717785744367 -0.6734227510517843 0.0005358248965210108 -0.0013879801509751476 0 0 0 0
1178305000 -0.20514693615444493 -0.6747991593096864 0.0005042744216272102 -0.001546529335067426 0 0 0 0
1179296000 -0.20318849856817534 -0.6725091568797161 0.00036073374567251225 -0.0014010603466322056 0 0 0 0
1180286000 -0.21592123246026212 -0.6619994989426473 0.0004842379872540141 -0.001438297296720566 0 0 0 0
1181277000 -0.21665006583017238 -0.672079041961119 0.00046732407436842036 -0.0015997560447277273 0 0 0 0
1182267000 -0.21762921390274353 -0.6668132400857655 0.0003998059534467631 -0.0012760933249110248 0 0 0 0
1183258000 -0.22312117682292884 -0.6621279516869816 0.0001861643550721311 -0.0016006158410150967 0 0 0 0
1184249000 -0.24376446346467484 -0.6569712883796183 0.00032140347964805126 -0.0015440304197746441 0 0 0 0
1185239000 -0.23387698558195316 -0.6586105205440755 0.0005240469124336588 -0.0015239115789115795 0 0 0 0
1186230000 -0.2380121466972278 -0.6561838158772971 0.00042155797725460344 -0.0012736991185738344 0 0 0 0
1187220000 -0.23984707067913152 -0.6541756775563975 0.00016773861972019003 -0.0016192541319072777 0 0 0 0
