# HZ S RI R 50
1000000000 0.6263895863891515 -0.4216389932596377 0.002034066918362153 -0.0007367723593842615 0 0 0 0
1000990000 0.6147763638304374 -0.4318178339001017 0.002179353666166895 -0.0007482689575815947 0 0 0 0
1001981000 0.6141295011964489 -0.4325913472919534 0.002116458862490878 -0.0005083812689785132 0 0 0 0
1002971000 0.6094692558927678 -0.4373448466802493 0.0019065497402626374 -0.0007011816786287266 0 0 0 0
1003962000 0.6176631548190501 -0.4295595502200494 0.0021386772930406185 -0.0007161278664231919 0 0 0 0
1004952000 0.6103590283721442 -0.44099554318232287 0.0016930739199030776 -0.0007151095311502646 0 0 0 0
1005943000 0.6039640286915903 -0.44696699691301095 0.001941902495704145 -0.000597873163717029 0 0 0 0
1006934000 0.6024911247617178 -0.4470760688367829 0.0019040352762003643 -0.0004819319907073985 0 0 0 0
1007924000 0.5967694488486949 -0.450506255946721 0.002017883727418453 -0.0008902421230796888 0 0 0 0
1008915000 0.5890519023497416 -0.4601031289227058 0.001869522555294705 -0.0005070416972503202 0 0 0 0
1009905000 0.5862302711459049 -0.4616548321362436 0.001829572751741519 -0.0006541002419747564 0 0 0 0
1010896000 0.5849387157553592 -0.46371186440302103 0.0019092497249763023 -0.0008353478325754359 0 0 0 0
1011886000 0.5861843780938357 -0.4670930998145974 0.0022343969698523066 -0.0008367413915394361 0 0 0 0
1012877000 0.5742024983944131 -0.4740931247287761 0.0021170823555994164 -0.000433746404114027 0 0 0 0
1013868000 0.5735105074017647 -0.47928553764985193 0.001909755635408198 -0.0007851222486706779 0 0 0 0
1014858000 0.5752602571764026 -0.4771419665705745 0.001929265545505065 -0.0008355023091160441 0 0 0 0
1015849000 0.5722722348706805 -0.4799112050149184 0.002057349516336501 -0.0010325252222889462 0 0 0 0
1016839000 0.5590947349533077 -0.48759345099931656 0.001945039676119235 -0.0009046033966804755 0 0 0 0
1017830000 0.561307468813396 -0.4920480648065562 0.002122439312869884 -0.0008807269844584102 0 0 0 0
1018821000 0.5462415760976287 -0.49857611121316736 0.0017425524137415422 -0.0005874536441400558 0 0 0 0
1019811000 0.5569363233637183 -0.49633689080834353 0.001906833875109944 -0.0006280107764315657 0 0 0 0
1020802000 0.5461185051678064 -0.49749655492000233 0.0018294649662268104 -0.0007195500624361137 0 0 0 0
1021792000 0.5443136409496873 -0.5054425579269916 0.002017436030941356 -0.000956693574071402 0 0 0 0
1022783000 0.5432795052705356 -0.5047005625025073 0.0019697422742928424 -0.0005814829243080672 0 0 0 0
1023773000 0.5385172412123891 -0.5134620299872777 0.0018738776851922718 -0.0008521179242680471 0 0 0 0
1024764000 0.5284450244483753 -0.5212777242686629 0.0021264537699410596 -0.0009165029045890268 0 0 0 0
1025755000 0.5327818933947623 -0.5200446398426117 0.001873043331626379 -0.0006899617895408725 0 0 0 0
1026745000 0.5253569022421396 -0.5212520737039197 0.001946013428983454 -0.0009681278018157035 0 0 0 0
1027736000 0.5283447489503476 -0.5244832187853012 0.0017901018532128395 -0.0008059849379218718 0 0 0 0
1028726000 0.5233947548262745 -0.5296324466335245 0.0018358919985410028 -0.0008368288350753252 0 0 0 0
1029717000 0.514529589017559 -0.5316583034256639 0.0017369710416839106 -0.0008305619801117881 0 0 0 0
1030707000 0.5129311299439456 -0.5297700705033775 0.0018734572524039196 -0.0008730681832435031 0 0 0 0
1031698000 0.5096259876423456 -0.5392994270011079 0.001966554355076238 -0.0008805323241362014 0 0 0 0
1032689000 0.5047552537512148 -0.5448385039868349 0.002051337932231604 -0.0007732046017492013 0 0 0 0
1033679000 0.5054906493925291 -0.5457503809004338 0.0017943930074422112 -0.0010114652560400583 0 0 0 0
1034670000 0.49351872369208444 -0.5486620392501834 0.0017406809251790153 -0.00093413582674686 0 0 0 0
1035660000 0.496908087932371 -0.5484898288873591 0.0019401568668837557 -0.0008781005609208891 0 0 0 0
1036651000 0.48359598208216326 -0.5583714976286936 0.0020824257722457224 -0.0010402344862752255 0 0 0 0
1037642000 0.47836794134680705 -0.5585927761831766 0.001734907992262742 -0.0010326077188252665 0 0 0 0
1038632000 0.48251793463209885 -0.5558521115388503 0.0019720331985761497 -0.0008335089961429712 0 0 0 0
1039623000 0.48083022652671237 -0.558236352748209 0.002012386616002899 -0.0010801148405684346 0 0 0 0
1040613000 0.46883869723421584 -0.5682815656413498 0.0019387159420923236 -0.0011062998551216812 0 0 0 0
1041604000 0.46928366226577556 -0.569379037915528 0.0018844818891651397 -0.0010606449525510854 0 0 0 0
1042594000 0.4705638558422965 -0.5720622687045694 0.0021088213255233785 -0.0012011565389288851 0 0 0 0
1043585000 0.4662896551939377 -0.5736570876124778 0.0016539558087299852 -0.001048361505912824 0 0 0 0
1044576000 0.4594578632690794 -0.5744357538602193 0.002010287517596451 -0.0012983106563037301 0 0 0 0
1045566000 0.4520354593059151 -0.5806522126238797 0.0019806924316292103 -0.0011975833410230504 0 0 0 0
1046557000 0.4507162783285441 -0.584579999946245 0.0019651421678836753 -0.0012607150904884845 0 0 0 0
1047547000 0.45111694586789786 -0.5854338605397764 0.001884171800509906 -0.0012145516971137302 0 0 0 0
1048538000 0.4404180978485935 -0.5934784283912753 0.0018285411077322564 -0.0011523356489766387 0 0 0 0
1049529000 0.4445371996624926 -0.5908377346336577 0.0018379780293957704 -0.0014349542124069748 0 0 0 0
1050519000 0.4303515954307712 -0.594468461809642 0.0018614440843154596 -0.0011130488887786411 0 0 0 0
1051510000 0.4353917034435526 -0.5929517232365769 0.0019035855986928906 -0.0010763895603417906 0 0 0 0
1052500000 0.4278034547010697 -0.5989384541139592 0.001715087172818521 -0.0012268464292323306 0 0 0 0
1053491000 0.421310487046543 -0.6014290378279201 0.0018232091345173425 -0.0011843145121736484 0 0 0 0
1054481000 0.4174206074760659 -0.6067807626381406 0.0018729211817162634 -0.0014317488159681176 0 0 0 0
1055472000 0.4235053097382997 -0.603008338414005 0.002057883323805388 -0.0011840266084383118 0 0 0 0
1056463000 0.4130059401269149 -0.6109716889678622 0.001886851841460379 -0.0014624466144793704 0 0 0 0
1057453000 0.4040376393801477 -0.6081895883268639 0.002111256999175189 -0.0014303732445092104 0 0 0 0
1058444000 0.40300741236680243 -0.6117204366800612 0.002076384355107277 -0.001227079306521784 0 0 0 0
1059434000 0.4012205538513145 -0.6158787649969998 0.0018726090791335037 -0.0015081912503772748 0 0 0 0
1060425000 0.39508012505865064 -0.6178604912847042 0.0017225358387273093 -0.0013978365207519923 0 0 0 0
1061415000 0.39135747463534654 -0.6232998863710105 0.0020225090382363173 -0.0015135216537676488 0 0 0 0
1062406000 0.38017281746608644 -0.6219710254407183 0.0018413353466926595 -0.0014900170489761647 0 0 0 0
1063397000 0.38185711188660565 -0.6284369918949925 0.001857370048267518 -0.0014384289402654263 0 0 0 0
1064387000 0.3755241005623631 -0.6293069447915162 0.001991870231060621 -0.001618618240685681 0 0 0 0
1065378000 0.3723045176583211 -0.6297463900070179 0.001955547022602681 -0.001432572312861336 0 0 0 0
1066368000 0.3675459463781528 -0.630253390231559 0.0021361013139241988 -0.001590791852241577 0 0 0 0
1067359000 0.36061631659643917 -0.6335904844945967 0.0020452410367791237 -0.0017140486667382548 0 0 0 0
1068350000 0.3578087299261696 -0.6341436656131624 0.001819374911312558 -0.0015229448419510864 0 0 0 0
1069340000 0.35058348063051176 -0.6354890948015125 0.0017972893628605381 -0.0016697552358005579 0 0 0 0
1070331000 0.3472626312836883 -0.6398403961652231 0.0019916263970436586 -0.0015987979208211052 0 0 0 0
1071321000 0.34966765362094776 -0.6401080860049954 0.001814843406651743 -0.0013610797015723066 0 0 0 0
1072312000 0.336844605026557 -0.6425253652335498 0.0018529840911105531 -0.0017165324091946196 0 0 0 0
1073302000 0.3334369677059284 -0.6514293734024837 0.0018716066730743567 -0.001668851584290966 0 0 0 0
1074293000 0.33100544845829916 -0.6491969836948345 0.0015816536128840566 -0.0016878312236279255 0 0 0 0
1075284000 0.33071233775948267 -0.6509040802353292 0.001991840884068209 -0.001839863232875694 0 0 0 0
1076274000 0.33288937581127326 -0.6481734920338371 0.0017187110265268753 -0.0015142065469718423 0 0 0 0
1077265000 0.3194022375472112 -0.6553845270365077 0.001650029451261935 -0.0017052359021036314 0 0 0 0
1078255000 0.30742583313546423 -0.659015862903719 0.0016700614370465847 -0.0021524614117134438 0 0 0 0
1079246000 0.3106940863755417 -0.6611536332118837 0.0017818664634899181 -0.0016073009616826236 0 0 0 0
1080236000 0.3045356673093153 -0.6587025687046947 0.0016572771648243256 -0.0017916734463135071 0 0 0 0
1081227000 0.3066210056286319 -0.6571011901868966 0.0016539922261911105 -0.0015576153146544024 0 0 0 0
1082218000 0.2932472782393087 -0.6637639895560293 0.001590431800237097 -0.001687586277845452 0 0 0 0
1083208000 0.2875225353451623 -0.6674635560003344 0.001697942225460209 -0.0018734505935455311 0 0 0 0
1084199000 0.28041948659200716 -0.6647670791143159 0.0017441528212703886 -0.0019092484656459859 0 0 0 0
1085189000 0.2805486115350869 -0.660257746903346 0.0015659946338843946 -0.0017367392211438233 0 0 0 0
1086180000 0.2734938618689583 -0.6695895323947185 0.001627384196711099 -0.002004093981451073 0 0 0 0
1087171000 0.271402716602105 -0.6651568169747883 0.0014447104602210432 -0.0020811213449091954 0 0 0 0
1088161000 0.26347015164211834 -0.6691351942855559 0.0013696522224143054 -0.0018939355976952772 0 0 0 0
1089152000 0.25962035744028633 -0.6696326551713507 0.0016235356799780118 -0.0021568642368641313 0 0 0 0
1090142000 0.25329025907258684 -0.6709811072647787 0.0014063062849441247 -0.0020211237923972816 0 0 0 0
1091133000 0.2523699385142634 -0.6705848425438259 0.0015242752825421107 -0.0018151878025155976 0 0 0 0
1092123000 0.24329171205290243 -0.6722606221366044 0.0016497154282606552 -0.0019435570255713324 0 0 0 0
1093114000 0.2481983642048393 -0.6757280710824128 0.0016253592073654478 -0.002079927195059347 0 0 0 0
1094105000 0.2384462353688472 -0.6799651003311765 0.0015344888578871934 -0.0019942867079727404 0 0 0 0
1095095000 0.23179887143903496 -0.6800975194755078 0.0014376588260814397 -0.0021416289523724574 0 0 0 0
1096086000 0.23325292985431956 -0.6724676963408823 0.001470670527852456 -0.002020452816684508 0 0 0 0
1097076000 0.21996621452933926 -0.6803862381554348 0.0012454642879297202 -0.002114649506958164 0 0 0 0
1098067000 0.21895298947810704 -0.6761803613278279 0.001266905941237321 -0.0020411166984482827 0 0 0 0
1099058000 0.21128431205900008 -0.6798353616256045 0.0015134667773801685 -0.0021405882433743516 0 0 0 0
1100049000 0.20998964292920796 -0.6809788113531352 0.001283863219515837 -0.0021315044671340994 0 0 0 0
1101039000 0.19520589928587687 -0.6838092196768994 0.0012387772788339825 -0.001933135378260796 0 0 0 0
1102030000 0.1985927247694453 -0.6845361289276279 0.0012144993902186854 -0.002387653433535489 0 0 0 0
1103020000 0.18765013663175656 -0.68832034689209 0.0012327684289215302 -0.0021380402761500892 0 0 0 0
1104011000 0.1812954840161995 -0.6847364323804642 0.0013510888114726027 -0.001934616806057 0 0 0 0
1105001000 0.1789616113711459 -0.689973016897444 0.0011353293430882707 -0.0018699294618248377 0 0 0 0
1105992000 0.17638974171438176 -0.6873587772666242 0.0009917988778686316 -0.00217005980035437 0 0 0 0
1106983000 0.1746404913514956 -0.6897626955523851 0.0011223452729809584 -0.0019899097921732933 0 0 0 0
1107973000 0.16483403806419178 -0.6893049796170717 0.0013313984851234186 -0.0021780819746809042 0 0 0 0
1108964000 0.15964046231156806 -0.6905883886084587 0.0012329332789433483 -0.0023785044358720863 0 0 0 0
1109954000 0.1567193954751673 -0.6901901093834747 0.001175284226856749 -0.0022445642621600885 0 0 0 0
1110945000 0.15599655528487197 -0.6914130199416436 0.0011651327134584882 -0.001911013359366288 0 0 0 0
1111936000 0.15133557861687144 -0.6903663670183715 0.001058442403370527 -0.0020906358178262854 0 0 0 0
1112926000 0.13585154708923636 -0.6928188851488511 0.0010244716484110261 -0.002178464394649632 0 0 0 0
1113917000 0.13254494719052248 -0.6918063946839237 0.0011777640304979316 -0.0021266196704601507 0 0 0 0
1114907000 0.1219333992387034 -0.6992545885644559 0.0010258827160141593 -0.0021643867880884095 0 0 0 0
1115898000 0.1228454659453811 -0.6952946184231013 0.0012292580630103758 -0.0023394790718278898 0 0 0 0
1116889000 0.11595488670570962 -0.6975005744461876 0.001012948756893834 -0.00201729186547739 0 0 0 0
1117879000 0.11384250396604526 -0.6922478066939859 0.001283011579094306 -0.0020669287853456748 0 0 0 0
1118870000 0.11008323057642476 -0.6967066598269731 0.0011422057437843653 -0.002013603978824473 0 0 0 0
1119860000 0.1057000507128943 -0.6954152547680091 0.0009432306006525171 -0.002145421964111704 0 0 0 0
1120851000 0.09787443483726699 -0.6924681158066305 0.0010176063558524088 -0.0023644823841462346 0 0 0 0
1121841000 0.09054141099706076 -0.700119066220303 0.001169275584036456 -0.002225415126043544 0 0 0 0
1122832000 0.09690303092011833 -0.693309103189867 0.000688808077902549 -0.00208306131248053 0 0 0 0
1123823000 0.08424540665287898 -0.6974072287646212 0.001184195107472983 -0.00221244411657006 0 0 0 0
1124813000 0.07524991549161687 -0.7020388994659633 0.0009966455162518381 -0.0020048792063387393 0 0 0 0
1125804000 0.0769568932520162 -0.6940011832479951 0.0009058026687460189 -0.0021725156968261695 0 0 0 0
1126794000 0.07087568784549046 -0.6943349900915728 0.0010957098596119234 -0.0022845035605323165 0 0 0 0
1127785000 0.0620489437666565 -0.7007340647914482 0.0011779052788189362 -0.0022027069542127384 0 0 0 0
1128776000 0.05708247662376535 -0.7025148332075957 0.001138168613313079 -0.0024679767424521963 0 0 0 0
1129766000 0.05378504272245458 -0.6985512689179232 0.0011812148891651932 -0.002117004656307048 0 0 0 0
1130757000 0.05269766123475885 -0.7024937242617076 0.0011617015884868211 -0.0019461295809736743 0 0 0 0
1131747000 0.039968660867467774 -0.7066522461397399 0.0011329078231233644 -0.002095169425375973 0 0 0 0
1132738000 0.03782565301282684 -0.6986659923784686 0.0008146672770978808 -0.0022670951313569954 0 0 0 0
1133729000 0.03431692393376692 -0.701754416440765 0.0012192562634779135 -0.0022357296686534847 0 0 0 0
1134719000 0.028501335757428786 -0.7025458738656215 0.0011159533911605604 -0.0021505905153416647 0 0 0 0
1135710000 0.025553700453835697 -0.7024849293218788 0.001118955341881597 -0.002314472436845201 0 0 0 0
1136700000 0.010287015959687885 -0.7038040760602152 0.001209703631352135 -0.0022310199001163247 0 0 0 0
1137691000 0.012347359620974692 -0.6965752016289661 0.000987393830110437 -0.002248404501766609 0 0 0 0
1138682000 0.013124356236542047 -0.7048898738212966 0.0010308209800640278 -0.0021055110441776438 0 0 0 0
1139672000 0.008679370140696682 -0.7012681841725777 0.0010602284110210437 -0.0023191042572068914 0 0 0 0
1140663000 -0.0014198160379077203 -0.7072488237114016 0.0009948528308396677 -0.0020155839000432735 0 0 0 0
1141653000 -0.0037942331191115194 -0.7029391764813904 0.0012253825789433673 -0.0022667634377881735 0 0 0 0
1142644000 -0.009166736540550734 -0.6987957326310208 0.0010460837070401614 -0.002062843412282899 0 0 0 0
1143634000 -0.026348057601378698 -0.6988058395022122 0.0009923855068619477 -0.0021805643709182265 0 0 0 0
1144625000 -0.01644768683796984 -0.7080486145056546 0.0007172758184269434 -0.0023979876667571177 0 0 0 0
1145616000 -0.02292715920481499 -0.7012218824963818 0.001082867856569877 -0.0023903975156707915 0 0 0 0
1146606000 -0.026333643400924173 -0.6985131770906258 0.0010456266986363975 -0.002443575275333085 0 0 0 0
1147597000 -0.03220100766548839 -0.7009601029862442 0.0011531768825020542 -0.0023697799142074374 0 0 0 0
1148587000 -0.03832744580086619 -0.7049661539223299 0.0009134400904929984 -0.0022916611233834787 0 0 0 0
1149578000 -0.04819336396458931 -0.6917349612476884 0.0006943563811791953 -0.0024386717203577946 0 0 0 0
1150569000 -0.04682375689238448 -0.6987077371914789 0.0005322230611462718 -0.0024541698715069187 0 0 0 0
1151559000 -0.05706664543949657 -0.6996438807367006 0.0008661287037476396 -0.0023813865696349318 0 0 0 0
1152550000 -0.057502318008218874 -0.6957758182725979 0.0009056878977231039 -0.0023277791934550184 0 0 0 0
1153540000 -0.06838903527413578 -0.7003850168019703 0.0008027974164499655 -0.0026775138018295687 0 0 0 0
1154531000 -0.07317432505767837 -0.6898159364951164 0.0007861868537884896 -0.0025965157293292257 0 0 0 0
1155522000 -0.07363691097312022 -0.6948260114338216 0.0005597428547797357 -0.002304478966870666 0 0 0 0
1156512000 -0.0785460311777594 -0.6973973894740478 0.0008893565557705614 -0.002686414531570652 0 0 0 0
1157503000 -0.0892436310436297 -0.6942605846029315 0.000774708092625369 -0.0026002446304765436 0 0 0 0
1158493000 -0.08734511182075211 -0.6897823348093371 0.0008229737638311796 -0.0026724455679906583 0 0 0 0
1159484000 -0.08536696536604241 -0.6976116728513512 0.0006133137345001518 -0.0024027950916810734 0 0 0 0
1160474000 -0.09649214104022127 -0.6914791337809169 0.0007011280079238525 -0.0024549222498625603 0 0 0 0
1161465000 -0.104543991673859 -0.6937777515836255 0.0005680850121347287 -0.0025853113222369666 0 0 0 0
1162456000 -0.11468182067884865 -0.6896104155115468 0.0007269462973130015 -0.0024654881539952042 0 0 0 0
1163446000 -0.1146240501846374 -0.685797040284144 0.0007537579901105902 -0.0025211138760165195 0 0 0 0
1164437000 -0.11960304472382831 -0.6800058633204058 0.000649967434143763 -0.002668384756712034 0 0 0 0
1165427000 -0.1253497983520515 -0.6826114389729673 0.000556956373547639 -0.0025522734880236374 0 0 0 0
1166418000 -0.12989325783372901 -0.6895986460997794 0.0005127577443345338 -0.0026647815588081527 0 0 0 0
1167409000 -0.13252518772000718 -0.6866641942523489 0.0005693199273511007 -0.002541337824858609 0 0 0 0
1168399000 -0.1421437760336324 -0.6757041970906551 0.00037265168715779545 -0.0025239858400194853 0 0 0 0
1169390000 -0.14627393050164889 -0.6810980190131446 0.00025925474105693044 -0.0025409617735527735 0 0 0 0
1170380000 -0.14833000593325543 -0.6815291506430234 0.00040240369698866927 -0.0024834408167744323 0 0 0 0
1171371000 -0.15378223411801423 -0.6769473185653323 0.0002162003515433234 -0.0027934362425165245 0 0 0 0
1172362000 -0.15869198156508954 -0.6806018932697915 0.0003549387350224114 -0.002628489174596787 0 0 0 0
1173352000 -0.159713039126273 -0.670225945118249 0.00017033827806816652 -0.002233038981442165 0 0 0 0
1174343000 -0.1676008087030624 -0.6676312369883254 0.00011925161561153426 -0.0026089497852984406 0 0 0 0
1175333000 -0.1678298003345619 -0.6691567212792118 0.0001000432179261772 -0.002523480219616982 0 0 0 0
1176324000 -0.17531908052381728 -0.6715695356264538 -1.2297932457768994e-05 -0.0024480563281470465 0 0 0 0
1177315000 -0.18509898259830773 -0.6679939245051272 0.00019364445719094613 -0.0024763002468415024 0 0 0 0
1178305000 -0.18866122541946234 -0.6698892915533464 0.0002013403316369843 -0.002587311709063578 0 0 0 0
1179296000 -0.18540159795480415 -0.6665691396528142 1.6614597462830255e-05 -0.0025950264985311567 0 0 0 0
1180286000 -0.20300965430026052 -0.653645228971706 0.00011921653420907894 -0.0024967474101676803 0 0 0 0
1181277000 -0.20106043421609684 -0.6661729427275765 9.911988300201279e-05 -0.0027091758216254407 0 0 0 0
1182267000 -0.20304160023025475 -0.6654264876395805 0.0001610782009193133 -0.002370553325376501 0 0 0 0
1183258000 -0.20873658098841455 -0.6568278121496043 -0.0002213684436169762 -0.0028571794364473505 0 0 0 0
1184249000 -0.21826266767006633 -0.657231253829406 -0.00015195886180061966 -0.002483744662149822 0 0 0 0
1185239000 -0.21828264994801125 -0.6538619473762807 -5.803602610851579e-05 -0.002752643839248367 0 0 0 0
1186230000 -0.21914249532075045 -0.6533691443099487 8.818736043353304e-06 -0.002494349472992499 0 0 0 0
1187220000 -0.22165017178638757 -0.6476339685376852 -0.00041759010914880525 -0.0027244253890743256 0 0 0 0
1188211000 -0.22914470112145333 -0.6478200133994784 -7.682704825912062e-05 -0.002665642417041479 0 0 0 0
