# HZ S RI R 50
1000000000 0.9252260233884281 -0.04768865635459548 0.0017934449019610089 0.0002637953611994027 0 0 0 0
1000990000 0.9280416307644189 -0.044391567345151955 0.0019138547497768905 0.0003761667680447758 0 0 0 0
1001981000 0.9254132857001046 -0.04650859193463921 0.0020228392820943963 0.0005580250809098275 0 0 0 0
1002971000 0.9305773832401042 -0.052303527961514794 0.0016529732901451372 0.00035346110743614007 0 0 0 0
1003962000 0.9265030391481163 -0.057618640650245495 0.0019055696208745074 0.000397168295171502 0 0 0 0
1004952000 0.9277132411148927 -0.06336075479181345 0.0015630147370834305 0.00022678816245563647 0 0 0 0
1005943000 0.9223799559135303 -0.07923659302292509 0.0019064539414018822 0.0004173139031989708 0 0 0 0
1006934000 0.9223348775943612 -0.0950848888993998 0.001715370170457638 0.0002839569002202479 0 0 0 0
1007924000 0.9210578743108773 -0.09250776575280732 0.001938566631864764 0.00015894296933373028 0 0 0 0
1008915000 0.9219788676757233 -0.0896617206028586 0.0016528120074629721 0.00048268552829859086 0 0 0 0
1009905000 0.9179722351274353 -0.10023649918889216 0.0016240982177079396 0.00023551592437309982 0 0 0 0
1010896000 0.9180147232172172 -0.1100340179763955 0.001616494960526714 8.963492855553261e-05 0 0 0 0
1011886000 0.9174983413374763 -0.112634832380964 0.0018723081989040328 0.00021680427438225492 0 0 0 0
1012877000 0.9135105473369801 -0.1142542330401884 0.0018506483780319364 0.00037376575821975095 0 0 0 0
1013868000 0.9152703793352146 -0.13132494089041108 0.0017486619091256835 0.00013854758257545328 0 0 0 0
1014858000 0.9133499430606901 -0.13229045033880282 0.001797947056496544 5.891453419356424e-05 0 0 0 0
1015849000 0.9126252492886354 -0.13914238928426884 0.0018901022934181813 -0.00013881831248906546 0 0 0 0
1016839000 0.9104006627580727 -0.14944529218707342 0.0015273101200922224 0.0001467027157593359 0 0 0 0
1017830000 0.9130097162543421 -0.15278033482350029 0.0019057886375706806 -2.8435123465016837e-05 0 0 0 0
1018821000 0.903925156441652 -0.1630974891977361 0.0018450198562948155 0.00032203026493664603 0 0 0 0
1019811000 0.9104972977360503 -0.1596540196030942 0.0019377665397368347 0.0001868468891599797 0 0 0 0
1020802000 0.9017596591082676 -0.1746044169198594 0.0018064394589418613 0.00022669395741924792 0 0 0 0
1021792000 0.9042608488024341 -0.1790431737324332 0.0017197705735173916 -0.0002695289460643149 0 0 0 0
1022783000 0.9064155293129603 -0.17019315800192433 0.001923392718090542 0.00011426103656257513 0 0 0 0
1023773000 0.9047139715823329 -0.17442358786829773 0.0018613359870251931 0.00012105011831237059 0 0 0 0
1024764000 0.9012498610364221 -0.18327089388323858 0.001971419736163422 -0.00020230313851500188 0 0 0 0
1025755000 0.9009401227631468 -0.19283613728553003 0.001937138446182158 -4.071998615816666e-05 0 0 0 0
1026745000 0.8984626537360748 -0.20216480064769662 0.0020750144455799965 0.00015572353330531422 0 0 0 0
1027736000 0.8956065152422719 -0.2105464779827267 0.0018616481283520172 0.00011694286664322042 0 0 0 0
1028726000 0.8961267751261613 -0.20979138421209184 0.0017635486180823774 -0.00011967967161685111 0 0 0 0
1029717000 0.8915703769125444 -0.2181568912019391 0.0018457799647552957 -2.988312192246114e-07 0 0 0 0
1030707000 0.8898366739087896 -0.22434014935232185 0.0015991696649956429 7.730806804897135e-05 0 0 0 0
1031698000 0.8941289357077942 -0.22008705992556293 0.0019211799499380096 0.00013784791131423284 0 0 0 0
1032689000 0.8923072560780339 -0.22730448011922252 0.002003253201931839 -0.00018081133597781449 0 0 0 0
1033679000 0.8930297592653529 -0.2198472466161706 0.0018273192877650542 -7.471842197126857e-05 0 0 0 0
1034670000 0.8847887060273933 -0.24343883670292096 0.00182323736227034 -0.00012663257338181352 0 0 0 0
1035660000 0.8868493990454683 -0.23541716682967131 0.0017245379861115593 -0.00010575549206615169 0 0 0 0
1036651000 0.8810008559873829 -0.25869010588311436 0.002175343348589444 -3.046971172341856e-05 0 0 0 0
1037642000 0.8801208569210965 -0.2581787531576981 0.0017607848267063146 -0.00016772277238992327 0 0 0 0
1038632000 0.8810250731409064 -0.2547983518423798 0.0019456724750849868 -1.7288872089054198e-05 0 0 0 0
1039623000 0.8814081306193605 -0.2566894421235549 0.001648162500753316 1.3448978507605967e-05 0 0 0 0
1040613000 0.879298937242467 -0.265781649963059 0.0015201006412473444 -9.05037229786602e-05 0 0 0 0
1041604000 0.878870065913644 -0.2726422443695018 0.0016960982211221105 -0.00011234651976281486 0 0 0 0
1042594000 0.8797329816343187 -0.273935285627398 0.001826190377222369 -3.520011572227324e-05 0 0 0 0
1043585000 0.8790999333881883 -0.27826334709822176 0.001790230271331018 8.504194844629362e-05 0 0 0 0
1044576000 0.872732581039133 -0.2819440207567398 0.0019022027913513757 -0.00017181963338172798 0 0 0 0
1045566000 0.8689322774017687 -0.2982458227631471 0.0018058825788433062 -0.00018659781335324564 0 0 0 0
1046557000 0.8680021609461067 -0.29641180195798994 0.0021002458376026636 -3.070117885295957e-05 0 0 0 0
1047547000 0.8720526892244895 -0.29074580764359625 0.0018944995973597652 -0.0001983574474158102 0 0 0 0
1048538000 0.8656343399195651 -0.30082838885958674 0.0016698480440868906 -0.000376295607066026 0 0 0 0
1049529000 0.8718322350872092 -0.2990236508852159 0.0017316664931009617 -0.00027050321290211543 0 0 0 0
1050519000 0.8630714631934611 -0.3070101872742343 0.0018977221246468745 -0.0002717252238353635 0 0 0 0
1051510000 0.8623270452095202 -0.31537579719026104 0.002030596229408629 -5.1577534769683666e-05 0 0 0 0
1052500000 0.8634489331507321 -0.3082834983415149 0.0017985115949154312 -3.2699424433824505e-05 0 0 0 0
1053491000 0.8571076049843678 -0.3313575626662127 0.0016749013596361673 -0.00029179869728053 0 0 0 0
1054481000 0.8545797727650372 -0.3349338723590678 0.0017961528959978977 -0.00017639420252395734 0 0 0 0
1055472000 0.8566382885086002 -0.33318060405728395 0.0019888846264765636 -4.611763453810356e-05 0 0 0 0
1056463000 0.855019867007763 -0.34047489788709456 0.0021305229437833854 -0.0003272080757913561 0 0 0 0
1057453000 0.8525884377972001 -0.33966538060781 0.0018527500642187633 -0.0002874288080863336 0 0 0 0
1058444000 0.8535553090998528 -0.3288586822023719 0.0021454811528151293 -6.499132276177033e-05 0 0 0 0
1059434000 0.8525358913965871 -0.34275504925247846 0.0016864849397093986 -0.0002502276796934536 0 0 0 0
1060425000 0.8496848214631494 -0.3546101459011248 0.0018380808892148042 -0.0004133105762227382 0 0 0 0
1061415000 0.8496003787734457 -0.34536394603588044 0.002024173468790742 -0.00025084078600205186 0 0 0 0
1062406000 0.841332301294197 -0.35859739530731066 0.0018508016257904945 -0.00024681031337802294 0 0 0 0
1063397000 0.8484344653726084 -0.35996187641268773 0.0017920681899096047 -0.0003027479965066485 0 0 0 0
1064387000 0.8412842888715677 -0.36981464575030387 0.002035470091066787 -0.0001305236921107337 0 0 0 0
1065378000 0.839275649454551 -0.3705369998500782 0.0019043257134115925 -0.0003413245966443657 0 0 0 0
1066368000 0.8352637169557705 -0.37740412720823996 0.002140957005291096 -0.0004651218327294885 0 0 0 0
1067359000 0.8305522748799912 -0.38651227856615983 0.0021734777737103766 -0.00048796505089026215 0 0 0 0
1068350000 0.8304438773876227 -0.3834863379089802 0.0017830525591951709 -0.0004786212089829759 0 0 0 0
1069340000 0.8156897081192209 -0.4025391220282689 0.001975377963730265 -0.000569228028669068 0 0 0 0
1070331000 0.8227808362288455 -0.39631586564653487 0.002061669022329902 -0.0003964970159443431 0 0 0 0
1071321000 0.819432581038768 -0.4005258994894951 0.0020762382361080257 -0.00022169612375262342 0 0 0 0
1072312000 0.8196054458344814 -0.411484650321668 0.0018588060731238956 -0.0007199551022864918 0 0 0 0
1073302000 0.8163846399758186 -0.4201428321057692 0.001875671537368505 -0.00048163958235869183 0 0 0 0
1074293000 0.8115812748143808 -0.4183413457804612 0.0018201296007146115 -0.00038548821578300395 0 0 0 0
1075284000 0.8098737242581205 -0.42652212799066375 0.001838132917389157 -0.0006747732507327896 0 0 0 0
1076274000 0.8048548303166514 -0.4343630740614453 0.0017570717336074014 -0.0004176225429193291 0 0 0 0
1077265000 0.7999747807374465 -0.44498704939490025 0.0017285585894205077 -0.00026734892139379084 0 0 0 0
1078255000 0.7965018746726765 -0.44961972483752843 0.001820945797119575 -0.0009457639405373437 0 0 0 0
1079246000 0.7968974047266474 -0.4510183872813817 0.0019702316952537506 -0.00043281231273031395 0 0 0 0
1080236000 0.7960680181019879 -0.44837075519624986 0.001858938895395389 -0.0006006128222019436 0 0 0 0
1081227000 0.7926112830704348 -0.4550723704740201 0.002034694709865355 -0.0006346130296273451 0 0 0 0
1082218000 0.7875382956241209 -0.4596102908253196 0.0017606239346953422 -0.000781643442342208 0 0 0 0
1083208000 0.7916378611491888 -0.4637293922879909 0.0018544586962556831 -0.0007943868345551852 0 0 0 0
1084199000 0.7703362634957684 -0.4751334045661822 0.002051059605089751 -0.000676171628204883 0 0 0 0
1085189000 0.774312575826227 -0.46999053001783236 0.0018896815768994803 -0.0005699580921525722 0 0 0 0
1086180000 0.7731617324660788 -0.4813412084303831 0.0017873071303501303 -0.0010022724230433762 0 0 0 0
1087171000 0.7701911194054556 -0.47928954715732636 0.0019364701904992128 -0.0008330925930775685 0 0 0 0
1088161000 0.7672145561214622 -0.4854494165513971 0.0016115638011788933 -0.0009063302029830311 0 0 0 0
1089152000 0.7616986207326913 -0.49228288397399267 0.0019156993351609434 -0.0010185309000772867 0 0 0 0
1090142000 0.75699608451792 -0.495520105815327 0.0018980307747245703 -0.000914566397332895 0 0 0 0
1091133000 0.7538440087780731 -0.49717095372684045 0.0017049165044758674 -0.0006797133378107854 0 0 0 0
1092123000 0.7531623897482813 -0.5033380599488847 0.001962305226715063 -0.0007220647009897256 0 0 0 0
1093114000 0.7528957495019434 -0.5001641729428695 0.0019300761361088806 -0.0008295137428054651 0 0 0 0
1094105000 0.7538704798598719 -0.5094078300018312 0.002054072070479105 -0.0008668634240995375 0 0 0 0
1095095000 0.7469911315006932 -0.5204194506301297 0.0017650191293367287 -0.0010960967679710222 0 0 0 0
1096086000 0.7343672933170686 -0.5199127864792911 0.0018383176379056791 -0.0008258004863967528 0 0 0 0
1097076000 0.7343110745280493 -0.5303820899501073 0.0018400062863083517 -0.0009156655354845677 0 0 0 0
1098067000 0.7230940602271697 -0.5326830346248614 0.0018315546030806516 -0.0009716791021084996 0 0 0 0
1099058000 0.7304591819208904 -0.5296193233700052 0.0018446944707447078 -0.0011250736104849004 0 0 0 0
1100049000 0.731839663017501 -0.5305392144185596 0.001856161278323227 -0.001057855669298541 0 0 0 0
1101039000 0.7294621777130705 -0.5347106343962605 0.001823742791204567 -0.0010677714022259454 0 0 0 0
1102030000 0.7188887609326094 -0.5405602709392977 0.0016863763775155703 -0.0012538662399335955 0 0 0 0
1103020000 0.7175797081916044 -0.5507514597095896 0.0019316171600158995 -0.0009647245697061713 0 0 0 0
1104011000 0.7017932059868774 -0.555730696818041 0.0017294293566678632 -0.0009500472722203925 0 0 0 0
1105001000 0.712904259274928 -0.5602794017045766 0.0017361568571350708 -0.0011139657150058056 0 0 0 0
1105992000 0.7093059732727288 -0.5585229255693888 0.0015630919213741913 -0.0010029703325283054 0 0 0 0
1106983000 0.7084557176876826 -0.5600720341906232 0.0018064333722322692 -0.0009622259098953778 0 0 0 0
1107973000 0.6984401763355064 -0.5664939739857838 0.0017261634056639072 -0.001062579372734094 0 0 0 0
1108964000 0.6998965503332686 -0.5706181829762684 0.00165353386692237 -0.0013138607869500579 0 0 0 0
1109954000 0.7007459618012482 -0.5660930485674985 0.001616259224359568 -0.000984015091797903 0 0 0 0
1110945000 0.6970584582337697 -0.5698403864594891 0.0018002661298759453 -0.0011188338368592987 0 0 0 0
1111936000 0.6991551302346724 -0.5693378934746869 0.001660730441256273 -0.0010833539536087569 0 0 0 0
1112926000 0.6947964069735468 -0.5745501381182258 0.0018760115189993295 -0.001010031672705384 0 0 0 0
1113917000 0.6822469824536611 -0.5805464919176193 0.0016235654509061254 -0.0010627764204219296 0 0 0 0
1114907000 0.6834655898103995 -0.595888534820176 0.0016708563723998873 -0.0013007051156558567 0 0 0 0
1115898000 0.6770993219988294 -0.5886075885954858 0.0016854119246471685 -0.0014930117569307215 0 0 0 0
1116889000 0.6832858222915058 -0.5864796778698126 0.0014464248237290222 -0.001120011732747283 0 0 0 0
1117879000 0.6766369068672765 -0.5967152928871302 0.0016281333866517674 -0.0011038097964799465 0 0 0 0
1118870000 0.6754295692168483 -0.6031966960461802 0.0014213094495540894 -0.0011108349966732173 0 0 0 0
1119860000 0.6624121808390184 -0.6032529399999459 0.0014989980231385766 -0.0015292391316159522 0 0 0 0
1120851000 0.6507683691065563 -0.6158140661492888 0.0016057381589681373 -0.0012327102823176418 0 0 0 0
1121841000 0.6657272377315053 -0.6091038264393489 0.0015812651519007516 -0.001460269821279398 0 0 0 0
1122832000 0.6494346235993996 -0.6229417592465727 0.0013053742400142986 -0.0013771528249705732 0 0 0 0
1123823000 0.6593735737522328 -0.6097192178098917 0.0017290413602587336 -0.0011397633750517436 0 0 0 0
1124813000 0.6481279345250203 -0.628639926602273 0.0014394390496042788 -0.001091651780968777 0 0 0 0
1125804000 0.6412341092227015 -0.6251680223939082 0.001495526239092751 -0.0013705137394859118 0 0 0 0
1126794000 0.6427543536297012 -0.6266304430346955 0.001462542049521067 -0.0013295606183493527 0 0 0 0
1127785000 0.6392693875554629 -0.6317195459454847 0.0015569999677713235 -0.001237460405990373 0 0 0 0
1128776000 0.6201537823169769 -0.647122921292661 0.0017368677140927804 -0.00135048454733635 0 0 0 0
1129766000 0.6214338857919336 -0.6447229308870122 0.0016573658470669082 -0.0013060916172615315 0 0 0 0
1130757000 0.6221279031369458 -0.6499178764207272 0.0014495253014455032 -0.0011194899876675753 0 0 0 0
1131747000 0.6202254474611717 -0.6527352276117627 0.0013659809588602082 -0.0011476028358597707 0 0 0 0
1132738000 0.6097200828709893 -0.6502962418008615 0.0015894539665479036 -0.001302331210379568 0 0 0 0
1133729000 0.6192136037819063 -0.654960500810106 0.0016130478340233762 -0.0013277887486860388 0 0 0 0
1134719000 0.6178146929154569 -0.6527941686452581 0.001553923412789154 -0.0012328062089898182 0 0 0 0
1135710000 0.6242435863673805 -0.6492858292075608 0.0016063168130822391 -0.001378539706911425 0 0 0 0
1136700000 0.6101194393971905 -0.6617867268187071 0.0016628334388089018 -0.0012050377480805551 0 0 0 0
1137691000 0.6019151093900498 -0.6721950764973591 0.0014044794341307057 -0.0013067352409841543 0 0 0 0
1138682000 0.6164714076458009 -0.6562302617476182 0.0014932873264520124 -0.001095866799976078 0 0 0 0
1139672000 0.5996847001164582 -0.6684466712731508 0.0013744663820356388 -0.001337646283191539 0 0 0 0
1140663000 0.5963018518585971 -0.6772683167357382 0.0013806484716180035 -0.0010783192921024131 0 0 0 0
1141653000 0.5952840983197183 -0.6857970148930078 0.0015543540165786924 -0.0011999334025569563 0 0 0 0
1142644000 0.5802371111945603 -0.6830622039004097 0.0016250775196748615 -0.0011201333412101727 0 0 0 0
1143634000 0.5781286842229947 -0.6936149181152083 0.0012595524059290097 -0.0011535560679689794 0 0 0 0
1144625000 0.5882839135511673 -0.6872618647046331 0.001487341064090809 -0.0013785151325906822 0 0 0 0
1145616000 0.5760420315767736 -0.6925702435291176 0.0014691352190254663 -0.0014629901502920153 0 0 0 0
1146606000 0.5763047326495394 -0.6906850037097826 0.0015514466877476385 -0.0013473636363628399 0 0 0 0
1147597000 0.5694452867845307 -0.6949450945659252 0.0015679361413151827 -0.0012817009068195574 0 0 0 0
1148587000 0.5617741167478777 -0.7134639697970498 0.0013366856850332539 -0.0011153482920665746 0 0 0 0
1149578000 0.5443657032366606 -0.7097548101218029 0.0016002060105108063 -0.0013568425322294598 0 0 0 0
1150569000 0.5584893643636972 -0.708826510363235 0.001042118206787404 -0.0013349645938580139 0 0 0 0
1151559000 0.5569523933846467 -0.7149641477968002 0.0015025776454549613 -0.0011876115014273004 0 0 0 0
1152550000 0.537809489375368 -0.7213342296996493 0.001351418782417359 -0.001453346972614111 0 0 0 0
1153540000 0.5547179162099525 -0.7113793619914248 0.0013981043187606507 -0.0016473935217425789 0 0 0 0
1154531000 0.5381511439500227 -0.7179453471668159 0.0016634487075672501 -0.0013364896182643778 0 0 0 0
1155522000 0.5209255339195555 -0.7364294216936751 0.0011478062918522905 -0.0012468587848984349 0 0 0 0
1156512000 0.5432275117295794 -0.7193267977036558 0.0015402236935093806 -0.0015848967949917427 0 0 0 0
1157503000 0.5240204652348688 -0.7331264307502848 0.0013908991570631517 -0.0016558391948755498 0 0 0 0
1158493000 0.5233245165825158 -0.7303213756229918 0.0016813422443891484 -0.001499173175757637 0 0 0 0
1159484000 0.5219585854029151 -0.7356329218978535 0.001238159960264066 -0.0013714949065904616 0 0 0 0
1160474000 0.5118365423326021 -0.7389398195473644 0.0016393410223004218 -0.0012825142608006816 0 0 0 0
1161465000 0.5008744370145263 -0.7433799711383501 0.0012055222780923513 -0.0014742147755464712 0 0 0 0
1162456000 0.4927184156849484 -0.7505915612899966 0.0014535966725317017 -0.0015233635113565413 0 0 0 0
1163446000 0.48590372131934073 -0.7507061286070307 0.0015860643226087937 -0.0014568337145721732 0 0 0 0
1164437000 0.47926890696897717 -0.7547281289764987 0.0014018098300351413 -0.0017297527481222462 0 0 0 0
1165427000 0.48112062530552785 -0.7562613422691529 0.0014795405659614664 -0.0017494312342777008 0 0 0 0
1166418000 0.47858887053311167 -0.76528713686199 0.0014308970512343351 -0.001735001670466303 0 0 0 0
1167409000 0.47350316558455824 -0.7649724238033715 0.0015182994046424082 -0.0014718027589466886 0 0 0 0
1168399000 0.4544555189199201 -0.7648055886433441 0.0013350848178497827 -0.0015444391363467376 0 0 0 0
1169390000 0.4645867238885156 -0.7667873960294819 0.0011532585570578054 -0.0016492732296023067 0 0 0 0
1170380000 0.4666391430959853 -0.7689582419796058 0.0013199703699104043 -0.0015419893485758166 0 0 0 0
1171371000 0.46506961892231524 -0.7661490401638689 0.0011893960335864924 -0.0017307027256158517 0 0 0 0
1172362000 0.4558697698249999 -0.7760065876442978 0.0013346094227119417 -0.001645007044977528 0 0 0 0
1173352000 0.4393170550001466 -0.770934864500699 0.0011954882842350857 -0.0015448291195681225 0 0 0 0
1174343000 0.4315986258261732 -0.7765498116689777 0.0010904404586282042 -0.001735912982837177 0 0 0 0
1175333000 0.42858773841173176 -0.7763241184607846 0.001298908925435137 -0.0017618915458200702 0 0 0 0
1176324000 0.42631183494922226 -0.7856237505649821 0.0010920888314645057 -0.0019391218429440809 0 0 0 0
1177315000 0.4160315018930164 -0.7898345642594358 0.0012558166583555121 -0.0018952120965077472 0 0 0 0
1178305000 0.4192787823645088 -0.788375485605102 0.0013320161854611834 -0.0018138594124981174 0 0 0 0
1179296000 0.4090713134802012 -0.791573250890721 0.0010081219318412524 -0.001810669753704707 0 0 0 0
1180286000 0.39571991586205213 -0.7941338228658988 0.0013148820475594365 -0.0018988864778937044 0 0 0 0
1181277000 0.3996298324088345 -0.7989814907626032 0.001472589934442763 -0.0019338561359126339 0 0 0 0
1182267000 0.38563188910762264 -0.8036871962410012 0.0012301784169252946 -0.0019124484831826518 0 0 0 0
1183258000 0.38589094917504563 -0.7998787782559899 0.0008997556794772218 -0.0018097932196604375 0 0 0 0
1184249000 0.39095421893904814 -0.8069598827110758 0.0010020162473187647 -0.0019228521792614317 0 0 0 0
1185239000 0.38249667715256935 -0.8027933661128728 0.000956823036083781 -0.0020179693195808523 0 0 0 0
1186230000 0.37724296680060804 -0.8005907466507194 0.0010651264054043004 -0.0019688697431877347 0 0 0 0
1187220000 0.3677849992066114 -0.8016105782051515 0.0008300402765044389 -0.0017045232251688839 0 0 0 0
1188211000 0.3627389428882998 -0.8059068780595466 0.0009596700697929075 -0.0020201103752741627 0 0 0 0
1189202000 0.3626988984563579 -0.8154634134525021 0.0008331576369430189 -0.0019364176070858657 0 0 0 0
