# Hz S DB R 50
! CMT, C1420, 19038819, 22.4.2/3
! Date: 2023-03-14 09:45:15
! Data: Format (Calibration Info)
! Freq	S11:dB/Ang(F2)	S21:dB/Ang(F2)	S12:dB/Ang(F2)	S22:dB/Ang(F2)
3.00000000000E+05	-4.31371503342E-02	-2.41303369775E-01	-7.95694482180E+01	2.37602437025E+01	-8.33816493116E+01	1.45979117275E+02	-4.28582952226E-02	-2.37526765013E-01
1.29996666667E+06	-1.06842332085E-02	-1.50914648683E-02	-7.64183579396E+01	4.72221170707E+01	-8.21980524853E+01	7.97579086255E+01	-7.99558223901E-03	-5.41496471063E-01
2.29993333333E+06	-1.27616571290E-02	-3.96924850987E-02	-7.36177569799E+01	9.14524314551E+01	-7.25771690948E+01	1.01301048044E+02	-9.17826468532E-03	-9.38224523547E-01
3.29990000000E+06	-1.07495800309E-02	-8.63944059627E-02	-6.84537003966E+01	8.69627841232E+01	-7.08858533452E+01	9.90543634129E+01	-6.13748532603E-03	-1.36190183070E+00
4.29986666667E+06	-3.95706904999E-03	-1.35337953023E-01	-6.75914482301E+01	9.16736837329E+01	-6.94170038615E+01	8.27875267439E+01	-7.27709555680E-03	-1.78105335893E+00
5.29983333333E+06	-9.81471364972E-03	-2.08979238857E-01	-6.57871370371E+01	9.08240939955E+01	-6.64250806746E+01	8.83950475301E+01	-5.67656383183E-03	-2.24836509664E+00
6.29980000000E+06	-8.77480887885E-03	-2.32961148945E-01	-6.51438039033E+01	8.32378670096E+01	-6.52987705092E+01	8.94022128878E+01	-1.25047844537E-02	-2.61869465868E+00
7.29976666667E+06	-1.28256852870E-02	-2.69351744332E-01	-6.34723702761E+01	8.37381471503E+01	-6.37913994522E+01	8.19459443504E+01	-7.99900327964E-03	-3.01188229953E+00
8.29973333333E+06	-8.12294125534E-03	-2.88065912679E-01	-6.22704719820E+01	8.81947561332E+01	-6.23585081490E+01	8.53433307507E+01	-9.04562627735E-03	-3.40738947877E+00
9.29970000000E+06	-7.42164788571E-03	-3.44569747088E-01	-6.18035253142E+01	8.60019735314E+01	-6.11782921871E+01	8.29255858832E+01	-1.25330512632E-02	-3.83515567826E+00
1.02996666667E+07	-1.76745485836E-02	-3.30964484601E-01	-6.07252824562E+01	9.01120584296E+01	-6.06521954516E+01	8.53914401072E+01	-2.22730694640E-02	-4.32588093976E+00
1.12996333333E+07	-8.01877463281E-03	-4.01910282099E-01	-5.98617187231E+01	8.89083121524E+01	-6.02496613861E+01	8.52512699631E+01	-1.54852702815E-02	-4.63713146206E+00
1.22996000000E+07	-6.66911933728E-03	-4.34956100693E-01	-5.92013015040E+01	8.30869964181E+01	-5.90784676317E+01	8.60061794774E+01	-1.45421061345E-02	-5.06061791242E+00
1.32995666667E+07	-8.41726271419E-03	-4.58041664247E-01	-5.81789164971E+01	8.44485748508E+01	-5.84522942327E+01	8.45647360166E+01	-1.32767942821E-02	-5.47252724953E+00
1.42995333333E+07	-5.42527141780E-03	-4.90358965822E-01	-5.77191443462E+01	8.52682028492E+01	-5.73990757479E+01	8.60704013535E+01	-1.63842735069E-02	-5.88274436819E+00
1.52995000000E+07	-7.44010575398E-03	-5.44724213317E-01	-5.72855470207E+01	8.53162397769E+01	-5.71019383034E+01	8.66881203926E+01	-1.75101571460E-02	-6.28819950443E+00
1.62994666667E+07	-7.01692654913E-03	-5.79374943767E-01	-5.68160050527E+01	8.42526486457E+01	-5.66531710310E+01	8.44549860251E+01	-2.18019074421E-02	-6.66873823078E+00
1.72994333333E+07	-7.45326941644E-03	-6.07055598742E-01	-5.58602086794E+01	8.56521667015E+01	-5.60716860051E+01	8.40729627721E+01	-2.33908071267E-02	-7.10512890096E+00
1.82994000000E+07	-9.44349639945E-03	-6.40020098313E-01	-5.56945161983E+01	8.56748119421E+01	-5.59264341820E+01	8.37643279416E+01	-2.21126222709E-02	-7.50279770224E+00
1.92993666667E+07	-5.84270532065E-03	-6.71078861645E-01	-5.52068949527E+01	8.49253189909E+01	-5.50995915163E+01	8.42206948399E+01	-2.19487217861E-02	-7.90714236923E+00
2.02993333333E+07	-9.60475738732E-03	-7.09954745631E-01	-5.48887798148E+01	8.48843058708E+01	-5.48599030106E+01	8.41643530275E+01	-2.52644699819E-02	-8.32318979892E+00
2.12993000000E+07	-9.22973330521E-03	-7.41975350912E-01	-5.43381592396E+01	8.39983583915E+01	-5.43648552382E+01	8.40248020441E+01	-2.58735473743E-02	-8.73485783588E+00
2.22992666667E+07	-6.00414004842E-03	-7.81631482849E-01	-5.39120574252E+01	8.37008768911E+01	-5.39585399033E+01	8.32704621049E+01	-2.59552560310E-02	-9.14768088541E+00
2.32992333333E+07	-4.72017839732E-03	-7.97278735325E-01	-5.35854410805E+01	8.26650183747E+01	-5.35688006432E+01	8.39162253265E+01	-2.77136234476E-02	-9.54147428336E+00
2.42992000000E+07	-8.70741804882E-03	-8.29890140377E-01	-5.32349265327E+01	8.45340208467E+01	-5.32428416313E+01	8.31047803108E+01	-2.72835837130E-02	-9.94036588540E+00
2.52991666667E+07	-7.32429117355E-03	-8.77821716872E-01	-5.29941379362E+01	8.37698194755E+01	-5.28689048461E+01	8.31712290498E+01	-2.99076577440E-02	-1.03436859584E+01
2.62991333333E+07	-9.16432221506E-03	-9.09518477345E-01	-5.26520919935E+01	8.27991999358E+01	-5.26878776174E+01	8.28053272934E+01	-3.20121016639E-02	-1.07484291837E+01
2.72991000000E+07	-5.95219220487E-03	-9.37585720050E-01	-5.22809071690E+01	8.27823722221E+01	-5.23299496271E+01	8.25438417847E+01	-3.20729590351E-02	-1.11618696680E+01
2.82990666667E+07	-8.76788063557E-03	-9.83439373807E-01	-5.21334758919E+01	8.21017912098E+01	-5.20250984006E+01	8.16971351669E+01	-3.35186041318E-02	-1.15728518146E+01
2.92990333333E+07	-6.26853827522E-03	-1.02160702309E+00	-5.16356872811E+01	8.25798096232E+01	-5.16437926505E+01	8.19310427927E+01	-3.53512337209E-02	-1.19706898186E+01
3.02990000000E+07	-8.70021456608E-03	-1.05312273048E+00	-5.14519967299E+01	8.29648813211E+01	-5.13480873579E+01	8.19705031761E+01	-3.64842533848E-02	-1.23728963924E+01
3.12989666667E+07	-1.00721703229E-02	-1.08587097383E+00	-5.11393516110E+01	8.12609842971E+01	-5.10190005959E+01	8.23509593499E+01	-3.80132159625E-02	-1.27853783832E+01
3.22989333333E+07	-8.09535370352E-03	-1.11620552421E+00	-5.07782342084E+01	8.13089208721E+01	-5.08376049409E+01	8.14752845906E+01	-3.78025440248E-02	-1.31865297926E+01
3.32989000000E+07	-9.21283974650E-03	-1.14802041599E+00	-5.05868924839E+01	8.07895528347E+01	-5.05302139630E+01	8.09831348428E+01	-4.01072725093E-02	-1.35971835673E+01
3.42988666667E+07	-1.00175894455E-02	-1.18097866664E+00	-5.03498057698E+01	8.11101180004E+01	-5.03839430328E+01	8.09063651380E+01	-4.04981244461E-02	-1.39942569879E+01
3.52988333333E+07	-8.62644582316E-03	-1.22367937606E+00	-5.01334982984E+01	8.06469802536E+01	-5.00795897152E+01	8.07229492179E+01	-3.93661982118E-02	-1.44013219808E+01
3.62988000000E+07	-6.85004562578E-03	-1.26068076484E+00	-4.98506889712E+01	8.08965420825E+01	-4.98395614136E+01	8.02764992476E+01	-4.19417245572E-02	-1.48104356502E+01
3.72987666667E+07	-9.81964522470E-03	-1.28306512817E+00	-4.96656961156E+01	8.02868582107E+01	-4.95959848079E+01	8.01838392716E+01	-4.29397043755E-02	-1.52126832718E+01
3.82987333333E+07	-8.71260126621E-03	-1.32107730508E+00	-4.94536665881E+01	8.01635194696E+01	-4.93341643016E+01	8.03199099563E+01	-4.54942205879E-02	-1.56282432646E+01
3.92987000000E+07	-8.59994187174E-03	-1.36264085012E+00	-4.92671650484E+01	7.97356513859E+01	-4.90985848554E+01	7.95388490273E+01	-4.61494819860E-02	-1.60326232134E+01
4.02986666667E+07	-9.03696365425E-03	-1.39259554976E+00	-4.89519930234E+01	7.93254304667E+01	-4.88248009210E+01	7.98359160563E+01	-4.70830228751E-02	-1.64387165594E+01
4.12986333333E+07	-7.94651832230E-03	-1.42320325375E+00	-4.88352492074E+01	7.92522649576E+01	-4.87655264743E+01	7.96051105128E+01	-4.75326640249E-02	-1.68440112911E+01
4.22986000000E+07	-8.55424138249E-03	-1.45673779538E+00	-4.86288708922E+01	7.90262011929E+01	-4.85346068229E+01	7.91025929927E+01	-4.75046720087E-02	-1.72457575480E+01
4.32985666667E+07	-8.44684866962E-03	-1.50161221681E+00	-4.82969706557E+01	7.89466857486E+01	-4.83074972624E+01	7.88581748825E+01	-4.95260160875E-02	-1.76548136211E+01
4.42985333333E+07	-8.44393135099E-03	-1.53946484632E+00	-4.81885896991E+01	7.88116253916E+01	-4.81142515070E+01	7.90999252447E+01	-4.99296887423E-02	-1.80633074114E+01
4.52985000000E+07	-8.62786650522E-03	-1.57270703653E+00	-4.79452850830E+01	7.86958058669E+01	-4.79743440025E+01	7.86299820129E+01	-5.12491735479E-02	-1.84661984655E+01
4.62984666667E+07	-8.95322463648E-03	-1.61032419350E+00	-4.77972444844E+01	7.82684351699E+01	-4.78032468826E+01	7.81025378313E+01	-5.25884749425E-02	-1.88727682909E+01
4.72984333333E+07	-8.81636156987E-03	-1.64274170104E+00	-4.75689817089E+01	7.78467018723E+01	-4.75525127742E+01	7.78233704470E+01	-5.46117450782E-02	-1.92836618627E+01
4.82984000000E+07	-8.36210912555E-03	-1.67956053221E+00	-4.74752757356E+01	7.78461165867E+01	-4.73879622129E+01	7.81150742733E+01	-5.48985227373E-02	-1.96856303250E+01
4.92983666667E+07	-8.34631263426E-03	-1.71776810858E+00	-4.72463809519E+01	7.76416263923E+01	-4.72435993719E+01	7.78040353013E+01	-5.59836311358E-02	-2.00962900863E+01
5.02983333333E+07	-9.38498273164E-03	-1.75672241188E+00	-4.70962575589E+01	7.72413375613E+01	-4.70908155342E+01	7.72934856282E+01	-5.75766020198E-02	-2.04965773350E+01
5.12983000000E+07	-8.09342309453E-03	-1.79266290456E+00	-4.69106901299E+01	7.71834164764E+01	-4.68671184177E+01	7.72916638301E+01	-5.73944866932E-02	-2.09024874109E+01
5.22982666667E+07	-8.84632591847E-03	-1.82350233342E+00	-4.67479481869E+01	7.68525338640E+01	-4.67179472989E+01	7.65742257271E+01	-5.91687321808E-02	-2.13139116809E+01
5.32982333333E+07	-9.30484869414E-03	-1.86245599128E+00	-4.65977212602E+01	7.66300763738E+01	-4.65614010166E+01	7.67152446678E+01	-6.10167882575E-02	-2.17165110971E+01
5.42982000000E+07	-9.77323743651E-03	-1.90104382025E+00	-4.64343625455E+01	7.68033813758E+01	-4.63912085216E+01	7.66810272578E+01	-6.17206538647E-02	-2.21287745754E+01
5.52981666667E+07	-1.04237951532E-02	-1.93652496751E+00	-4.63464855453E+01	7.62637807141E+01	-4.62246269101E+01	7.61059712638E+01	-6.11158603870E-02	-2.25272921121E+01
5.62981333333E+07	-9.98844528286E-03	-1.97858385530E+00	-4.61154911400E+01	7.61887656611E+01	-4.60952789088E+01	7.63412605816E+01	-6.39122433733E-02	-2.29379157143E+01
5.72981000000E+07	-1.00990007938E-02	-2.01191888360E+00	-4.60427609291E+01	7.60706490510E+01	-4.59564862401E+01	7.60284225023E+01	-6.45456867414E-02	-2.33343145467E+01
5.82980666667E+07	-1.04963080892E-02	-2.04567675777E+00	-4.58032284485E+01	7.57002523003E+01	-4.57793705966E+01	7.57429951291E+01	-6.51716565507E-02	-2.37531040779E+01
5.92980333333E+07	-1.05533779958E-02	-2.07569828255E+00	-4.57071915473E+01	7.54718621836E+01	-4.56398862001E+01	7.55386211156E+01	-6.56763025134E-02	-2.41535609802E+01
6.02980000000E+07	-1.16057505108E-02	-2.11216096065E+00	-4.55433214797E+01	7.52007616231E+01	-4.55262584082E+01	7.51767826555E+01	-6.73951589327E-02	-2.45754629106E+01
6.12979666667E+07	-1.14279424228E-02	-2.15125657579E+00	-4.54516817328E+01	7.49074382977E+01	-4.54060808118E+01	7.49581664930E+01	-6.81712986550E-02	-2.49743392687E+01
6.22979333333E+07	-1.28101039114E-02	-2.18412632966E+00	-4.52663314963E+01	7.49692674285E+01	-4.52133960529E+01	7.49463320447E+01	-6.92277358090E-02	-2.53816261873E+01
6.32979000000E+07	-1.30123038143E-02	-2.21607830204E+00	-4.51254293934E+01	7.46768506593E+01	-4.51052167301E+01	7.46078312430E+01	-7.01173679755E-02	-2.57941190744E+01
6.42978666667E+07	-1.21680113694E-02	-2.25768229337E+00	-4.49933116599E+01	7.43284235604E+01	-4.49700221883E+01	7.41623748975E+01	-7.02849113268E-02	-2.61974036519E+01
6.52978333333E+07	-1.26915541669E-02	-2.28731825495E+00	-4.48594592609E+01	7.40645666696E+01	-4.48121506240E+01	7.43472154609E+01	-7.15538466157E-02	-2.66047246314E+01
6.62978000000E+07	-1.36103600150E-02	-2.31315612788E+00	-4.47408805531E+01	7.40066386889E+01	-4.47154416456E+01	7.38180850618E+01	-7.32466661487E-02	-2.70067232446E+01
6.72977666667E+07	-1.36044001772E-02	-2.35460793490E+00	-4.46188249172E+01	7.38872885077E+01	-4.45528845892E+01	7.37034122820E+01	-7.41793403214E-02	-2.74281718300E+01
6.82977333333E+07	-1.22274806459E-02	-2.38214622972E+00	-4.45093428196E+01	7.34641718438E+01	-4.44585596980E+01	7.35842647467E+01	-7.66405441834E-02	-2.78354165900E+01
6.92977000000E+07	-1.15727776741E-02	-2.42242819120E+00	-4.43919483909E+01	7.32738267029E+01	-4.43421818333E+01	7.30625718286E+01	-7.80237721095E-02	-2.82439581215E+01
7.02976666667E+07	-1.32503917757E-02	-2.44602198519E+00	-4.42657113916E+01	7.32796822168E+01	-4.42119582382E+01	7.28511695887E+01	-7.91674432397E-02	-2.86444227799E+01
7.12976333333E+07	-1.22293234339E-02	-2.48068084183E+00	-4.41469172323E+01	7.30848794470E+01	-4.40843736038E+01	7.27091813501E+01	-7.99403242299E-02	-2.90590237470E+01
7.22976000000E+07	-1.30308785683E-02	-2.51831796496E+00	-4.40142004475E+01	7.26524889330E+01	-4.39345076588E+01	7.23228073220E+01	-8.16358409253E-02	-2.94667582338E+01
7.32975666667E+07	-1.16751058129E-02	-2.54873930109E+00	-4.38909414162E+01	7.23581006037E+01	-4.38728442815E+01	7.22337966620E+01	-8.07775178213E-02	-2.98642347526E+01
7.42975333333E+07	-1.34811979540E-02	-2.59323240646E+00	-4.37548591979E+01	7.20324901170E+01	-4.37567341468E+01	7.19787206659E+01	-8.35143333725E-02	-3.02769054077E+01
7.52975000000E+07	-1.23128004951E-02	-2.62325918461E+00	-4.36988308727E+01	7.19634198466E+01	-4.36181140271E+01	7.18523652052E+01	-8.37710161632E-02	-3.06899656578E+01
7.62974666667E+07	-1.16365245889E-02	-2.65334505150E+00	-4.35594414231E+01	7.14550765194E+01	-4.35204178966E+01	7.14544677109E+01	-8.38044581634E-02	-3.10946655557E+01
7.72974333333E+07	-1.25006555304E-02	-2.68866330685E+00	-4.34856488680E+01	7.14586243057E+01	-4.34488310326E+01	7.14005730003E+01	-8.47574831777E-02	-3.15037587084E+01
7.82974000000E+07	-1.20820178319E-02	-2.72834342991E+00	-4.33731608717E+01	7.10330548935E+01	-4.32726824193E+01	7.12557832860E+01	-8.66521544270E-02	-3.18979829842E+01
7.92973666667E+07	-1.17672096356E-02	-2.74424186845E+00	-4.32531246621E+01	7.09023310204E+01	-4.32197657748E+01	7.10575166979E+01	-8.70589786571E-02	-3.23141844348E+01
8.02973333333E+07	-1.19894625799E-02	-2.78658462984E+00	-4.31236195081E+01	7.07447696748E+01	-4.30641554556E+01	7.06270298771E+01	-8.79786031148E-02	-3.27238475009E+01
8.12973000000E+07	-1.33622762800E-02	-2.82914560565E+00	-4.30311744230E+01	7.07314339153E+01	-4.29986372734E+01	7.05326499981E+01	-9.03116087823E-02	-3.31311741564E+01
8.22972666667E+07	-1.06123877256E-02	-2.85432275726E+00	-4.29046938396E+01	7.04194947447E+01	-4.28824611604E+01	7.03264990892E+01	-9.09709109839E-02	-3.35351961869E+01
8.32972333333E+07	-1.30021527021E-02	-2.91207260379E+00	-4.27973423530E+01	7.01925434609E+01	-4.27967993070E+01	7.01429640131E+01	-9.24351320932E-02	-3.39412826997E+01
8.42972000000E+07	-1.17437222845E-02	-2.93512712599E+00	-4.27272112548E+01	7.01285038189E+01	-4.26684226241E+01	7.00612891804E+01	-9.44605199845E-02	-3.43451226531E+01
8.52971666667E+07	-1.36181018440E-02	-2.97153555581E+00	-4.26418188483E+01	6.95537633234E+01	-4.25496294703E+01	6.97918450355E+01	-9.64106448692E-02	-3.47551508310E+01
8.62971333333E+07	-1.19747361056E-02	-3.01697305012E+00	-4.25135860149E+01	6.95803665660E+01	-4.24476192309E+01	6.98453651696E+01	-9.67100692043E-02	-3.51403953789E+01
8.72971000000E+07	-1.06953766676E-02	-3.05263634521E+00	-4.24230297425E+01	6.94088631349E+01	-4.23979542373E+01	6.94085106790E+01	-9.79360673025E-02	-3.55597863978E+01
8.82970666667E+07	-1.21872412751E-02	-3.07323412284E+00	-4.23202551181E+01	6.92431227165E+01	-4.22673712182E+01	6.92338530316E+01	-1.00575474391E-01	-3.59535151607E+01
8.92970333333E+07	-1.06339998735E-02	-3.11967832900E+00	-4.22334225578E+01	6.89250401581E+01	-4.21935172394E+01	6.88836062360E+01	-1.00197990118E-01	-3.63565419806E+01
9.02970000000E+07	-1.12248528799E-02	-3.15755844610E+00	-4.21439479286E+01	6.86950616150E+01	-4.20951923513E+01	6.86810927613E+01	-1.02299870728E-01	-3.67682698187E+01
9.12969666667E+07	-1.04666510394E-02	-3.19358098350E+00	-4.20327671192E+01	6.84304284175E+01	-4.20353324738E+01	6.84783093243E+01	-1.03766405876E-01	-3.71622371178E+01
9.22969333333E+07	-1.20959034295E-02	-3.21573355456E+00	-4.19472214989E+01	6.82484314847E+01	-4.19334131627E+01	6.81169335375E+01	-1.02198988518E-01	-3.75685961725E+01
9.32969000000E+07	-1.04229436297E-02	-3.25689717712E+00	-4.18591762337E+01	6.78721323224E+01	-4.18299499675E+01	6.79733318065E+01	-1.04242726069E-01	-3.79672212686E+01
9.42968666667E+07	-1.20242341468E-02	-3.29985410434E+00	-4.17685486404E+01	6.76667068291E+01	-4.17475067932E+01	6.76435160657E+01	-1.04670185015E-01	-3.83766969125E+01
9.52968333333E+07	-1.15678551622E-02	-3.33652004527E+00	-4.16858466001E+01	6.75172503458E+01	-4.16160426502E+01	6.75323873037E+01	-1.06171307907E-01	-3.87718833318E+01
9.62968000000E+07	-1.06171360633E-02	-3.36490696185E+00	-4.16272062967E+01	6.72465673913E+01	-4.15438944108E+01	6.72680008297E+01	-1.08724233031E-01	-3.91817079833E+01
9.72967666667E+07	-1.19230520606E-02	-3.40506851733E+00	-4.15332660818E+01	6.72117626327E+01	-4.14472412164E+01	6.68920549541E+01	-1.11121072088E-01	-3.95899992561E+01
9.82967333333E+07	-1.15595862300E-02	-3.44027517279E+00	-4.13961392885E+01	6.68293048589E+01	-4.13845444798E+01	6.67648760734E+01	-1.11587287411E-01	-3.99946954478E+01
9.92967000000E+07	-9.28203042836E-03	-3.47390861690E+00	-4.13283062511E+01	6.67265186883E+01	-4.13312419609E+01	6.64797871494E+01	-1.11885257902E-01	-4.03932371307E+01
1.00296666667E+08	-1.22146732659E-02	-3.50214436330E+00	-4.12363203753E+01	6.64874742395E+01	-4.12166510413E+01	6.64921812219E+01	-1.13267660610E-01	-4.08011707313E+01
1.01296633333E+08	-1.08895008932E-02	-3.54968069832E+00	-4.11801368753E+01	6.62203458871E+01	-4.11386904359E+01	6.60866840795E+01	-1.13557505086E-01	-4.11932671251E+01
1.02296600000E+08	-9.19828057636E-03	-3.57629496402E+00	-4.10712300106E+01	6.61506021625E+01	-4.10288840116E+01	6.58079371998E+01	-1.15136677074E-01	-4.16081821983E+01
1.03296566667E+08	-1.04595452928E-02	-3.61371005037E+00	-4.10119536927E+01	6.58673887855E+01	-4.09723107041E+01	6.60223712732E+01	-1.17482572809E-01	-4.19997356314E+01
1.04296533333E+08	-1.13078998446E-02	-3.64990946670E+00	-4.09133658113E+01	6.56750025653E+01	-4.09007125268E+01	6.55947295121E+01	-1.17318605859E-01	-4.24125292530E+01
1.05296500000E+08	-1.08283610254E-02	-3.68169021320E+00	-4.08733362911E+01	6.53242501544E+01	-4.07963075338E+01	6.53579913450E+01	-1.19055748644E-01	-4.28120151255E+01
1.06296466667E+08	-1.06989069244E-02	-3.71072526806E+00	-4.07790304775E+01	6.50154911128E+01	-4.07377367295E+01	6.51504784095E+01	-1.20712417294E-01	-4.32110317642E+01
1.07296433333E+08	-1.05874225934E-02	-3.75293190032E+00	-4.06859826392E+01	6.50967116465E+01	-4.06508049689E+01	6.48308890885E+01	-1.21133574522E-01	-4.36173225561E+01
1.08296400000E+08	-9.57152039663E-03	-3.78135676693E+00	-4.06105777391E+01	6.47687974032E+01	-4.06277180347E+01	6.47767251167E+01	-1.23271292989E-01	-4.40220418189E+01
1.09296366667E+08	-9.84847509160E-03	-3.81877509184E+00	-4.05365851308E+01	6.44607838802E+01	-4.05206235136E+01	6.45478570597E+01	-1.24429981323E-01	-4.44216946046E+01
1.10296333333E+08	-1.05774051426E-02	-3.85115838075E+00	-4.04753544488E+01	6.43092512342E+01	-4.04416727157E+01	6.43108652233E+01	-1.25185878323E-01	-4.48220275287E+01
1.11296300000E+08	-1.13153678892E-02	-3.88883000645E+00	-4.04048173331E+01	6.41047782645E+01	-4.03612927475E+01	6.39027711574E+01	-1.25932030083E-01	-4.52296643087E+01
1.12296266667E+08	-1.02114875846E-02	-3.91541150999E+00	-4.03308248777E+01	6.36514078107E+01	-4.03174120568E+01	6.36935980122E+01	-1.27653704059E-01	-4.56279788860E+01
1.13296233333E+08	-1.06557171315E-02	-3.95371390282E+00	-4.02289990906E+01	6.34267726027E+01	-4.02337257297E+01	6.37460074723E+01	-1.28956903964E-01	-4.60203184530E+01
1.14296200000E+08	-1.13622595460E-02	-3.98302388398E+00	-4.01588299964E+01	6.34147884781E+01	-4.01132590517E+01	6.34454880387E+01	-1.30096979525E-01	-4.64279704703E+01
1.15296166667E+08	-1.15278084908E-02	-4.00888652231E+00	-4.01073128974E+01	6.32280116255E+01	-4.00893935385E+01	6.32805166077E+01	-1.30709908420E-01	-4.68287607017E+01
1.16296133333E+08	-1.17289882113E-02	-4.04950180013E+00	-4.00169166928E+01	6.31084135094E+01	-3.99983355708E+01	6.29759208568E+01	-1.33033341839E-01	-4.72264929134E+01
