# Hz S DB R 50
! CMT, C1420, 19038819, 22.4.2/3
! Date: 2023-03-14 09:45:35
! Data: Format (Calibration Info)
! Freq	S11:dB/Ang(F2)	S21:dB/Ang(F2)	S12:dB/Ang(F2)	S22:dB/Ang(F2)
3.00000000000E+05	-4.35515179064E-02	-2.10108531264E-01	-7.15097863171E+01	-9.83796017376E+01	-7.27916689377E+01	1.04039541711E+02	-4.84186436881E-02	-6.01569484513E-01
1.29996666667E+06	-1.26886040308E-02	-7.43774237448E-02	-6.42180146626E+01	3.02257424924E+01	-7.37758532221E+01	8.97431035724E+01	-5.46602312230E-02	-1.78193361606E+00
2.29993333333E+06	-1.68054542875E-02	-1.45586025030E-01	-6.44517197886E+01	4.89464092443E+01	-7.04765766304E+01	6.58486254354E+01	-1.12576786148E-01	-2.98418117061E+00
3.29990000000E+06	-1.18033282981E-02	-1.98419745202E-01	-6.44015347561E+01	9.43757430874E+01	-6.58157484918E+01	8.71885653341E+01	-1.53249378966E-01	-3.97552705610E+00
4.29986666667E+06	-7.45444886866E-03	-2.86910545860E-01	-6.41045360774E+01	9.05392551095E+01	-6.34166828798E+01	9.75027452397E+01	-2.21854257389E-01	-5.06784240940E+00
5.29983333333E+06	-1.25691684176E-02	-4.16990790224E-01	-5.92778294177E+01	8.04239057637E+01	-6.00150342325E+01	8.40860411912E+01	-2.23352503298E-01	-5.89055061458E+00
6.29980000000E+06	-1.40683907458E-02	-4.67953378095E-01	-5.98930266763E+01	7.43942945701E+01	-5.94486432713E+01	8.23070308084E+01	-2.74115946356E-01	-6.93040753630E+00
7.29976666667E+06	-1.55862427867E-02	-5.23159462310E-01	-5.89183334187E+01	8.13909699406E+01	-5.89028510950E+01	8.20478239705E+01	-3.27017768336E-01	-7.83011615557E+00
8.29973333333E+06	-1.32885109084E-02	-5.81383168660E-01	-5.71719601303E+01	8.14377022306E+01	-5.82605881488E+01	8.72535681031E+01	-3.78026250041E-01	-8.70377048153E+00
9.29970000000E+06	-1.20241642093E-02	-6.57944183152E-01	-5.65267168103E+01	8.33564903347E+01	-5.73394705527E+01	8.71264265838E+01	-4.33081770472E-01	-9.54972348802E+00
1.02996666667E+07	1.08857461307E-02	-5.96330786998E-01	-5.58003451476E+01	9.16592408314E+01	-5.68909573459E+01	8.92917572205E+01	-5.16270558085E-01	-1.04323201865E+01
1.12996333333E+07	-1.73496532558E-02	-8.03415735973E-01	-5.50301471278E+01	9.59551087090E+01	-5.60257463967E+01	9.98100480213E+01	-5.77945911866E-01	-1.11321545257E+01
1.22996000000E+07	-1.87444595124E-02	-8.60736158885E-01	-5.23544741737E+01	1.08099422705E+02	-5.34151148446E+01	1.03227695089E+02	-6.37076460892E-01	-1.14047326871E+01
1.32995666667E+07	-2.23808630811E-02	-9.32888543451E-01	-5.28358102500E+01	1.03367802304E+02	-5.41820639663E+01	1.05210854357E+02	-6.98855095065E-01	-1.25415220820E+01
1.42995333333E+07	-2.11689572251E-02	-9.85486125567E-01	-4.93820044497E+01	9.35691640331E+01	-5.06245695765E+01	9.39709733206E+01	-6.47717391322E-01	-1.22121795099E+01
1.52995000000E+07	-1.91436452199E-02	-1.04536484856E+00	-4.96599285580E+01	8.47315719563E+01	-5.04825878981E+01	8.78076897154E+01	-6.23295188237E-01	-1.32023286760E+01
1.62994666667E+07	-2.04804967451E-02	-1.13077469049E+00	-4.93626703692E+01	8.27368462725E+01	-5.03199839286E+01	8.47197106270E+01	-6.44209425009E-01	-1.40956052418E+01
1.72994333333E+07	-2.26880792443E-02	-1.17567217562E+00	-4.91590363068E+01	8.33132114803E+01	-5.01416361725E+01	8.29560262112E+01	-6.69706815865E-01	-1.49799169943E+01
1.82994000000E+07	-2.63999322882E-02	-1.25998014121E+00	-4.89200557255E+01	8.15533813962E+01	-5.02024149950E+01	8.36394252830E+01	-7.13095984278E-01	-1.58115265869E+01
1.92993666667E+07	-2.42626481682E-02	-1.32463404393E+00	-4.89771889813E+01	7.91422370878E+01	-4.92149727225E+01	8.51608025516E+01	-7.58492629435E-01	-1.62703164321E+01
2.02993333333E+07	-3.03095349939E-02	-1.36648492546E+00	-4.87754654826E+01	8.10344772184E+01	-4.91828454392E+01	8.06347367179E+01	-7.52601503124E-01	-1.72208346490E+01
2.12993000000E+07	-2.90899936144E-02	-1.43302213762E+00	-4.88242412343E+01	8.27204708010E+01	-4.93120662435E+01	8.08936685697E+01	-8.00585231092E-01	-1.81361058801E+01
2.22992666667E+07	-2.95141719705E-02	-1.50499200406E+00	-4.83434962102E+01	8.58650689267E+01	-4.93016094219E+01	8.30936405995E+01	-8.60375269560E-01	-1.89306533310E+01
2.32992333333E+07	-3.12819512929E-02	-1.55195581292E+00	-4.80493847176E+01	8.80943319116E+01	-4.90701185750E+01	8.50967762526E+01	-9.14640798718E-01	-1.96350615898E+01
2.42992000000E+07	-3.47652826036E-02	-1.63584221766E+00	-4.74752870685E+01	9.33434912381E+01	-4.89550617627E+01	8.83378631525E+01	-9.82677723745E-01	-2.03861217328E+01
2.52991666667E+07	-3.57626551866E-02	-1.68542664830E+00	-4.72607402705E+01	9.59411238689E+01	-4.85217302791E+01	9.36083809632E+01	-1.07743227983E+00	-2.09822909600E+01
2.62991333333E+07	-4.11716939619E-02	-1.74599145075E+00	-4.61284957359E+01	9.90033231839E+01	-4.72473176827E+01	9.86272906382E+01	-1.17720267577E+00	-2.11653672248E+01
2.72991000000E+07	-3.68753268588E-02	-1.80505115948E+00	-4.40449206786E+01	9.78666306394E+01	-4.54214834845E+01	9.46692968872E+01	-1.16660579875E+00	-2.08037104798E+01
2.82990666667E+07	-4.08170387208E-02	-1.86282156321E+00	-4.40419497212E+01	8.47907068369E+01	-4.52738497409E+01	8.69123942428E+01	-1.07665050707E+00	-2.15886035832E+01
2.92990333333E+07	-4.13730685770E-02	-1.93267883151E+00	-4.40651237709E+01	8.54173102441E+01	-4.53250492548E+01	8.62075878401E+01	-1.09974041154E+00	-2.24576461012E+01
3.02990000000E+07	-4.34799707120E-02	-2.00738860973E+00	-4.37606228912E+01	8.49565075893E+01	-4.50634183357E+01	8.56559354786E+01	-1.12457346221E+00	-2.30440670387E+01
3.12989666667E+07	-4.71682846058E-02	-2.05196868471E+00	-4.34320966923E+01	8.31902839721E+01	-4.48141907773E+01	8.39414676958E+01	-1.12791215203E+00	-2.36990987629E+01
3.22989333333E+07	-4.61141878021E-02	-2.10386683855E+00	-4.34571834894E+01	8.06675199776E+01	-4.46699849281E+01	8.27700514503E+01	-1.13688359039E+00	-2.44147056444E+01
3.32989000000E+07	-5.04803187697E-02	-2.16385956403E+00	-4.35408958787E+01	7.96592539443E+01	-4.46685011431E+01	8.19696989350E+01	-1.15892919956E+00	-2.52033467939E+01
3.42988666667E+07	-5.12768477335E-02	-2.20842213115E+00	-4.34489771013E+01	7.92795266923E+01	-4.46950062065E+01	8.19299053506E+01	-1.19521562158E+00	-2.59822208830E+01
3.52988333333E+07	-5.28033130383E-02	-2.28994269627E+00	-4.34970681156E+01	8.02983446938E+01	-4.45713231106E+01	8.27128831487E+01	-1.24031260783E+00	-2.67057923228E+01
3.62988000000E+07	-5.31770274702E-02	-2.34749884234E+00	-4.34106370621E+01	8.21669751418E+01	-4.43516480022E+01	8.45246533600E+01	-1.29823611681E+00	-2.73069087199E+01
3.72987666667E+07	-5.68591405891E-02	-2.39055005257E+00	-4.31457211752E+01	8.37864368037E+01	-4.38978963902E+01	8.45110076580E+01	-1.33423743864E+00	-2.76859336335E+01
3.82987333333E+07	-5.74478004210E-02	-2.46296558166E+00	-4.29556945530E+01	8.67606856900E+01	-4.37253986429E+01	8.75760304074E+01	-1.42333276567E+00	-2.83378561137E+01
3.92987000000E+07	-5.89372031301E-02	-2.51947984773E+00	-4.17395797900E+01	8.73526713712E+01	-4.24484465171E+01	8.48623416850E+01	-1.39644987536E+00	-2.79651812166E+01
4.02986666667E+07	-6.07471127813E-02	-2.56516290709E+00	-4.16567677080E+01	8.09374952372E+01	-4.27524231956E+01	7.87298554383E+01	-1.30237801475E+00	-2.91041910023E+01
4.12986333333E+07	-6.16278397955E-02	-2.62249067368E+00	-4.19552959135E+01	7.82628681450E+01	-4.32288463916E+01	7.87779294335E+01	-1.34263819145E+00	-3.02881724101E+01
4.22986000000E+07	-6.42712434419E-02	-2.68819334403E+00	-4.23359189972E+01	7.97787958461E+01	-4.34280411064E+01	8.10895218746E+01	-1.41898364297E+00	-3.11815786533E+01
4.32985666667E+07	-6.65225859828E-02	-2.74236685290E+00	-4.23892067215E+01	8.26779010384E+01	-4.34329698940E+01	8.36803366956E+01	-1.50230191444E+00	-3.19217947715E+01
4.42985333333E+07	-6.75043173070E-02	-2.80655646537E+00	-4.21227200162E+01	8.57573859688E+01	-4.32027848197E+01	8.67142562267E+01	-1.58917739307E+00	-3.25154270449E+01
4.52985000000E+07	-6.97920596363E-02	-2.85919804602E+00	-4.18255942317E+01	8.83810894549E+01	-4.29053177289E+01	8.94435061836E+01	-1.68039516202E+00	-3.30176317027E+01
4.62984666667E+07	-7.20002338520E-02	-2.91796493054E+00	-4.13083249152E+01	9.11406953843E+01	-4.23932351277E+01	9.22758965885E+01	-1.78032183258E+00	-3.33735507860E+01
4.72984333333E+07	-7.29832339744E-02	-2.97039419196E+00	-4.06176224919E+01	9.30646463522E+01	-4.17328920351E+01	9.43883644052E+01	-1.87619226189E+00	-3.35118000072E+01
4.82984000000E+07	-7.47632872351E-02	-3.03269265312E+00	-3.98738289967E+01	9.37613455897E+01	-4.09987859720E+01	9.49018080958E+01	-1.94743212065E+00	-3.34809661359E+01
4.92983666667E+07	-7.73015296703E-02	-3.08003638907E+00	-3.90892547336E+01	9.30113597904E+01	-4.02389020615E+01	9.44474212212E+01	-1.99202466381E+00	-3.32974055237E+01
5.02983333333E+07	-7.97374331627E-02	-3.13914835475E+00	-3.84445738450E+01	9.06589417347E+01	-3.95982177113E+01	9.23620632046E+01	-1.97996488621E+00	-3.31418353605E+01
5.12983000000E+07	-8.03385513890E-02	-3.19671570145E+00	-3.80047094315E+01	8.90551013833E+01	-3.91109074280E+01	9.04974203525E+01	-1.96699314667E+00	-3.31900078881E+01
5.22982666667E+07	-8.18875404401E-02	-3.24678350873E+00	-3.75155280988E+01	8.63439045346E+01	-3.86271443526E+01	8.81315184093E+01	-1.92703044801E+00	-3.31555192873E+01
5.32982333333E+07	-8.36893742798E-02	-3.30140873528E+00	-3.71917506883E+01	8.36581635319E+01	-3.82844619868E+01	8.54837250521E+01	-1.86571548181E+00	-3.33527868045E+01
5.42982000000E+07	-8.53712247673E-02	-3.35723934700E+00	-3.70350526851E+01	8.10021215142E+01	-3.81576739934E+01	8.27081056131E+01	-1.80607589206E+00	-3.38741597427E+01
5.52981666667E+07	-8.74704767897E-02	-3.40913593897E+00	-3.68861788285E+01	7.98127720103E+01	-3.80129675156E+01	8.14851385792E+01	-1.79283342119E+00	-3.43772554503E+01
5.62981333333E+07	-8.78846182147E-02	-3.46890614338E+00	-3.66618436779E+01	7.73323324183E+01	-3.77569207865E+01	7.93124783402E+01	-1.74146709798E+00	-3.47297984101E+01
5.72981000000E+07	-9.08680124966E-02	-3.51721926696E+00	-3.65978617972E+01	7.56267716786E+01	-3.77294530503E+01	7.76713639473E+01	-1.71203215240E+00	-3.54407304819E+01
5.82980666667E+07	-9.13092803643E-02	-3.57216607751E+00	-3.65563162029E+01	7.51779453577E+01	-3.76391406431E+01	7.72426944238E+01	-1.72704599320E+00	-3.60251524133E+01
5.92980333333E+07	-9.34578493292E-02	-3.62599962371E+00	-3.63003373730E+01	7.42472436313E+01	-3.73981030112E+01	7.66005342805E+01	-1.72569985339E+00	-3.63208673716E+01
6.02980000000E+07	-9.56915750779E-02	-3.67706695714E+00	-3.60629260560E+01	7.22794752388E+01	-3.71055873705E+01	7.51345339132E+01	-1.69038598290E+00	-3.66086344280E+01
6.12979666667E+07	-9.64296645652E-02	-3.72598703645E+00	-3.60057779469E+01	7.05291605197E+01	-3.70367187271E+01	7.28309591648E+01	-1.62897174859E+00	-3.72260849005E+01
6.22979333333E+07	-9.88247622336E-02	-3.77811417884E+00	-3.59027262294E+01	6.88804394444E+01	-3.69530993643E+01	7.12005355163E+01	-1.59156147107E+00	-3.78446231155E+01
6.32979000000E+07	-9.98972648554E-02	-3.83437839347E+00	-3.59222279470E+01	6.71898411774E+01	-3.69471750301E+01	6.94237932549E+01	-1.55460590577E+00	-3.86348637664E+01
6.42978666667E+07	-1.00627430110E-01	-3.89560553601E+00	-3.59261050838E+01	6.62896563695E+01	-3.69681415777E+01	6.84845280258E+01	-1.55228794461E+00	-3.93827445511E+01
6.52978333333E+07	-1.02414563275E-01	-3.93766871626E+00	-3.59271531282E+01	6.55828876254E+01	-3.69372777754E+01	6.78667520763E+01	-1.55273834525E+00	-4.00582308501E+01
6.62978000000E+07	-1.05137658149E-01	-3.99096186023E+00	-3.59100967052E+01	6.50016686626E+01	-3.69265901860E+01	6.73894337254E+01	-1.56141491803E+00	-4.07306364004E+01
6.72977666667E+07	-1.05986308437E-01	-4.04645377276E+00	-3.58326413659E+01	6.44364774529E+01	-3.68379840816E+01	6.65732775593E+01	-1.56029166424E+00	-4.13154783906E+01
6.82977333333E+07	-1.07047339407E-01	-4.08765366876E+00	-3.58575460176E+01	6.40902502191E+01	-3.68577252152E+01	6.63764202887E+01	-1.57927562026E+00	-4.20168744557E+01
6.92977000000E+07	-1.07391210792E-01	-4.15572732239E+00	-3.57403183984E+01	6.40050382857E+01	-3.67396696262E+01	6.64977652942E+01	-1.60056744566E+00	-4.24987921271E+01
7.02976666667E+07	-1.10238948484E-01	-4.19894503670E+00	-3.55961344756E+01	6.37160748110E+01	-3.65816031712E+01	6.59711895465E+01	-1.60932580129E+00	-4.29116513030E+01
7.12976333333E+07	-1.09498411366E-01	-4.24282514531E+00	-3.54864603280E+01	6.26230462421E+01	-3.64502762368E+01	6.49073333653E+01	-1.58645155916E+00	-4.34113080789E+01
7.22976000000E+07	-1.13076268423E-01	-4.28352991708E+00	-3.54030564808E+01	6.18255658156E+01	-3.63669718859E+01	6.43013930651E+01	-1.58162123849E+00	-4.39581367171E+01
7.32975666667E+07	-1.10955332958E-01	-4.33889495674E+00	-3.53373966846E+01	6.10511346337E+01	-3.62921231931E+01	6.33517960246E+01	-1.56884096102E+00	-4.45403026746E+01
7.42975333333E+07	-1.13646326777E-01	-4.40613476875E+00	-3.53451947802E+01	6.03770444711E+01	-3.62849845374E+01	6.25533380602E+01	-1.56224839286E+00	-4.52328302988E+01
7.52975000000E+07	-1.14710618918E-01	-4.45407762999E+00	-3.53280107072E+01	6.02359974413E+01	-3.62737160109E+01	6.23341693268E+01	-1.58149331326E+00	-4.58882293904E+01
7.62974666667E+07	-1.16621710941E-01	-4.50678079525E+00	-3.52452169404E+01	6.01674944358E+01	-3.61845528824E+01	6.21898466027E+01	-1.59417023108E+00	-4.64069061922E+01
7.72974333333E+07	-1.18918666011E-01	-4.54779405974E+00	-3.51462492891E+01	6.00585173032E+01	-3.60955891732E+01	6.20974048879E+01	-1.60755019656E+00	-4.69017368310E+01
7.82974000000E+07	-1.19262227925E-01	-4.60331220100E+00	-3.49810037551E+01	5.95048535000E+01	-3.59491207768E+01	6.18779078055E+01	-1.61325446737E+00	-4.72924490016E+01
7.92973666667E+07	-1.20979585583E-01	-4.65095823444E+00	-3.48523859732E+01	5.86147679557E+01	-3.57950089413E+01	6.09885246721E+01	-1.59181745630E+00	-4.77272694392E+01
8.02973333333E+07	-1.23589124180E-01	-4.69351417058E+00	-3.47855627594E+01	5.79029018150E+01	-3.57384473272E+01	6.00619333693E+01	-1.58108904647E+00	-4.83165667080E+01
8.12973000000E+07	-1.23723037021E-01	-4.75781934501E+00	-3.47348259197E+01	5.73140144154E+01	-3.56820434781E+01	5.93941811655E+01	-1.57415140551E+00	-4.88788811603E+01
8.22972666667E+07	-1.23312983687E-01	-4.81167201011E+00	-3.46737573084E+01	5.66863318489E+01	-3.56353597551E+01	5.89243109914E+01	-1.57017058636E+00	-4.94521662601E+01
8.32972333333E+07	-1.25989271079E-01	-4.85211955464E+00	-3.45974715882E+01	5.61813042226E+01	-3.55476003942E+01	5.84984108344E+01	-1.57247610070E+00	-4.99950454547E+01
8.42972000000E+07	-1.27315268160E-01	-4.91470543047E+00	-3.45005487834E+01	5.56500721021E+01	-3.54670410041E+01	5.78495536522E+01	-1.56623649548E+00	-5.04949203399E+01
8.52971666667E+07	-1.27645196688E-01	-4.97412669684E+00	-3.44455952417E+01	5.48758731227E+01	-3.53716104383E+01	5.71865444896E+01	-1.55694281877E+00	-5.10164495311E+01
8.62971333333E+07	-1.28454965697E-01	-5.02399967599E+00	-3.43800903081E+01	5.41158169628E+01	-3.53074355639E+01	5.64746607687E+01	-1.54359297223E+00	-5.15547362933E+01
8.72971000000E+07	-1.28041987095E-01	-5.08059509445E+00	-3.43433883366E+01	5.33533042960E+01	-3.52671191717E+01	5.56005855937E+01	-1.52785672672E+00	-5.21679862962E+01
8.82970666667E+07	-1.32107609364E-01	-5.12015778015E+00	-3.43167896071E+01	5.26862094018E+01	-3.52645255871E+01	5.49653164859E+01	-1.51967831693E+00	-5.28244045838E+01
8.92970333333E+07	-1.29468197661E-01	-5.17663964699E+00	-3.43209366663E+01	5.21590630605E+01	-3.52473826275E+01	5.43305926321E+01	-1.51911907389E+00	-5.34562797335E+01
9.02970000000E+07	-1.32771117426E-01	-5.23315268906E+00	-3.43087744932E+01	5.16351113256E+01	-3.52522661322E+01	5.39894460937E+01	-1.52379733070E+00	-5.41071513141E+01
9.12969666667E+07	-1.33042040901E-01	-5.28372325483E+00	-3.43188520786E+01	5.14020400562E+01	-3.52376294976E+01	5.37278118153E+01	-1.53408437086E+00	-5.47255582573E+01
9.22969333333E+07	-1.35690990860E-01	-5.32123358106E+00	-3.42839047493E+01	5.11707265041E+01	-3.52178006160E+01	5.35190292692E+01	-1.54533372570E+00	-5.53127537101E+01
9.32969000000E+07	-1.36239300395E-01	-5.37221265046E+00	-3.42353098052E+01	5.09456541505E+01	-3.51632006700E+01	5.34206605625E+01	-1.55304180925E+00	-5.58606454256E+01
9.42968666667E+07	-1.38790222428E-01	-5.43423643046E+00	-3.42018826307E+01	5.07521100247E+01	-3.51297249539E+01	5.30401643610E+01	-1.56065728163E+00	-5.64225762142E+01
9.52968333333E+07	-1.38986671634E-01	-5.48254550580E+00	-3.41624609023E+01	5.04896832176E+01	-3.50864465721E+01	5.28324322762E+01	-1.57014979814E+00	-5.69239943429E+01
9.62968000000E+07	-1.38784374602E-01	-5.54025270217E+00	-3.40998108905E+01	5.01033310656E+01	-3.49977649223E+01	5.25229175804E+01	-1.57276312929E+00	-5.74272620988E+01
9.72967666667E+07	-1.40829337424E-01	-5.58889592449E+00	-3.40626848297E+01	4.97038559870E+01	-3.49647126199E+01	5.20672045930E+01	-1.57106501792E+00	-5.79658943328E+01
9.82967333333E+07	-1.41755269947E-01	-5.63308390199E+00	-3.40266971745E+01	4.93305099477E+01	-3.49351535502E+01	5.16350026360E+01	-1.57123882386E+00	-5.85327059527E+01
9.92967000000E+07	-1.41167576464E-01	-5.68026665934E+00	-3.39920577244E+01	4.91230484821E+01	-3.48887809255E+01	5.14761962937E+01	-1.57648090858E+00	-5.90821423015E+01
1.00296666667E+08	-1.44160739271E-01	-5.73635004558E+00	-3.39561256043E+01	4.89038293021E+01	-3.48450324499E+01	5.12463647629E+01	-1.58128588739E+00	-5.96167883574E+01
1.01296633333E+08	-1.44007552912E-01	-5.78848818099E+00	-3.39050285399E+01	4.85876259483E+01	-3.48163217120E+01	5.08970753036E+01	-1.58341660929E+00	-6.01522665199E+01
1.02296600000E+08	-1.45176252698E-01	-5.83379494804E+00	-3.38708508711E+01	4.84087173014E+01	-3.47525708207E+01	5.05746959735E+01	-1.58927908830E+00	-6.06992532684E+01
1.03296566667E+08	-1.46342131848E-01	-5.88399465058E+00	-3.38246486069E+01	4.80258458728E+01	-3.47212415958E+01	5.02586350824E+01	-1.59005852645E+00	-6.12195670242E+01
1.04296533333E+08	-1.48480607241E-01	-5.94076957071E+00	-3.37974564060E+01	4.75721635028E+01	-3.46984630017E+01	4.99104339973E+01	-1.59213432736E+00	-6.18126268849E+01
1.05296500000E+08	-1.49002637440E-01	-5.99069587057E+00	-3.38104362822E+01	4.74703427500E+01	-3.46692784216E+01	4.96908551617E+01	-1.60195988142E+00	-6.23852754962E+01
1.06296466667E+08	-1.49315728884E-01	-6.03560549920E+00	-3.37806881532E+01	4.73805586808E+01	-3.46878907828E+01	4.97615402887E+01	-1.61769718860E+00	-6.29443849677E+01
1.07296433333E+08	-1.52106944023E-01	-6.08225874964E+00	-3.37345478862E+01	4.75616081656E+01	-3.46142229979E+01	4.98191257014E+01	-1.63918667834E+00	-6.34488612349E+01
1.08296400000E+08	-1.51583702635E-01	-6.12978383885E+00	-3.36729305563E+01	4.75276094486E+01	-3.45433718201E+01	4.97989343221E+01	-1.65358131692E+00	-6.38767516212E+01
1.09296366667E+08	-1.52885534865E-01	-6.18229248113E+00	-3.35856032325E+01	4.74041307225E+01	-3.44519482768E+01	4.96417071092E+01	-1.65811022847E+00	-6.43041561038E+01
1.10296333333E+08	-1.53890246773E-01	-6.23063393833E+00	-3.34979501174E+01	4.71602404921E+01	-3.43783072516E+01	4.94142917893E+01	-1.66210988081E+00	-6.47454221793E+01
1.11296300000E+08	-1.55164180612E-01	-6.27934015172E+00	-3.34264785353E+01	4.69218976808E+01	-3.43124974325E+01	4.91826486644E+01	-1.66312390097E+00	-6.51990926604E+01
1.12296266667E+08	-1.56220040033E-01	-6.32323390553E+00	-3.33480137520E+01	4.67049967879E+01	-3.42220903119E+01	4.89159823966E+01	-1.66762124446E+00	-6.56351944072E+01
1.13296233333E+08	-1.57527860117E-01	-6.37408888456E+00	-3.32684043352E+01	4.64334875894E+01	-3.41226073542E+01	4.86569491606E+01	-1.66166120682E+00	-6.60580220284E+01
1.14296200000E+08	-1.59592258448E-01	-6.41842573136E+00	-3.31849571999E+01	4.60337379177E+01	-3.40630889669E+01	4.81526905910E+01	-1.65350128080E+00	-6.65001849730E+01
1.15296166667E+08	-1.59105864282E-01	-6.45961410428E+00	-3.31326477629E+01	4.54123210358E+01	-3.40015909751E+01	4.76584573964E+01	-1.64147530146E+00	-6.69938609272E+01
1.16296133333E+08	-1.60653436531E-01	-6.51193349520E+00	-3.30969138284E+01	4.48660246622E+01	-3.39532116360E+01	4.72275958670E+01	-1.63377313801E+00	-6.74939169953E+01
