# Hz S DB R 50
! CMT, C1420, 19038819, 22.4.2/3
! Date: 2023-03-14 09:45:42
! Data: Format (Calibration Info)
! Freq	S11:dB/Ang(F2)	S21:dB/Ang(F2)	S12:dB/Ang(F2)	S22:dB/Ang(F2)
3.00000000000E+05	-5.01381186597E-02	-2.31966160087E-01	-7.10850836566E+01	-9.32999344657E+01	-7.74080659047E+01	7.73456326801E+01	-5.46604516044E-02	-6.89968175462E-01
1.29996666667E+06	-1.03218514966E-02	-2.02012809558E-02	-6.77273706752E+01	6.66206918664E+01	-7.63099548740E+01	7.22819244989E+01	-7.74546337252E-02	-1.93383518830E+00
2.29993333333E+06	-1.89472197075E-02	-8.88336643746E-02	-6.85425596719E+01	1.15824023281E+02	-7.18184252378E+01	8.38749340117E+01	-1.34330963304E-01	-3.15257084305E+00
3.29990000000E+06	-9.09455399990E-03	-1.07998668397E-01	-6.70991367748E+01	7.32573555136E+01	-6.94836161819E+01	9.07991350443E+01	-1.85767925852E-01	-4.16942415557E+00
4.29986666667E+06	-2.31851152895E-03	-1.82637074386E-01	-6.92425703128E+01	8.94528191090E+01	-6.88770295144E+01	7.20068219668E+01	-2.59954203542E-01	-5.20336854785E+00
5.29983333333E+06	-7.52694836733E-03	-2.76728742142E-01	-6.53368052314E+01	8.70922182097E+01	-6.65129453532E+01	9.07978091675E+01	-2.76444335631E-01	-6.09691859212E+00
6.29980000000E+06	-9.79279257322E-03	-2.91036647085E-01	-6.17638132594E+01	7.21878031888E+01	-6.49839598296E+01	8.57828057848E+01	-3.27640454706E-01	-7.10444796454E+00
7.29976666667E+06	-1.34565536008E-02	-3.31632312062E-01	-6.22488704685E+01	7.93422576978E+01	-6.37862259345E+01	8.16762799535E+01	-3.82817152831E-01	-7.99410078429E+00
8.29973333333E+06	-7.07205690413E-03	-3.59582851385E-01	-6.28367886024E+01	7.97178251702E+01	-6.30745347963E+01	8.79795879522E+01	-4.39519596405E-01	-8.81920389186E+00
9.29970000000E+06	-9.35429449743E-03	-4.25014899066E-01	-6.02161630972E+01	8.49714993289E+01	-6.21260918817E+01	8.47085676553E+01	-4.90814714668E-01	-9.66542744000E+00
1.02996666667E+07	-1.77974640363E-02	-4.25886665872E-01	-6.15271331723E+01	8.37113269930E+01	-6.11351791029E+01	8.93013716047E+01	-5.46644795096E-01	-1.04681871597E+01
1.12996333333E+07	-5.21722561182E-03	-5.03727204508E-01	-5.98811338123E+01	9.02788947135E+01	-6.10519339165E+01	9.23804981584E+01	-6.34561035567E-01	-1.12114711845E+01
1.22996000000E+07	-9.66822977424E-03	-5.48489738534E-01	-5.84315666034E+01	9.57188811167E+01	-5.91635052085E+01	9.22327204755E+01	-6.92849094192E-01	-1.15974053229E+01
1.32995666667E+07	-1.12336751912E-02	-5.99117454480E-01	-5.79961938366E+01	9.42202723426E+01	-5.87398685604E+01	9.32146594157E+01	-7.55148564616E-01	-1.26084489310E+01
1.42995333333E+07	-8.14391885905E-03	-6.48203257014E-01	-5.55800006573E+01	9.23899147316E+01	-5.68469355137E+01	9.09789737567E+01	-7.31125076875E-01	-1.23707586802E+01
1.52995000000E+07	-9.13387510328E-03	-6.83351231190E-01	-5.54413228440E+01	8.82246372986E+01	-5.64761936872E+01	8.68790048809E+01	-7.04710982416E-01	-1.32452760533E+01
1.62994666667E+07	-6.41845000209E-03	-7.47375758625E-01	-5.47126300808E+01	8.75931729963E+01	-5.61339785713E+01	8.43936749933E+01	-7.14491412040E-01	-1.41312383538E+01
1.72994333333E+07	-9.85639066265E-03	-7.80974191433E-01	-5.47531242891E+01	8.25284098096E+01	-5.54412381097E+01	8.36111725286E+01	-7.42177264145E-01	-1.50171991169E+01
1.82994000000E+07	-1.08543708659E-02	-8.45139012276E-01	-5.47171647976E+01	8.29976580001E+01	-5.56188129713E+01	8.39801532974E+01	-7.91364704795E-01	-1.59056857622E+01
1.92993666667E+07	-9.91878431736E-03	-8.60061310690E-01	-5.40531741744E+01	8.53270000686E+01	-5.46400951502E+01	8.65197261257E+01	-8.57837417917E-01	-1.62170945038E+01
2.02993333333E+07	-1.22793454885E-02	-9.03236274254E-01	-5.36047054464E+01	8.34530835844E+01	-5.45235789222E+01	8.21371116773E+01	-8.25589375383E-01	-1.71438084809E+01
2.12993000000E+07	-1.08170765525E-02	-9.30374696284E-01	-5.36280404079E+01	8.23079508958E+01	-5.42262476324E+01	8.21216257716E+01	-8.70350902874E-01	-1.80935089121E+01
2.22992666667E+07	-9.48553159152E-03	-9.79427389927E-01	-5.39641384360E+01	8.66908838544E+01	-5.44074810536E+01	8.51506610323E+01	-9.84300487866E-01	-1.89655731300E+01
2.32992333333E+07	-9.96311359866E-03	-1.02333013111E+00	-5.28720422537E+01	8.89296645899E+01	-5.38928821066E+01	8.80676875763E+01	-1.06102946538E+00	-1.94572778517E+01
2.42992000000E+07	-1.16445882892E-02	-1.07969164289E+00	-5.24307486197E+01	9.21141941464E+01	-5.31566391938E+01	9.10905385356E+01	-1.11742319227E+00	-1.96172595867E+01
2.52991666667E+07	-1.05339348012E-02	-1.10010493307E+00	-5.09820713607E+01	8.79437787753E+01	-5.23489703122E+01	8.75990647036E+01	-1.08929384320E+00	-1.99495422938E+01
2.62991333333E+07	-1.11898571620E-02	-1.15932067191E+00	-5.16024414696E+01	8.56956125884E+01	-5.21456510847E+01	8.49479868148E+01	-1.07448512467E+00	-2.07727421488E+01
2.72991000000E+07	-8.27921214149E-03	-1.20007753297E+00	-5.06329323569E+01	8.72073294975E+01	-5.21829391127E+01	8.52128225419E+01	-1.10987804972E+00	-2.15622000210E+01
2.82990666667E+07	-1.05082094071E-02	-1.24059241172E+00	-5.10264315123E+01	8.50664536434E+01	-5.17085259820E+01	8.46806602544E+01	-1.15935414166E+00	-2.21875917624E+01
2.92990333333E+07	-1.09185740218E-02	-1.29838435476E+00	-5.03977897671E+01	8.62237347247E+01	-5.13187228860E+01	8.52977069684E+01	-1.19174780797E+00	-2.26572634947E+01
3.02990000000E+07	-1.26358381855E-02	-1.33727318880E+00	-4.99040200220E+01	8.61547869324E+01	-5.08838389062E+01	8.55007959512E+01	-1.20935924858E+00	-2.31631323633E+01
3.12989666667E+07	-1.33265892386E-02	-1.38518892427E+00	-4.96113283276E+01	8.51507895545E+01	-5.06403903257E+01	8.40132233946E+01	-1.21631524975E+00	-2.37936748982E+01
3.22989333333E+07	-1.34302087508E-02	-1.42438330471E+00	-4.96213477616E+01	8.46858141268E+01	-5.04326425205E+01	8.40121278416E+01	-1.23061310239E+00	-2.44530505559E+01
3.32989000000E+07	-1.34370670145E-02	-1.45797675261E+00	-4.90986457956E+01	8.27541485691E+01	-5.02203402632E+01	8.27411112087E+01	-1.25592250030E+00	-2.51608106460E+01
3.42988666667E+07	-1.50243665884E-02	-1.48865679202E+00	-4.87865396802E+01	8.45686259905E+01	-5.00311697798E+01	8.36291352375E+01	-1.29082915040E+00	-2.58327979987E+01
3.52988333333E+07	-1.39940877819E-02	-1.55252216295E+00	-4.86956751180E+01	8.34561383140E+01	-4.98698343797E+01	8.36368444836E+01	-1.33159576440E+00	-2.64568928254E+01
3.62988000000E+07	-1.30509794602E-02	-1.58893817860E+00	-4.85066484618E+01	8.40960964340E+01	-4.94922517477E+01	8.45951692759E+01	-1.36793160661E+00	-2.69639765170E+01
3.72987666667E+07	-1.60498787635E-02	-1.62274856402E+00	-4.84170307609E+01	8.42714134932E+01	-4.93101713252E+01	8.35268710028E+01	-1.38240121385E+00	-2.75758060238E+01
3.82987333333E+07	-1.42802007722E-02	-1.66901026999E+00	-4.83297301778E+01	8.58019050760E+01	-4.92513085093E+01	8.46765273030E+01	-1.47352522128E+00	-2.82505251807E+01
3.92987000000E+07	-1.40526978455E-02	-1.71868183752E+00	-4.71707703923E+01	8.65160550447E+01	-4.83768755555E+01	8.43085826825E+01	-1.44840488555E+00	-2.79516944662E+01
4.02986666667E+07	-1.59339730749E-02	-1.75926652957E+00	-4.74879291364E+01	8.04251041567E+01	-4.83070235288E+01	8.06419988992E+01	-1.36636462151E+00	-2.90395816465E+01
4.12986333333E+07	-1.48108564666E-02	-1.79992802565E+00	-4.76550094681E+01	7.96169450026E+01	-4.85618512439E+01	7.98382999200E+01	-1.40516752091E+00	-3.01804379648E+01
4.22986000000E+07	-1.56372306557E-02	-1.83776662432E+00	-4.76300577069E+01	8.08848279327E+01	-4.86201379159E+01	8.05739574484E+01	-1.47592061232E+00	-3.10600879082E+01
4.32985666667E+07	-1.52813168977E-02	-1.89118361606E+00	-4.77316895150E+01	8.28365474811E+01	-4.85835839455E+01	8.19630738044E+01	-1.55398733237E+00	-3.18023067752E+01
4.42985333333E+07	-1.61842582486E-02	-1.93829450639E+00	-4.75253506406E+01	8.45759135093E+01	-4.84334480379E+01	8.34664486226E+01	-1.63732131998E+00	-3.24090908119E+01
4.52985000000E+07	-1.64820586967E-02	-1.97699007072E+00	-4.74333700086E+01	8.67632375558E+01	-4.83079619650E+01	8.49453942145E+01	-1.72395501836E+00	-3.29317985569E+01
4.62984666667E+07	-1.76797314570E-02	-2.02694199605E+00	-4.71109684613E+01	8.90791930000E+01	-4.80850003455E+01	8.68203653333E+01	-1.82186520068E+00	-3.33299205316E+01
4.72984333333E+07	-1.72407240776E-02	-2.06758260662E+00	-4.66106449597E+01	9.06484575360E+01	-4.76694591015E+01	8.86119422189E+01	-1.91810494223E+00	-3.34925194149E+01
4.82984000000E+07	-1.77745783662E-02	-2.11016108442E+00	-4.60926461762E+01	9.22862676003E+01	-4.71322005669E+01	9.03043112331E+01	-1.99101180439E+00	-3.34920529718E+01
4.92983666667E+07	-1.78303276179E-02	-2.15414495942E+00	-4.53421921967E+01	9.27812728679E+01	-4.65726820302E+01	9.10757358881E+01	-2.04584246986E+00	-3.33044177283E+01
5.02983333333E+07	-1.90284246651E-02	-2.19958767576E+00	-4.47909136687E+01	9.14637956279E+01	-4.60775470209E+01	9.02007139048E+01	-2.03566367131E+00	-3.31444420710E+01
5.12983000000E+07	-1.84888182540E-02	-2.24203474360E+00	-4.43491876649E+01	9.04491113602E+01	-4.55536801914E+01	8.94301200640E+01	-2.02533674818E+00	-3.31875700257E+01
5.22982666667E+07	-1.87717950548E-02	-2.28983326837E+00	-4.38549055912E+01	8.90229789135E+01	-4.51431663711E+01	8.80094387582E+01	-1.98906113666E+00	-3.31429553942E+01
5.32982333333E+07	-1.93240088830E-02	-2.32712236428E+00	-4.35052180668E+01	8.69406842816E+01	-4.47757398018E+01	8.62694259258E+01	-1.92685557186E+00	-3.33498979954E+01
5.42982000000E+07	-2.09179513955E-02	-2.37907921811E+00	-4.32628988882E+01	8.52487196084E+01	-4.45440900502E+01	8.48828045506E+01	-1.87194064407E+00	-3.37718792048E+01
5.52981666667E+07	-2.07080947739E-02	-2.41879481676E+00	-4.31035970046E+01	8.37396394715E+01	-4.43982125085E+01	8.37356345036E+01	-1.84730241405E+00	-3.43472421473E+01
5.62981333333E+07	-2.06436003051E-02	-2.46178090243E+00	-4.28822093032E+01	8.19037657830E+01	-4.41094416122E+01	8.20787909645E+01	-1.79844510478E+00	-3.47135904307E+01
5.72981000000E+07	-2.16068861024E-02	-2.50956114290E+00	-4.28493952136E+01	8.08505062009E+01	-4.40319677341E+01	8.10262641961E+01	-1.77566025682E+00	-3.54643202744E+01
5.82980666667E+07	-2.13892127140E-02	-2.54831534619E+00	-4.27223826520E+01	8.03893779339E+01	-4.38995734352E+01	8.04902363638E+01	-1.78305099133E+00	-3.60319311176E+01
5.92980333333E+07	-2.26816197491E-02	-2.59207357960E+00	-4.24353167471E+01	8.04208266652E+01	-4.36206747833E+01	8.04603495610E+01	-1.79604488866E+00	-3.61702128731E+01
6.02980000000E+07	-2.32626125787E-02	-2.63019571013E+00	-4.21162938920E+01	7.86622678163E+01	-4.33518100286E+01	7.92925139966E+01	-1.74336503251E+00	-3.64960569760E+01
6.12979666667E+07	-2.41307630809E-02	-2.67583688749E+00	-4.20133193180E+01	7.69519330925E+01	-4.31789491209E+01	7.74124941036E+01	-1.69274190324E+00	-3.71222384767E+01
6.22979333333E+07	-2.52660737878E-02	-2.71485840479E+00	-4.18884297696E+01	7.58081073332E+01	-4.30824673936E+01	7.64962216293E+01	-1.65750896984E+00	-3.77426656454E+01
6.32979000000E+07	-2.52249283837E-02	-2.75558779630E+00	-4.18231338292E+01	7.42495639681E+01	-4.30304622386E+01	7.49621573140E+01	-1.62163961086E+00	-3.85007894079E+01
6.42978666667E+07	-2.49111347759E-02	-2.80489126492E+00	-4.17813899975E+01	7.34095927451E+01	-4.29840661948E+01	7.41642423766E+01	-1.61760742706E+00	-3.92653952789E+01
6.52978333333E+07	-2.54634717580E-02	-2.83276056085E+00	-4.16954237439E+01	7.28292317108E+01	-4.29059459207E+01	7.37540024679E+01	-1.61666906661E+00	-3.99361064925E+01
6.62978000000E+07	-2.64261444238E-02	-2.87588761163E+00	-4.16941678430E+01	7.23380333858E+01	-4.28016262665E+01	7.32010119224E+01	-1.62497743833E+00	-4.05985652814E+01
6.72977666667E+07	-2.64078056914E-02	-2.92804779140E+00	-4.15689958777E+01	7.18379875833E+01	-4.26962820578E+01	7.27279088165E+01	-1.62090188475E+00	-4.11971557200E+01
6.82977333333E+07	-2.74517594507E-02	-2.95487897494E+00	-4.15801103445E+01	7.14566911348E+01	-4.26930512009E+01	7.23957620068E+01	-1.64111301895E+00	-4.19057712671E+01
6.92977000000E+07	-2.53716791048E-02	-3.00733256469E+00	-4.14954182798E+01	7.14779730027E+01	-4.25899595134E+01	7.22577982152E+01	-1.66526451335E+00	-4.23976050954E+01
7.02976666667E+07	-2.64013221127E-02	-3.04246245871E+00	-4.13249074760E+01	7.12485267882E+01	-4.24435728033E+01	7.21277376248E+01	-1.67839998089E+00	-4.28232892646E+01
7.12976333333E+07	-2.65925214460E-02	-3.08156535501E+00	-4.11453515074E+01	7.07465602931E+01	-4.22362467305E+01	7.16987575559E+01	-1.65982173858E+00	-4.32439450330E+01
7.22976000000E+07	-2.83673673473E-02	-3.12243544361E+00	-4.09954908135E+01	7.00510186091E+01	-4.21515062163E+01	7.10356796274E+01	-1.64617266873E+00	-4.37499697557E+01
7.32975666667E+07	-2.67558767907E-02	-3.15308167766E+00	-4.09021964994E+01	6.89535362017E+01	-4.20377120315E+01	7.00724569076E+01	-1.62570773533E+00	-4.43102310619E+01
7.42975333333E+07	-2.73146531676E-02	-3.19776436176E+00	-4.08332443680E+01	6.83131365940E+01	-4.19594061838E+01	6.91168624855E+01	-1.61114209960E+00	-4.50048270710E+01
7.52975000000E+07	-2.67905672587E-02	-3.23835499434E+00	-4.08417985594E+01	6.78349421371E+01	-4.19167071795E+01	6.88645456714E+01	-1.62481265698E+00	-4.57336460607E+01
7.62974666667E+07	-2.69076045092E-02	-3.27992178524E+00	-4.07627644788E+01	6.76872041544E+01	-4.18532919035E+01	6.88488746821E+01	-1.64643359018E+00	-4.62946288327E+01
7.72974333333E+07	-2.74541642464E-02	-3.32556448420E+00	-4.06448844107E+01	6.76733284837E+01	-4.17794652909E+01	6.85464375618E+01	-1.66654460047E+00	-4.67851797723E+01
7.82974000000E+07	-2.89256663452E-02	-3.37181366046E+00	-4.05162437366E+01	6.76279481822E+01	-4.16114771475E+01	6.85425786789E+01	-1.67561902487E+00	-4.71394443257E+01
7.92973666667E+07	-2.79581539569E-02	-3.40767936640E+00	-4.03235160186E+01	6.69276376326E+01	-4.14337734255E+01	6.79096430505E+01	-1.65104615884E+00	-4.75122079025E+01
8.02973333333E+07	-2.95802928483E-02	-3.45086032362E+00	-4.02683512971E+01	6.61326298987E+01	-4.13450676172E+01	6.75514163286E+01	-1.63952307298E+00	-4.81111104980E+01
8.12973000000E+07	-2.99987453389E-02	-3.49505496280E+00	-4.01830837958E+01	6.56126093136E+01	-4.12625657256E+01	6.67326378110E+01	-1.63158285826E+00	-4.86768289575E+01
8.22972666667E+07	-2.87202679645E-02	-3.53881451180E+00	-4.00863510346E+01	6.49331464950E+01	-4.11676054028E+01	6.63763494723E+01	-1.62775495526E+00	-4.92516817651E+01
8.32972333333E+07	-3.00431664867E-02	-3.57773021557E+00	-4.00293783942E+01	6.48068143974E+01	-4.10859946186E+01	6.56586634633E+01	-1.63038751818E+00	-4.97956652332E+01
8.42972000000E+07	-2.92717541838E-02	-3.62842026482E+00	-3.99233688647E+01	6.44191264176E+01	-4.09537734375E+01	6.55697762196E+01	-1.62472391120E+00	-5.02666117475E+01
8.52971666667E+07	-3.01490906812E-02	-3.67153766288E+00	-3.98035795115E+01	6.36032666083E+01	-4.08676382694E+01	6.50152545902E+01	-1.61371258999E+00	-5.07792491812E+01
8.62971333333E+07	-3.10568355483E-02	-3.71923202143E+00	-3.97272678813E+01	6.31485970229E+01	-4.07947305829E+01	6.43478022656E+01	-1.59736746633E+00	-5.12961824099E+01
8.72971000000E+07	-2.97074432394E-02	-3.76099853551E+00	-3.96659697900E+01	6.22810528032E+01	-4.07007729514E+01	6.36230071952E+01	-1.57707545466E+00	-5.19131945996E+01
8.82970666667E+07	-3.19351353357E-02	-3.79726819209E+00	-3.96237600992E+01	6.15696396244E+01	-4.06446831366E+01	6.30357064328E+01	-1.56573830395E+00	-5.25763381057E+01
8.92970333333E+07	-3.05667961157E-02	-3.83070278486E+00	-3.95848035271E+01	6.09626131064E+01	-4.06130214347E+01	6.25977990911E+01	-1.56327810229E+00	-5.32263106386E+01
9.02970000000E+07	-3.13771313252E-02	-3.89587601624E+00	-3.95378177671E+01	6.08446705283E+01	-4.05969075209E+01	6.21988257124E+01	-1.56640935996E+00	-5.38840226203E+01
9.12969666667E+07	-3.13684075360E-02	-3.92327991684E+00	-3.95356467199E+01	6.02766116439E+01	-4.05794547109E+01	6.17852450482E+01	-1.57601375825E+00	-5.45153717873E+01
9.22969333333E+07	-3.24339622900E-02	-3.95456842065E+00	-3.95163115616E+01	6.00698801695E+01	-4.04918718404E+01	6.13659196776E+01	-1.58477294264E+00	-5.51044989416E+01
9.32969000000E+07	-3.18054569825E-02	-4.00116505126E+00	-3.94864885057E+01	5.99173084452E+01	-4.04376491271E+01	6.12019926152E+01	-1.59629768631E+00	-5.56750492214E+01
9.42968666667E+07	-3.35739793222E-02	-4.05671128324E+00	-3.94032097860E+01	5.96762008885E+01	-4.03987550111E+01	6.10390637258E+01	-1.60614066948E+00	-5.62319125001E+01
9.52968333333E+07	-3.21643362090E-02	-4.09610669430E+00	-3.93240119307E+01	5.96235800250E+01	-4.03177572790E+01	6.08516841395E+01	-1.61873969852E+00	-5.67357608997E+01
9.62968000000E+07	-3.30083036856E-02	-4.13503263072E+00	-3.92465696893E+01	5.91579209063E+01	-4.02356945673E+01	6.06671856521E+01	-1.62179131113E+00	-5.72176972456E+01
9.72967666667E+07	-3.19137680431E-02	-4.17736000968E+00	-3.91813962444E+01	5.88711824526E+01	-4.01552800242E+01	6.02999225771E+01	-1.61976665688E+00	-5.77480315864E+01
9.82967333333E+07	-3.25038564293E-02	-4.21798224245E+00	-3.91346723072E+01	5.85541027020E+01	-4.01149773047E+01	5.98284536430E+01	-1.61970599950E+00	-5.83107503695E+01
9.92967000000E+07	-3.11983621045E-02	-4.25838521302E+00	-3.90730518454E+01	5.83798015163E+01	-4.00432148777E+01	5.95147809475E+01	-1.62366104290E+00	-5.88492659585E+01
1.00296666667E+08	-3.29039906363E-02	-4.29740973357E+00	-3.90043106617E+01	5.78213227304E+01	-3.99950729966E+01	5.94572067260E+01	-1.62652908044E+00	-5.93824020611E+01
1.01296633333E+08	-3.24015140577E-02	-4.34194916725E+00	-3.89509065526E+01	5.76108611104E+01	-3.99138283902E+01	5.89119866459E+01	-1.62746814079E+00	-5.99215218305E+01
1.02296600000E+08	-3.29363697077E-02	-4.37537969120E+00	-3.89017603589E+01	5.73010862807E+01	-3.98852001244E+01	5.86745975228E+01	-1.63343105827E+00	-6.04672066246E+01
1.03296566667E+08	-3.36323544518E-02	-4.42732158646E+00	-3.88536872327E+01	5.68730501768E+01	-3.97985747232E+01	5.82045971502E+01	-1.63267931714E+00	-6.09868853705E+01
1.04296533333E+08	-3.36756940958E-02	-4.46730202247E+00	-3.88169951439E+01	5.66439271648E+01	-3.97666368141E+01	5.79792702598E+01	-1.63421153411E+00	-6.15736428197E+01
1.05296500000E+08	-3.32810889449E-02	-4.50818712219E+00	-3.87863936548E+01	5.64600908576E+01	-3.97241417521E+01	5.79253148926E+01	-1.64453813041E+00	-6.21583726052E+01
1.06296466667E+08	-3.34443011861E-02	-4.54567034375E+00	-3.87611206303E+01	5.65022021654E+01	-3.96870464643E+01	5.76658198849E+01	-1.66008520919E+00	-6.27132243681E+01
1.07296433333E+08	-3.42971575602E-02	-4.58918619272E+00	-3.86848699724E+01	5.64150199904E+01	-3.96248349500E+01	5.76248387068E+01	-1.68090325989E+00	-6.32071330381E+01
1.08296400000E+08	-3.43041779308E-02	-4.63142584894E+00	-3.85953998356E+01	5.65130530538E+01	-3.95609760379E+01	5.77656570196E+01	-1.69492815141E+00	-6.36390418326E+01
1.09296366667E+08	-3.41839205841E-02	-4.67419880567E+00	-3.85561531863E+01	5.63334000827E+01	-3.94388760480E+01	5.75526226649E+01	-1.70006725643E+00	-6.40670618514E+01
1.10296333333E+08	-3.50511884140E-02	-4.71085887821E+00	-3.84398882075E+01	5.62377772988E+01	-3.94048090230E+01	5.73175322693E+01	-1.70219702867E+00	-6.44895696002E+01
1.11296300000E+08	-3.55239004851E-02	-4.74628869545E+00	-3.83785136139E+01	5.58486795349E+01	-3.93145203790E+01	5.70847542643E+01	-1.70258792122E+00	-6.49441978409E+01
1.12296266667E+08	-3.65371788057E-02	-4.79024392985E+00	-3.82922462257E+01	5.54874559283E+01	-3.91981960750E+01	5.68448733862E+01	-1.70499860432E+00	-6.53831176783E+01
1.13296233333E+08	-3.64420126741E-02	-4.83025398711E+00	-3.81946575953E+01	5.51680547117E+01	-3.91235756527E+01	5.64178830861E+01	-1.69744578479E+00	-6.58063416714E+01
1.14296200000E+08	-3.75876317160E-02	-4.86526364271E+00	-3.81171066824E+01	5.48158226366E+01	-3.90545354660E+01	5.61446799141E+01	-1.68812226131E+00	-6.62659816562E+01
1.15296166667E+08	-3.67877274210E-02	-4.90274414602E+00	-3.80285618939E+01	5.44118688784E+01	-3.89776199402E+01	5.57917255489E+01	-1.67746560786E+00	-6.67591361100E+01
1.16296133333E+08	-3.76120216025E-02	-4.94342057457E+00	-3.79907750958E+01	5.38306490687E+01	-3.89216473733E+01	5.51075034294E+01	-1.66939368903E+00	-6.72685767974E+01
