# Hz S DB R 50
! CMT, C1420, 19038819, 22.4.2/3
! Date: 2023-03-14 09:45:49
! Data: Format (Calibration Info)
! Freq	S11:dB/Ang(F2)	S21:dB/Ang(F2)	S12:dB/Ang(F2)	S22:dB/Ang(F2)
3.00000000000E+05	-4.37991045500E-02	-2.53987348776E-01	-7.60549901952E+01	1.83005731811E+00	-7.48706120606E+01	-9.03346063970E+01	-5.51640052392E-02	-6.57125201881E-01
1.29996666667E+06	-1.76713765885E-02	-1.89336753139E-02	-7.59156860036E+01	-1.29882256416E+02	-7.82044220400E+01	9.01463621403E+01	-8.56869503107E-02	-2.00061391145E+00
2.29993333333E+06	-1.29191570518E-02	-6.40636805745E-02	-7.29996524058E+01	4.45943348750E+01	-7.46473737013E+01	6.23630351953E+01	-1.42506393692E-01	-3.18952858869E+00
3.29990000000E+06	-7.42991878571E-03	-8.57232692558E-02	-7.09182656331E+01	7.30876166394E+01	-7.10001850247E+01	9.73835954846E+01	-1.96694035086E-01	-4.20336613954E+00
4.29986666667E+06	-3.88990010149E-03	-1.72484835848E-01	-6.68824139049E+01	8.22371007929E+01	-7.01670158382E+01	8.76532685861E+01	-2.71733636928E-01	-5.26150381572E+00
5.29983333333E+06	-8.97224629318E-03	-2.45474946367E-01	-6.49487198142E+01	9.48702459640E+01	-6.53563591597E+01	8.45342057148E+01	-2.86784208861E-01	-6.11111125145E+00
6.29980000000E+06	-9.74947952456E-03	-2.79914937432E-01	-6.37044255645E+01	8.67978101351E+01	-6.56551993014E+01	8.65422996469E+01	-3.42628474715E-01	-7.13013743531E+00
7.29976666667E+06	-1.15191270461E-02	-3.37090769268E-01	-6.16337089101E+01	7.73375217640E+01	-6.37134872321E+01	8.54214938108E+01	-3.94582678519E-01	-7.97567324318E+00
8.29973333333E+06	-7.76430525825E-03	-3.53805540112E-01	-6.10175482297E+01	9.77149407951E+01	-6.28720304143E+01	8.03189686694E+01	-4.54246370353E-01	-8.84230016355E+00
9.29970000000E+06	-1.03519377958E-02	-4.11979526040E-01	-6.26011634073E+01	8.86035020819E+01	-6.15914736589E+01	8.92358912092E+01	-5.10623980136E-01	-9.67370021289E+00
1.02996666667E+07	-1.86944149787E-02	-2.47777722852E-01	-6.11620978033E+01	8.72799213698E+01	-6.07828688866E+01	8.52583064269E+01	-5.64634786671E-01	-1.04485104492E+01
1.12996333333E+07	-6.82538684798E-03	-4.88814989250E-01	-5.97029324028E+01	9.28313256986E+01	-6.06325237237E+01	9.19935343689E+01	-6.58529939094E-01	-1.12069244555E+01
1.22996000000E+07	-8.75625174334E-03	-5.34542482956E-01	-5.73545850026E+01	9.69532588262E+01	-5.86593377292E+01	9.54264548970E+01	-7.16253452061E-01	-1.14499249248E+01
1.32995666667E+07	-1.04970951826E-02	-5.90685468245E-01	-5.79022469828E+01	9.53101514630E+01	-5.89362045458E+01	9.41539960108E+01	-7.68340914949E-01	-1.26017090688E+01
1.42995333333E+07	-8.59799090527E-03	-6.12584541109E-01	-5.61392323566E+01	9.16409277490E+01	-5.66093160846E+01	9.27151002484E+01	-7.53522985496E-01	-1.22520785919E+01
1.52995000000E+07	-1.05427146309E-02	-6.65327002612E-01	-5.55860733873E+01	8.84726576142E+01	-5.61352771644E+01	8.76660603857E+01	-7.14369039262E-01	-1.31389056179E+01
1.62994666667E+07	-7.26689203178E-03	-7.10552039561E-01	-5.53113565035E+01	8.16893993607E+01	-5.55681510493E+01	8.52542873535E+01	-7.24031207673E-01	-1.40327065730E+01
1.72994333333E+07	-7.84613802566E-03	-7.54466776136E-01	-5.47459538712E+01	8.62063105612E+01	-5.52983615207E+01	8.39182274761E+01	-7.47866261978E-01	-1.49042846833E+01
1.82994000000E+07	-1.01470295565E-02	-7.84767886771E-01	-5.47365833177E+01	8.55383247840E+01	-5.51036644399E+01	8.49058236299E+01	-7.75950035221E-01	-1.56575407725E+01
1.92993666667E+07	-7.01952198006E-03	-8.27625622206E-01	-5.41151628919E+01	8.24363197066E+01	-5.49210389709E+01	8.12516227842E+01	-8.03668532092E-01	-1.65426734058E+01
2.02993333333E+07	-9.93530374132E-03	-8.67841713023E-01	-5.41244442438E+01	8.37763900431E+01	-5.48836360005E+01	8.24705697480E+01	-8.52965144942E-01	-1.74273987291E+01
2.12993000000E+07	-8.67354219311E-03	-9.06943641509E-01	-5.42094830379E+01	8.42455945124E+01	-5.45720906798E+01	8.33821688850E+01	-9.14750928930E-01	-1.82425036176E+01
2.22992666667E+07	-8.17698464130E-03	-9.64107917555E-01	-5.40579808153E+01	8.49027715993E+01	-5.44596938614E+01	8.49205868667E+01	-9.90684954973E-01	-1.89742594495E+01
2.32992333333E+07	-8.77121976248E-03	-9.99980562050E-01	-5.32295776588E+01	8.88645552738E+01	-5.37466720373E+01	8.89988347367E+01	-1.07738107491E+00	-1.94898955374E+01
2.42992000000E+07	-9.17498630517E-03	-1.04744340475E+00	-5.28748803213E+01	8.87166147325E+01	-5.31821930472E+01	9.17098810528E+01	-1.16738534378E+00	-1.96000588963E+01
2.52991666667E+07	-9.07829957564E-03	-1.07604644603E+00	-5.22835493915E+01	9.02551322545E+01	-5.20394388756E+01	8.83916944376E+01	-1.10758918144E+00	-1.95883304535E+01
2.62991333333E+07	-9.93131252779E-03	-1.12254232554E+00	-5.08548118900E+01	8.79896054342E+01	-5.19157453882E+01	8.77583665577E+01	-1.12834647425E+00	-2.04570999155E+01
2.72991000000E+07	-7.37702745698E-03	-1.16380551399E+00	-5.10767167674E+01	8.68957487070E+01	-5.17004733824E+01	8.65256364332E+01	-1.12659526935E+00	-2.12297311708E+01
2.82990666667E+07	-1.09816610519E-02	-1.19797782353E+00	-5.06879372853E+01	8.82428841380E+01	-5.13442027079E+01	8.63480030820E+01	-1.15330035388E+00	-2.19070050043E+01
2.92990333333E+07	-8.23699775719E-03	-1.25725697271E+00	-5.07241751838E+01	8.64346692175E+01	-5.11905724946E+01	8.53999695969E+01	-1.19303070020E+00	-2.24709479397E+01
3.02990000000E+07	-1.03423084217E-02	-1.30770052812E+00	-5.01981222937E+01	8.54681010409E+01	-5.08188113075E+01	8.53247211637E+01	-1.20530897293E+00	-2.29648088278E+01
3.12989666667E+07	-9.78964459251E-03	-1.34325704504E+00	-4.98017664885E+01	8.28418152950E+01	-5.03897138053E+01	8.42101431046E+01	-1.21091248093E+00	-2.35971565975E+01
3.22989333333E+07	-1.15603231500E-02	-1.37624225498E+00	-4.98207299206E+01	8.35819382690E+01	-5.00455608057E+01	8.25770708744E+01	-1.22281595180E+00	-2.42644898392E+01
3.32989000000E+07	-1.08483290976E-02	-1.42129232011E+00	-4.92064113837E+01	8.21874460973E+01	-5.00575823168E+01	8.28431861479E+01	-1.24172504715E+00	-2.50013321652E+01
3.42988666667E+07	-1.28575432187E-02	-1.45545176197E+00	-4.91457510031E+01	8.29589326312E+01	-4.98448049023E+01	8.22116243094E+01	-1.27299993536E+00	-2.57388888686E+01
3.52988333333E+07	-1.21692957892E-02	-1.50948568346E+00	-4.94241616045E+01	8.18211530905E+01	-4.97785234776E+01	8.30294246087E+01	-1.31604834107E+00	-2.64246618661E+01
3.62988000000E+07	-1.17819706398E-02	-1.54882026238E+00	-4.92131660267E+01	8.39824532070E+01	-4.96266504314E+01	8.28296421743E+01	-1.36236798378E+00	-2.70273551603E+01
3.72987666667E+07	-1.29589927546E-02	-1.58079224367E+00	-4.87614112989E+01	8.43733227476E+01	-4.93132855678E+01	8.39077535980E+01	-1.40208686830E+00	-2.75909416176E+01
3.82987333333E+07	-1.28339354082E-02	-1.63123546161E+00	-4.85887481270E+01	8.40560429025E+01	-4.91580661690E+01	8.52583154519E+01	-1.48649376535E+00	-2.82101027632E+01
3.92987000000E+07	-1.16263267970E-02	-1.67949375160E+00	-4.82379300513E+01	8.41950687927E+01	-4.83675745793E+01	8.54842780818E+01	-1.49800780567E+00	-2.79116057665E+01
4.02986666667E+07	-1.32225016933E-02	-1.71284878343E+00	-4.76520412703E+01	8.18974676793E+01	-4.81822528502E+01	8.12759490127E+01	-1.39055085487E+00	-2.86958487345E+01
4.12986333333E+07	-1.26410596478E-02	-1.75240068237E+00	-4.78055039974E+01	8.00070136972E+01	-4.82989056427E+01	7.99843310388E+01	-1.39967901948E+00	-2.98837715018E+01
4.22986000000E+07	-1.38442124704E-02	-1.79691689199E+00	-4.80937818057E+01	8.11506161306E+01	-4.84910474434E+01	7.99733161258E+01	-1.46181941328E+00	-3.08393486540E+01
4.32985666667E+07	-1.29586122847E-02	-1.84067646989E+00	-4.79915375520E+01	8.24502257230E+01	-4.84958368184E+01	8.09540410405E+01	-1.53657169398E+00	-3.16633393375E+01
4.42985333333E+07	-1.28399155909E-02	-1.88645822086E+00	-4.79354261358E+01	8.35911123270E+01	-4.83941968897E+01	8.27888941340E+01	-1.62120650641E+00	-3.23355767854E+01
4.52985000000E+07	-1.37784915325E-02	-1.92546915218E+00	-4.76977279790E+01	8.62635666088E+01	-4.82916961749E+01	8.48762530239E+01	-1.71432942116E+00	-3.29006157234E+01
4.62984666667E+07	-1.38434986063E-02	-1.97127683348E+00	-4.75037226872E+01	8.81147489440E+01	-4.80367953795E+01	8.66923485580E+01	-1.81544624470E+00	-3.33245638413E+01
4.72984333333E+07	-1.45046964199E-02	-2.01172182046E+00	-4.70476356463E+01	9.05624491135E+01	-4.76293051304E+01	8.91361960097E+01	-1.91976328466E+00	-3.34773939762E+01
4.82984000000E+07	-1.43157530252E-02	-2.05704497079E+00	-4.65807694079E+01	9.13642885773E+01	-4.71070218847E+01	9.04026759224E+01	-1.99672314534E+00	-3.35095080797E+01
4.92983666667E+07	-1.47714349242E-02	-2.09700667207E+00	-4.59448246196E+01	9.22894146085E+01	-4.66160377660E+01	9.13004077971E+01	-2.05488266755E+00	-3.33987246262E+01
5.02983333333E+07	-1.51387625470E-02	-2.14731493577E+00	-4.53208609903E+01	9.13634258046E+01	-4.60162886674E+01	9.09662138761E+01	-2.06127950074E+00	-3.32548993025E+01
5.12983000000E+07	-1.48561828848E-02	-2.19129688613E+00	-4.49056540059E+01	9.01919732315E+01	-4.56172305589E+01	9.03148909329E+01	-2.06350146820E+00	-3.32808438906E+01
5.22982666667E+07	-1.58555184683E-02	-2.22771745375E+00	-4.44203916848E+01	8.90743611544E+01	-4.51594136038E+01	8.92768498034E+01	-2.04127657944E+00	-3.31969526597E+01
5.32982333333E+07	-1.58849611428E-02	-2.27130085723E+00	-4.40173192550E+01	8.71761784024E+01	-4.46996128457E+01	8.82887109719E+01	-1.99707003280E+00	-3.32772286099E+01
5.42982000000E+07	-1.72633369287E-02	-2.32069307155E+00	-4.37890866619E+01	8.50164984074E+01	-4.44717564685E+01	8.58040064077E+01	-1.92947846908E+00	-3.35533823697E+01
5.52981666667E+07	-1.68222493589E-02	-2.36362628225E+00	-4.36352253967E+01	8.39273164774E+01	-4.43146926794E+01	8.47338699203E+01	-1.89743805248E+00	-3.41227804076E+01
5.62981333333E+07	-1.71317052765E-02	-2.40353421298E+00	-4.34374809762E+01	8.26698798904E+01	-4.39932732572E+01	8.31520339449E+01	-1.85174476358E+00	-3.44743178520E+01
5.72981000000E+07	-1.78514307485E-02	-2.44452474682E+00	-4.33676175406E+01	8.16071871498E+01	-4.39186585392E+01	8.22178015471E+01	-1.83529933283E+00	-3.51840152312E+01
5.82980666667E+07	-1.78514010211E-02	-2.48507073420E+00	-4.31674596113E+01	8.17031095034E+01	-4.37983200448E+01	8.23055175062E+01	-1.86384965463E+00	-3.56079383254E+01
5.92980333333E+07	-1.93017094203E-02	-2.52878626311E+00	-4.27830612866E+01	8.04859433025E+01	-4.33894432777E+01	8.16110954025E+01	-1.83991523939E+00	-3.56875495854E+01
6.02980000000E+07	-1.90025087648E-02	-2.56705912727E+00	-4.26526668342E+01	7.89183707677E+01	-4.31074460943E+01	7.98081687685E+01	-1.76556351793E+00	-3.60309941747E+01
6.12979666667E+07	-1.99158409978E-02	-2.60934863249E+00	-4.25078698564E+01	7.73572235510E+01	-4.30114539203E+01	7.83355302513E+01	-1.71670009708E+00	-3.66928350862E+01
6.22979333333E+07	-2.11079765613E-02	-2.65062899083E+00	-4.24296231446E+01	7.66132846865E+01	-4.28686325351E+01	7.71272992480E+01	-1.68034245743E+00	-3.72780375780E+01
6.32979000000E+07	-2.17472779960E-02	-2.69128882308E+00	-4.23234453346E+01	7.48648525618E+01	-4.27766701600E+01	7.56850376162E+01	-1.63631436271E+00	-3.80276888700E+01
6.42978666667E+07	-2.04023572783E-02	-2.73287529665E+00	-4.23082334795E+01	7.41402581366E+01	-4.27863748741E+01	7.45622821434E+01	-1.62609182893E+00	-3.88134295203E+01
6.52978333333E+07	-2.18408627835E-02	-2.77743358965E+00	-4.22372790585E+01	7.36254355967E+01	-4.26697601565E+01	7.41138998494E+01	-1.62534418385E+00	-3.95120499665E+01
6.62978000000E+07	-2.30289995553E-02	-2.81137215744E+00	-4.21606824786E+01	7.32811032115E+01	-4.26447681837E+01	7.35454431662E+01	-1.63069109143E+00	-4.01902937026E+01
6.72977666667E+07	-2.20294317185E-02	-2.85722616563E+00	-4.20303914753E+01	7.24480549641E+01	-4.24989800260E+01	7.27866977062E+01	-1.62768283319E+00	-4.07856493712E+01
6.82977333333E+07	-2.24581001244E-02	-2.89390458113E+00	-4.19907693797E+01	7.23027702871E+01	-4.25233515819E+01	7.28248728733E+01	-1.64753447143E+00	-4.15122147111E+01
6.92977000000E+07	-2.05514078165E-02	-2.93702325565E+00	-4.18895371340E+01	7.23761002868E+01	-4.23753621782E+01	7.25476305469E+01	-1.67774795391E+00	-4.19892002397E+01
7.02976666667E+07	-2.09290626086E-02	-2.96791202434E+00	-4.17508460560E+01	7.20033841546E+01	-4.22041485930E+01	7.26836809708E+01	-1.68941122576E+00	-4.23382729090E+01
7.12976333333E+07	-2.22588265160E-02	-3.00769065972E+00	-4.15455920801E+01	7.12296157074E+01	-4.20257956365E+01	7.19343302068E+01	-1.66066088737E+00	-4.27478693375E+01
7.22976000000E+07	-2.40588715197E-02	-3.04698301448E+00	-4.14988937588E+01	7.05563367193E+01	-4.19261361845E+01	7.11561927831E+01	-1.64580504568E+00	-4.32966566200E+01
7.32975666667E+07	-2.12476231000E-02	-3.07991537137E+00	-4.14296416865E+01	6.97097894788E+01	-4.18171936430E+01	7.03700120389E+01	-1.62276063469E+00	-4.38911909379E+01
7.42975333333E+07	-2.30299550055E-02	-3.14044251066E+00	-4.13713786760E+01	6.91044810931E+01	-4.17918132937E+01	6.91976623503E+01	-1.60271858653E+00	-4.46421340654E+01
7.52975000000E+07	-2.17924018374E-02	-3.17603247011E+00	-4.13019368361E+01	6.89911189813E+01	-4.17718084841E+01	6.90154161979E+01	-1.62789704551E+00	-4.53949597219E+01
7.62974666667E+07	-2.02510585309E-02	-3.20555944960E+00	-4.12312938676E+01	6.89270763228E+01	-4.16880187228E+01	6.91925620045E+01	-1.65464810434E+00	-4.58930784874E+01
7.72974333333E+07	-2.38211172063E-02	-3.25997248998E+00	-4.11423983928E+01	6.88465590808E+01	-4.15770536118E+01	6.90848811308E+01	-1.67862373476E+00	-4.63276012177E+01
7.82974000000E+07	-2.38427982289E-02	-3.29672869186E+00	-4.09494059739E+01	6.85496832680E+01	-4.14065443450E+01	6.90571697284E+01	-1.68127804309E+00	-4.65937499286E+01
7.92973666667E+07	-2.44021655527E-02	-3.33385195487E+00	-4.07702637284E+01	6.78180758502E+01	-4.12187503312E+01	6.82722666094E+01	-1.64674450873E+00	-4.69862779880E+01
8.02973333333E+07	-2.53842952887E-02	-3.37697409970E+00	-4.07396001680E+01	6.71038802819E+01	-4.11083446838E+01	6.75030930179E+01	-1.62450423499E+00	-4.75724698048E+01
8.12973000000E+07	-2.38781951443E-02	-3.42052182987E+00	-4.06223671765E+01	6.64557610849E+01	-4.10194538831E+01	6.69278129420E+01	-1.61236389906E+00	-4.81417363571E+01
8.22972666667E+07	-2.38728114983E-02	-3.45661695170E+00	-4.05365707729E+01	6.58874303636E+01	-4.09481373149E+01	6.63192086398E+01	-1.60199538165E+00	-4.87187834085E+01
8.32972333333E+07	-2.33584883474E-02	-3.50122593708E+00	-4.04747008701E+01	6.54443029693E+01	-4.08444269768E+01	6.56455884993E+01	-1.59753863960E+00	-4.92961183172E+01
8.42972000000E+07	-2.36822743396E-02	-3.53753627464E+00	-4.03719474356E+01	6.52687488921E+01	-4.07707348446E+01	6.53643107783E+01	-1.58882422007E+00	-4.98348603843E+01
8.52971666667E+07	-2.54431311041E-02	-3.58592511395E+00	-4.02317089213E+01	6.46541976839E+01	-4.06852411886E+01	6.46151734693E+01	-1.57843097466E+00	-5.03968279008E+01
8.62971333333E+07	-2.52727970869E-02	-3.62624441902E+00	-4.01511129956E+01	6.39935191631E+01	-4.06097070537E+01	6.43173545601E+01	-1.57062182240E+00	-5.09422473762E+01
8.72971000000E+07	-2.31124538347E-02	-3.68117278455E+00	-4.00901234741E+01	6.33060330181E+01	-4.05001673361E+01	6.33890017554E+01	-1.55352631686E+00	-5.15315290855E+01
8.82970666667E+07	-2.51527084936E-02	-3.70744754322E+00	-4.00531587977E+01	6.26406498658E+01	-4.04522142608E+01	6.29280876622E+01	-1.54240509287E+00	-5.21759095584E+01
8.92970333333E+07	-2.48580083537E-02	-3.74428996279E+00	-3.99883037750E+01	6.21059217181E+01	-4.04429739695E+01	6.21643023909E+01	-1.53766350762E+00	-5.28182134734E+01
9.02970000000E+07	-2.51389694854E-02	-3.80204435555E+00	-4.00024752356E+01	6.15502706207E+01	-4.03852804216E+01	6.16860812114E+01	-1.53803836795E+00	-5.34825594626E+01
9.12969666667E+07	-2.45397193807E-02	-3.83765812192E+00	-3.99867749222E+01	6.14923665720E+01	-4.03550554494E+01	6.13839123214E+01	-1.54521632303E+00	-5.41194242001E+01
9.22969333333E+07	-2.60884775062E-02	-3.86718798664E+00	-3.99332462885E+01	6.09517724946E+01	-4.03148001348E+01	6.11488767871E+01	-1.55688461417E+00	-5.47291804033E+01
9.32969000000E+07	-2.56069278090E-02	-3.91811663212E+00	-3.98857318732E+01	6.05477584515E+01	-4.02535698467E+01	6.10838047023E+01	-1.56871030860E+00	-5.52676637341E+01
9.42968666667E+07	-2.71160678058E-02	-3.96928938371E+00	-3.98192960425E+01	6.05774239222E+01	-4.02093503169E+01	6.06971323914E+01	-1.57360313371E+00	-5.58111762042E+01
9.52968333333E+07	-2.59399283810E-02	-4.00382846197E+00	-3.97482324261E+01	6.03024959156E+01	-4.01503733550E+01	6.04192980211E+01	-1.58023127295E+00	-5.63130240961E+01
9.62968000000E+07	-2.55781721618E-02	-4.03908613192E+00	-3.96372837001E+01	6.01985691486E+01	-4.00688860530E+01	5.99351171611E+01	-1.57970167876E+00	-5.68413163122E+01
9.72967666667E+07	-2.52256308342E-02	-4.08492801542E+00	-3.95862088039E+01	5.97136530747E+01	-3.99934849503E+01	5.96434835766E+01	-1.57799495356E+00	-5.73921316953E+01
9.82967333333E+07	-2.60710452767E-02	-4.12887904358E+00	-3.95301334575E+01	5.93012429422E+01	-3.99456706690E+01	5.94851692691E+01	-1.57820483252E+00	-5.79709143324E+01
9.92967000000E+07	-2.56513666504E-02	-4.16586823436E+00	-3.94916453916E+01	5.90209833256E+01	-3.99026860736E+01	5.91784753404E+01	-1.58222977953E+00	-5.85151014838E+01
1.00296666667E+08	-2.67315264085E-02	-4.20199769880E+00	-3.94337895517E+01	5.88624590714E+01	-3.98205995716E+01	5.89274466420E+01	-1.58509060160E+00	-5.90655088032E+01
1.01296633333E+08	-2.57765945540E-02	-4.24433685973E+00	-3.93456219098E+01	5.85947551302E+01	-3.97662731921E+01	5.83817465642E+01	-1.58639556151E+00	-5.96199286363E+01
1.02296600000E+08	-2.65088683468E-02	-4.29428629936E+00	-3.93105380367E+01	5.83104307757E+01	-3.97250804048E+01	5.82704606819E+01	-1.59313011982E+00	-6.01734093192E+01
1.03296566667E+08	-2.60580852049E-02	-4.32343563854E+00	-3.92238563555E+01	5.79021400233E+01	-3.96569625578E+01	5.79042593355E+01	-1.59355022246E+00	-6.07028653125E+01
1.04296533333E+08	-2.76101848516E-02	-4.36975069211E+00	-3.92000987795E+01	5.74996475102E+01	-3.96272621768E+01	5.74864126343E+01	-1.59556666288E+00	-6.12969113197E+01
1.05296500000E+08	-2.67567080372E-02	-4.40358375480E+00	-3.91736244222E+01	5.77456229013E+01	-3.95927479380E+01	5.72977880932E+01	-1.60447387562E+00	-6.18728115967E+01
1.06296466667E+08	-2.65823407729E-02	-4.44846100747E+00	-3.91550873539E+01	5.71121489001E+01	-3.95420516899E+01	5.72404168952E+01	-1.61873620233E+00	-6.24474020686E+01
1.07296433333E+08	-2.59574324899E-02	-4.49205690120E+00	-3.91005723384E+01	5.71552959480E+01	-3.95228951548E+01	5.71184000029E+01	-1.63948652589E+00	-6.29620811285E+01
1.08296400000E+08	-2.67281051642E-02	-4.52730247759E+00	-3.90256706844E+01	5.70805066984E+01	-3.94408741322E+01	5.71837317653E+01	-1.65413110633E+00	-6.34086532614E+01
1.09296366667E+08	-2.75488148541E-02	-4.56847531225E+00	-3.89369446024E+01	5.71056661023E+01	-3.93759039965E+01	5.71382549016E+01	-1.66355079787E+00	-6.38504376948E+01
1.10296333333E+08	-2.77204203571E-02	-4.60668556281E+00	-3.88328767000E+01	5.68935758352E+01	-3.92679011632E+01	5.68250309690E+01	-1.66816090711E+00	-6.42872842152E+01
1.11296300000E+08	-2.73664753534E-02	-4.64284134764E+00	-3.87374453598E+01	5.66769838274E+01	-3.92260656399E+01	5.65907730489E+01	-1.67084188982E+00	-6.47532109605E+01
1.12296266667E+08	-2.74269029723E-02	-4.68252456616E+00	-3.86596925668E+01	5.64434893825E+01	-3.91033937036E+01	5.64937697030E+01	-1.67629836256E+00	-6.51963678578E+01
1.13296233333E+08	-2.93120740904E-02	-4.72546021181E+00	-3.85610706646E+01	5.60249320355E+01	-3.90452865045E+01	5.62201983956E+01	-1.67274134202E+00	-6.56113582123E+01
1.14296200000E+08	-2.92748742742E-02	-4.76007008103E+00	-3.85221629661E+01	5.56153543372E+01	-3.89629021556E+01	5.58376066822E+01	-1.66656254883E+00	-6.60424526098E+01
1.15296166667E+08	-2.94942460001E-02	-4.80212818847E+00	-3.84332861755E+01	5.52638077242E+01	-3.88791384935E+01	5.54767390542E+01	-1.65628788006E+00	-6.65123828834E+01
1.16296133333E+08	-2.93987740343E-02	-4.83875653874E+00	-3.83992483953E+01	5.46300569358E+01	-3.88068011105E+01	5.49609376193E+01	-1.64740497732E+00	-6.70088586387E+01
