# Hz S DB R 50
! CMT, C1420, 19038819, 22.4.2/3
! Date: 2023-03-14 09:47:55
! Data: Format (Calibration Info)
! Freq	S11:dB/Ang(F2)	S21:dB/Ang(F2)	S12:dB/Ang(F2)	S22:dB/Ang(F2)
3.00000000000E+05	-3.34346153787E+01	8.65357385499E+01	5.08239866699E-03	-1.25250257604E+00	-1.23246879746E-02	-1.37800181471E+00	-3.25636189787E+01	8.29754367121E+01
1.29996666667E+06	-4.47852255549E+01	5.71847642561E+01	-2.82475920310E-02	-6.50153530003E-01	-3.38488115158E-02	-5.97907798263E-01	-4.31821980398E+01	5.83496567459E+01
2.29993333333E+06	-4.60968552160E+01	-5.48404554906E+01	-2.70612044531E-02	-3.77977171795E-01	-3.35712097461E-02	-3.11382373109E-01	-4.58053225535E+01	-3.22413398302E+01
3.29990000000E+06	-4.48103794985E+01	-5.95027341707E+01	-2.69244915031E-02	-4.46665464186E-01	-3.49029383787E-02	-4.47423273702E-01	-4.41394575314E+01	-4.48124525733E+01
4.29986666667E+06	-4.71927717899E+01	-3.99138281686E+01	-2.67585447916E-02	-8.43105987641E-01	-3.50531506859E-02	-8.27689493391E-01	-4.60451262813E+01	-2.96845153577E+01
5.29983333333E+06	-4.86282732133E+01	-1.05065732904E+01	-3.94570481485E-02	-1.17272899605E+00	-3.83919632059E-02	-1.15401159742E+00	-4.77902037013E+01	-7.03124552080E+00
6.29980000000E+06	-4.72378167213E+01	-2.93806652906E+01	-4.00095854990E-02	-1.28538385610E+00	-3.82083231033E-02	-1.30863273861E+00	-4.67502651931E+01	-2.42148206127E+01
7.29976666667E+06	-4.62627369622E+01	-4.11059067647E+01	-3.90012786738E-02	-1.45919039833E+00	-4.17326455421E-02	-1.46748892207E+00	-4.62337971230E+01	-3.29608359298E+01
8.29973333333E+06	-4.53852418892E+01	-4.66187532353E+01	-3.88088551223E-02	-1.63506274635E+00	-4.02954515646E-02	-1.63414996017E+00	-4.53768674893E+01	-3.72249998217E+01
9.29970000000E+06	-4.48929294785E+01	-5.32074753715E+01	-4.07256303617E-02	-1.83529910115E+00	-4.45820251733E-02	-1.82941898797E+00	-4.49461735516E+01	-4.31841567442E+01
1.02996666667E+07	-4.53528130257E+01	-5.19615399846E+01	-4.72991885653E-02	-2.05889103951E+00	-5.38869336261E-02	-2.12908658605E+00	-4.31560037413E+01	-4.61628062949E+01
1.12996333333E+07	-4.42592905092E+01	-5.45147901632E+01	-3.85870771243E-02	-2.25068635824E+00	-4.47701866948E-02	-2.25706637829E+00	-4.41978255131E+01	-4.97973256169E+01
1.22996000000E+07	-4.44003278662E+01	-5.44579133151E+01	-4.23308610444E-02	-2.44569786894E+00	-4.46583051650E-02	-2.44937121757E+00	-4.45139763255E+01	-4.77156515163E+01
1.32995666667E+07	-4.40076777676E+01	-5.43746880049E+01	-3.77126788737E-02	-2.66237205903E+00	-4.27265422898E-02	-2.69526097900E+00	-4.42697147211E+01	-5.06423351286E+01
1.42995333333E+07	-4.40001264568E+01	-5.62474516183E+01	-4.31183029411E-02	-2.89166714683E+00	-4.57233948025E-02	-2.88935354487E+00	-4.44995324634E+01	-5.08347149636E+01
1.52995000000E+07	-4.42958217907E+01	-5.42268894120E+01	-4.41132510502E-02	-3.10526351142E+00	-4.53482282148E-02	-3.11058561433E+00	-4.46155198025E+01	-5.16373293935E+01
1.62994666667E+07	-4.42681765815E+01	-5.44694219401E+01	-4.23245105415E-02	-3.33975544858E+00	-4.53093464146E-02	-3.34053740699E+00	-4.46096602389E+01	-5.08230312712E+01
1.72994333333E+07	-4.45677159199E+01	-5.40331921988E+01	-4.59723124226E-02	-3.57626007572E+00	-4.55810846720E-02	-3.59320477191E+00	-4.47721871104E+01	-5.17780650609E+01
1.82994000000E+07	-4.43166821374E+01	-5.41770475200E+01	-4.63275018647E-02	-3.79442459665E+00	-4.48681302728E-02	-3.76959997790E+00	-4.48197825676E+01	-5.16893858536E+01
1.92993666667E+07	-4.41657842009E+01	-5.65899276669E+01	-4.69383371011E-02	-3.97321003823E+00	-4.79837626770E-02	-3.97782581476E+00	-4.45280672182E+01	-5.47833735384E+01
2.02993333333E+07	-4.35073271094E+01	-5.93326695217E+01	-4.78089044522E-02	-4.18402827401E+00	-4.75295206139E-02	-4.15839322464E+00	-4.42635318341E+01	-5.44029583361E+01
2.12993000000E+07	-4.30051019378E+01	-6.17975099424E+01	-4.63471292886E-02	-4.38694139733E+00	-4.77178040169E-02	-4.36494195407E+00	-4.39268024042E+01	-5.64267359721E+01
2.22992666667E+07	-4.30987014482E+01	-6.42848934198E+01	-4.90742078118E-02	-4.58430734601E+00	-4.78383848534E-02	-4.58944091068E+00	-4.34456351216E+01	-5.87644386640E+01
2.32992333333E+07	-4.26146162471E+01	-6.35755931834E+01	-4.57383761672E-02	-4.79098329699E+00	-4.70242004992E-02	-4.78055146660E+00	-4.32412742401E+01	-6.03799112871E+01
2.42992000000E+07	-4.25301381831E+01	-6.61234354585E+01	-5.07142463445E-02	-4.98302220694E+00	-4.92356587904E-02	-4.98074791381E+00	-4.30371289996E+01	-6.27081390078E+01
2.52991666667E+07	-4.21483117562E+01	-6.64813527882E+01	-4.85938453177E-02	-5.17774803230E+00	-5.01631848998E-02	-5.17777122957E+00	-4.27948392885E+01	-6.30686610191E+01
2.62991333333E+07	-4.19605551633E+01	-6.88816971126E+01	-5.12793126383E-02	-5.38440400105E+00	-4.85750180012E-02	-5.39413481366E+00	-4.24851761194E+01	-6.47607935419E+01
2.72991000000E+07	-4.17551501737E+01	-6.86223602013E+01	-4.98222274200E-02	-5.59239669279E+00	-4.98733829372E-02	-5.58856131834E+00	-4.24108962198E+01	-6.59986525285E+01
2.82990666667E+07	-4.14671067669E+01	-6.98900539903E+01	-5.05905876562E-02	-5.79556034699E+00	-5.11894997231E-02	-5.79519903517E+00	-4.22651793802E+01	-6.69950239591E+01
2.92990333333E+07	-4.13169630882E+01	-7.16545723591E+01	-5.20240252392E-02	-6.00273764290E+00	-5.24373433755E-02	-6.00847075116E+00	-4.19327011406E+01	-6.78094713707E+01
3.02990000000E+07	-4.10646772011E+01	-7.14757018362E+01	-5.12289922446E-02	-6.20228644178E+00	-5.30753074876E-02	-6.21166527559E+00	-4.17050376357E+01	-6.93091895661E+01
3.12989666667E+07	-4.08112789121E+01	-7.29597859286E+01	-5.04308573685E-02	-6.41355611027E+00	-5.23002521655E-02	-6.41259738598E+00	-4.15145058059E+01	-7.05507422717E+01
3.22989333333E+07	-4.05743162913E+01	-7.40267827455E+01	-5.25978548215E-02	-6.61848917791E+00	-5.40314020819E-02	-6.61239567063E+00	-4.13718158310E+01	-7.25724174873E+01
3.32989000000E+07	-4.03054362180E+01	-7.52041275652E+01	-5.22256185456E-02	-6.81394015485E+00	-5.25919626948E-02	-6.82374979473E+00	-4.11144624900E+01	-7.26685475854E+01
3.42988666667E+07	-4.00758749621E+01	-7.55149821007E+01	-5.27019426956E-02	-7.01333165078E+00	-5.43329782106E-02	-7.01947458109E+00	-4.08363495695E+01	-7.41063906062E+01
3.52988333333E+07	-3.98220789682E+01	-7.68264696831E+01	-5.33316426895E-02	-7.22021689125E+00	-5.32398264967E-02	-7.21018314671E+00	-4.05335332701E+01	-7.53430584854E+01
3.62988000000E+07	-3.95367662500E+01	-7.75709066518E+01	-5.31542711565E-02	-7.41731588486E+00	-5.45962852288E-02	-7.41486175952E+00	-4.03936491413E+01	-7.64401040258E+01
3.72987666667E+07	-3.93398549725E+01	-7.81144475568E+01	-5.40075221199E-02	-7.61631022182E+00	-5.51248527045E-02	-7.62577904680E+00	-4.02086333625E+01	-7.73807662489E+01
3.82987333333E+07	-3.90552309985E+01	-7.88690908696E+01	-5.33718706138E-02	-7.81957084582E+00	-5.43566392701E-02	-7.83002444854E+00	-3.98989848827E+01	-7.76302392767E+01
3.92987000000E+07	-3.89882102801E+01	-7.98196590646E+01	-5.42301693505E-02	-8.02590386220E+00	-5.51776415146E-02	-8.03308534459E+00	-3.97574847681E+01	-7.85612015207E+01
4.02986666667E+07	-3.87126503111E+01	-7.98638847670E+01	-5.44996812000E-02	-8.22819436263E+00	-5.68319650714E-02	-8.23214510061E+00	-3.95455165813E+01	-7.95725205106E+01
4.12986333333E+07	-3.85511814610E+01	-8.10282966647E+01	-5.57224321977E-02	-8.42945641212E+00	-5.70613271962E-02	-8.43094384760E+00	-3.92863280436E+01	-8.03163652873E+01
4.22986000000E+07	-3.83056211681E+01	-8.13639465008E+01	-5.58716541155E-02	-8.64309619215E+00	-5.80586715721E-02	-8.64795465833E+00	-3.91428219444E+01	-8.14964406408E+01
4.32985666667E+07	-3.81039586506E+01	-8.18135419343E+01	-5.60455938646E-02	-8.84214463846E+00	-5.78983456366E-02	-8.84261201001E+00	-3.89641972832E+01	-8.21470630818E+01
4.42985333333E+07	-3.79516417674E+01	-8.24786448231E+01	-5.52322937472E-02	-9.04626282701E+00	-5.81659500077E-02	-9.04531350743E+00	-3.87386422219E+01	-8.30461560879E+01
4.52985000000E+07	-3.77365078817E+01	-8.32281921110E+01	-5.56663901059E-02	-9.23866521459E+00	-5.82038423829E-02	-9.24919523219E+00	-3.85125862912E+01	-8.37414321600E+01
4.62984666667E+07	-3.75097053148E+01	-8.39002094194E+01	-5.72865497140E-02	-9.44953863625E+00	-5.89447319082E-02	-9.44874478333E+00	-3.83177922376E+01	-8.47774174495E+01
4.72984333333E+07	-3.72799444240E+01	-8.45900434373E+01	-5.75162407000E-02	-9.64322976096E+00	-5.88264388612E-02	-9.64945327776E+00	-3.80906984452E+01	-8.51003479304E+01
4.82984000000E+07	-3.71556055256E+01	-8.53529578777E+01	-5.75058949356E-02	-9.85134631358E+00	-5.89779682506E-02	-9.85221980438E+00	-3.79415821235E+01	-8.57700332900E+01
4.92983666667E+07	-3.69008988335E+01	-8.58802325040E+01	-5.78972125515E-02	-1.00497761356E+01	-5.90529873305E-02	-1.00579467670E+01	-3.77922988957E+01	-8.61753459084E+01
5.02983333333E+07	-3.67461646898E+01	-8.62082832239E+01	-5.69419969338E-02	-1.02555388193E+01	-5.98753765530E-02	-1.02615788457E+01	-3.76207976960E+01	-8.69723613139E+01
5.12983000000E+07	-3.65617605855E+01	-8.65645168532E+01	-5.79109766347E-02	-1.04655502624E+01	-6.11044465898E-02	-1.04692821312E+01	-3.73733023065E+01	-8.79576935695E+01
5.22982666667E+07	-3.64122674866E+01	-8.73851380409E+01	-5.89413155888E-02	-1.06616067493E+01	-6.17338678503E-02	-1.06622235282E+01	-3.72046224754E+01	-8.84684970392E+01
5.32982333333E+07	-3.62064098515E+01	-8.77508340594E+01	-5.80576721151E-02	-1.08683109009E+01	-6.07200869953E-02	-1.08731232694E+01	-3.70605897342E+01	-8.88420643854E+01
5.42982000000E+07	-3.60737145936E+01	-8.80995255354E+01	-6.04820654505E-02	-1.10786984870E+01	-6.15312900209E-02	-1.10694062889E+01	-3.68852927527E+01	-8.92338617519E+01
5.52981666667E+07	-3.59043255641E+01	-8.85882303043E+01	-6.04461788341E-02	-1.12674275489E+01	-6.25179370233E-02	-1.12771587769E+01	-3.66925031845E+01	-9.00171880398E+01
5.62981333333E+07	-3.57633213146E+01	-8.92758796974E+01	-6.12374783083E-02	-1.14843833109E+01	-6.26433048374E-02	-1.14831107572E+01	-3.65730372151E+01	-9.01589107398E+01
5.72981000000E+07	-3.55541198694E+01	-9.01111984306E+01	-6.16057878361E-02	-1.16895889719E+01	-6.19464279706E-02	-1.16769449847E+01	-3.63996721210E+01	-9.06575662038E+01
5.82980666667E+07	-3.54042373095E+01	-9.07173406494E+01	-6.28735713345E-02	-1.18890245064E+01	-6.33430295365E-02	-1.18821921916E+01	-3.61879260427E+01	-9.13968036197E+01
5.92980333333E+07	-3.52652344757E+01	-9.09913698585E+01	-6.25309020784E-02	-1.20861953503E+01	-6.37052495962E-02	-1.20828575073E+01	-3.60273615360E+01	-9.18993704698E+01
6.02980000000E+07	-3.50903448248E+01	-9.12952753956E+01	-6.34522128234E-02	-1.22887835012E+01	-6.49527512068E-02	-1.22925065163E+01	-3.58905863234E+01	-9.23600519681E+01
6.12979666667E+07	-3.49553164900E+01	-9.18191630088E+01	-6.32427982930E-02	-1.24806119085E+01	-6.38221190109E-02	-1.24921281637E+01	-3.56673030938E+01	-9.27328399588E+01
6.22979333333E+07	-3.48169296887E+01	-9.22090835484E+01	-6.64288510849E-02	-1.26958730825E+01	-6.58675749898E-02	-1.27013190151E+01	-3.55015894951E+01	-9.31010276743E+01
6.32979000000E+07	-3.46203729890E+01	-9.25501105076E+01	-6.76749425782E-02	-1.28890863212E+01	-6.57333025743E-02	-1.28956265702E+01	-3.54291400605E+01	-9.40446147254E+01
6.42978666667E+07	-3.45107417644E+01	-9.30170678815E+01	-6.58131945866E-02	-1.30962715188E+01	-6.69972922842E-02	-1.31089159600E+01	-3.51712252463E+01	-9.45192588666E+01
6.52978333333E+07	-3.44029729161E+01	-9.34986374023E+01	-6.68321525968E-02	-1.32943647206E+01	-6.61266434958E-02	-1.33056299591E+01	-3.50546372640E+01	-9.44983913659E+01
6.62978000000E+07	-3.42511022621E+01	-9.38351460474E+01	-6.63049055004E-02	-1.34871190459E+01	-6.74084192622E-02	-1.35056484780E+01	-3.48740011779E+01	-9.52210819008E+01
6.72977666667E+07	-3.40525888429E+01	-9.42305956259E+01	-6.78813390788E-02	-1.37035968802E+01	-6.72081766995E-02	-1.37034983101E+01	-3.47503823738E+01	-9.54881947087E+01
6.82977333333E+07	-3.39783322112E+01	-9.48954123840E+01	-6.94117427017E-02	-1.38905348308E+01	-6.66383171313E-02	-1.39061818547E+01	-3.47088446978E+01	-9.57141338248E+01
6.92977000000E+07	-3.38472443492E+01	-9.55148748447E+01	-6.95536483435E-02	-1.40909399820E+01	-6.75924653392E-02	-1.41075933443E+01	-3.45254953877E+01	-9.62232159661E+01
7.02976666667E+07	-3.36466401610E+01	-9.58590028028E+01	-6.99757108237E-02	-1.42944423888E+01	-6.77968096169E-02	-1.43120455858E+01	-3.43584673629E+01	-9.66171641438E+01
7.12976333333E+07	-3.35451743161E+01	-9.62166347757E+01	-7.18069466450E-02	-1.44975607911E+01	-6.99376697072E-02	-1.45109503948E+01	-3.42174741891E+01	-9.73870446159E+01
7.22976000000E+07	-3.34230665488E+01	-9.63990381068E+01	-7.28374405062E-02	-1.46926484645E+01	-6.99429565378E-02	-1.47207885753E+01	-3.40736893357E+01	-9.75720598493E+01
7.32975666667E+07	-3.32972642034E+01	-9.71863691680E+01	-7.21017565226E-02	-1.48896079200E+01	-7.12409380467E-02	-1.49152250444E+01	-3.39248681140E+01	-9.80725713274E+01
7.42975333333E+07	-3.31566778946E+01	-9.75480786103E+01	-7.17055644187E-02	-1.51042806999E+01	-7.06420640769E-02	-1.51383825798E+01	-3.38147273994E+01	-9.82195210415E+01
7.52975000000E+07	-3.30453851820E+01	-9.80031733155E+01	-7.24994617911E-02	-1.52920594060E+01	-7.29446172066E-02	-1.53270583272E+01	-3.36804266139E+01	-9.88178297426E+01
7.62974666667E+07	-3.29445593424E+01	-9.85002893400E+01	-7.39394106565E-02	-1.54908828056E+01	-7.19968014502E-02	-1.55147026029E+01	-3.35755290106E+01	-9.91059066124E+01
7.72974333333E+07	-3.27503642330E+01	-9.85434295597E+01	-7.38405777776E-02	-1.56865583322E+01	-6.96402996571E-02	-1.57294186635E+01	-3.34277437450E+01	-9.93279650109E+01
7.82974000000E+07	-3.26488111141E+01	-9.85806673719E+01	-7.45284337481E-02	-1.59055144384E+01	-7.29360296508E-02	-1.59409955257E+01	-3.33311164016E+01	-9.98779736793E+01
7.92973666667E+07	-3.25276993052E+01	-9.94153930251E+01	-7.37186634300E-02	-1.60962768261E+01	-7.21762073829E-02	-1.61274750080E+01	-3.31826361307E+01	-1.00084687149E+02
8.02973333333E+07	-3.24466298978E+01	-9.93918590309E+01	-7.43161385523E-02	-1.62978785454E+01	-7.32613099304E-02	-1.63380790386E+01	-3.30938736853E+01	-1.00170698487E+02
8.12973000000E+07	-3.23175363993E+01	-1.00157619850E+02	-7.56492702250E-02	-1.65016811388E+01	-7.40244240518E-02	-1.65304249211E+01	-3.29448340118E+01	-1.00790103253E+02
8.22972666667E+07	-3.21827464317E+01	-1.00746905600E+02	-7.50721147833E-02	-1.67104164806E+01	-7.41307678745E-02	-1.67333353946E+01	-3.28681167047E+01	-1.01271489821E+02
8.32972333333E+07	-3.20301616948E+01	-1.01242726341E+02	-7.72627261943E-02	-1.69033072711E+01	-7.42330393398E-02	-1.69413444904E+01	-3.27219579703E+01	-1.01320242547E+02
8.42972000000E+07	-3.20002142819E+01	-1.01108748102E+02	-7.55741055799E-02	-1.71040115157E+01	-7.50747573745E-02	-1.71424991640E+01	-3.26153874806E+01	-1.01686152035E+02
8.52971666667E+07	-3.18425807586E+01	-1.01716973912E+02	-7.59075789124E-02	-1.73027637421E+01	-7.50253673380E-02	-1.73503726394E+01	-3.24527291542E+01	-1.01840451852E+02
8.62971333333E+07	-3.17377348962E+01	-1.01754072768E+02	-7.51339832617E-02	-1.75181544871E+01	-7.61764975518E-02	-1.75465619359E+01	-3.23946165673E+01	-1.02363778607E+02
8.72971000000E+07	-3.16264386588E+01	-1.02229553501E+02	-7.66285916341E-02	-1.77235541405E+01	-7.77417887487E-02	-1.77523561343E+01	-3.22513473879E+01	-1.02711879976E+02
8.82970666667E+07	-3.15486674205E+01	-1.02800384267E+02	-7.78218176508E-02	-1.79105409116E+01	-7.82941667288E-02	-1.79613387770E+01	-3.21320984305E+01	-1.02944168778E+02
8.92970333333E+07	-3.14461932915E+01	-1.03238394222E+02	-7.87910210069E-02	-1.81213572099E+01	-7.63666764468E-02	-1.81617325237E+01	-3.20480806989E+01	-1.03412903623E+02
9.02970000000E+07	-3.13191750928E+01	-1.03340733073E+02	-7.92076754069E-02	-1.83184990634E+01	-7.76035888354E-02	-1.83621859358E+01	-3.19329038430E+01	-1.03827783431E+02
9.12969666667E+07	-3.12620849815E+01	-1.03805355146E+02	-7.87948558687E-02	-1.85259235158E+01	-7.83069341140E-02	-1.85657135843E+01	-3.18377426686E+01	-1.03941301540E+02
9.22969333333E+07	-3.11224517612E+01	-1.03906808786E+02	-7.87196985682E-02	-1.87284440680E+01	-7.75086208223E-02	-1.87629264691E+01	-3.17539389014E+01	-1.04201376435E+02
9.32969000000E+07	-3.10243428658E+01	-1.04377915546E+02	-8.10249880503E-02	-1.89292885076E+01	-7.84335439090E-02	-1.89614081377E+01	-3.16616577750E+01	-1.04472287807E+02
9.42968666667E+07	-3.09655666857E+01	-1.04641883686E+02	-7.97024183482E-02	-1.91275252829E+01	-8.03544504700E-02	-1.91654494451E+01	-3.15576416482E+01	-1.04921916891E+02
9.52968333333E+07	-3.08627993124E+01	-1.04999451442E+02	-8.27080533888E-02	-1.93301240047E+01	-8.00422443508E-02	-1.93728464094E+01	-3.14399747470E+01	-1.05312725038E+02
9.62968000000E+07	-3.07750053225E+01	-1.05279421035E+02	-8.21705824669E-02	-1.95340254248E+01	-8.12983291772E-02	-1.95778754522E+01	-3.13250525578E+01	-1.05323761220E+02
9.72967666667E+07	-3.07139714922E+01	-1.05837131763E+02	-8.18725375368E-02	-1.97287962134E+01	-8.05451254038E-02	-1.97725680630E+01	-3.12726156356E+01	-1.05659362470E+02
9.82967333333E+07	-3.06146427698E+01	-1.06262574159E+02	-8.24580547595E-02	-1.99377580432E+01	-8.13336437197E-02	-1.99701066784E+01	-3.11524285741E+01	-1.05989842848E+02
9.92967000000E+07	-3.05165349928E+01	-1.06650588544E+02	-8.32489263696E-02	-2.01302265687E+01	-8.11486542646E-02	-2.01755797041E+01	-3.10776382030E+01	-1.06319825375E+02
1.00296666667E+08	-3.04249846106E+01	-1.06831032665E+02	-8.33158826430E-02	-2.03393618179E+01	-8.36827387113E-02	-2.03727578372E+01	-3.10075479030E+01	-1.06690202797E+02
1.01296633333E+08	-3.03370547692E+01	-1.07213230141E+02	-8.47957845765E-02	-2.05383110765E+01	-8.30551083043E-02	-2.05777998578E+01	-3.08804544155E+01	-1.06930245339E+02
1.02296600000E+08	-3.02503970825E+01	-1.07454898687E+02	-8.40697497457E-02	-2.07452630530E+01	-8.26636221752E-02	-2.07832464215E+01	-3.08051633715E+01	-1.07320391746E+02
1.03296566667E+08	-3.01496740902E+01	-1.07919353546E+02	-8.55435599629E-02	-2.09434072183E+01	-8.36808847982E-02	-2.09837338195E+01	-3.07196934596E+01	-1.07604278653E+02
1.04296533333E+08	-3.00839080427E+01	-1.08088702472E+02	-8.46888827358E-02	-2.11438014572E+01	-8.39912100193E-02	-2.11845883344E+01	-3.06408846237E+01	-1.07906633268E+02
1.05296500000E+08	-2.99840937239E+01	-1.08484620537E+02	-8.52071208672E-02	-2.13475097106E+01	-8.45903252547E-02	-2.13824727046E+01	-3.05238194453E+01	-1.08196492911E+02
1.06296466667E+08	-2.98816338174E+01	-1.08957418841E+02	-8.73263632924E-02	-2.15474557640E+01	-8.51516534046E-02	-2.15855454115E+01	-3.04466555266E+01	-1.08542717458E+02
1.07296433333E+08	-2.98396902174E+01	-1.09024032525E+02	-8.65857339912E-02	-2.17503735433E+01	-8.59573049335E-02	-2.17853611083E+01	-3.03558180972E+01	-1.08705163518E+02
1.08296400000E+08	-2.97455178358E+01	-1.09566532732E+02	-8.72209821188E-02	-2.19534818367E+01	-8.71261091432E-02	-2.19860110628E+01	-3.03003606654E+01	-1.09029431304E+02
1.09296366667E+08	-2.96643991832E+01	-1.09702703099E+02	-8.73113359829E-02	-2.21586560828E+01	-8.66410007858E-02	-2.21857867075E+01	-3.01958901774E+01	-1.09330112878E+02
1.10296333333E+08	-2.95945599187E+01	-1.10008305597E+02	-8.83262405894E-02	-2.23552952761E+01	-8.67475130121E-02	-2.23907771418E+01	-3.01082655603E+01	-1.09590487006E+02
1.11296300000E+08	-2.95078799630E+01	-1.10507045996E+02	-8.96115561332E-02	-2.25572390970E+01	-8.72232338866E-02	-2.25894312104E+01	-3.00163282177E+01	-1.09694379902E+02
1.12296266667E+08	-2.94123299815E+01	-1.10882116923E+02	-8.98392313961E-02	-2.27621456751E+01	-8.78709367608E-02	-2.27925339900E+01	-2.99381052365E+01	-1.10117479611E+02
1.13296233333E+08	-2.93700365731E+01	-1.11198187327E+02	-9.10640870388E-02	-2.29625614913E+01	-8.88407234398E-02	-2.29959503638E+01	-2.98835343779E+01	-1.10448998987E+02
1.14296200000E+08	-2.92864565426E+01	-1.11620792177E+02	-9.09636664536E-02	-2.31627737182E+01	-8.88449410494E-02	-2.31951281533E+01	-2.98008123718E+01	-1.10688051199E+02
