# Hz S DB R 50
! CMT, C1420, 19038819, 22.4.2/3
! Date: 2023-03-14 09:48:02
! Data: Format (Calibration Info)
! Freq	S11:dB/Ang(F2)	S21:dB/Ang(F2)	S12:dB/Ang(F2)	S22:dB/Ang(F2)
3.00000000000E+05	-3.43427335417E+01	9.46639518374E+01	1.36562273295E-02	-1.31041946589E+00	6.90074325104E-03	-1.46147954142E+00	-3.34683657220E+01	9.10061622055E+01
1.29996666667E+06	-5.31400526318E+01	-1.12354111838E+02	-2.56986122232E-02	-9.81527118419E-01	-2.51407715049E-02	-1.02990745700E+00	-5.50803031552E+01	-1.20450899610E+02
2.29993333333E+06	-3.62358757474E+01	-1.03797306904E+02	-4.70467978173E-02	-1.00609721412E+00	-5.10063407111E-02	-9.57183514764E-01	-3.68046407664E+01	-1.02065013522E+02
3.29990000000E+06	-3.42408674014E+01	-1.06153804564E+02	-5.81012793628E-02	-1.24795356795E+00	-6.36254214594E-02	-1.24444311351E+00	-3.42797783707E+01	-1.04029431575E+02
4.29986666667E+06	-3.33779298513E+01	-1.14918590496E+02	-9.58566578910E-02	-1.79312450807E+00	-9.70737368393E-02	-1.79612425817E+00	-3.32944376834E+01	-1.13515402138E+02
5.29983333333E+06	-3.36995083973E+01	-1.11257226954E+02	-9.00148227033E-02	-2.27037103444E+00	-9.14853431108E-02	-2.25768514226E+00	-3.35400391321E+01	-1.11438604195E+02
6.29980000000E+06	-3.15736225515E+01	-1.12308574950E+02	-1.12484206369E-01	-2.57708008370E+00	-1.12913784437E-01	-2.62891445784E+00	-3.14451976574E+01	-1.12071322234E+02
7.29976666667E+06	-3.03221907556E+01	-1.14953588348E+02	-1.33605561343E-01	-2.90153351766E+00	-1.35649362515E-01	-2.91904305069E+00	-3.02162288392E+01	-1.15022810452E+02
8.29973333333E+06	-2.94631792227E+01	-1.16996262323E+02	-1.54950399529E-01	-3.18695092339E+00	-1.53442891498E-01	-3.17775295641E+00	-2.94055434137E+01	-1.16651470958E+02
9.29970000000E+06	-2.86148736575E+01	-1.19742384887E+02	-1.75317389778E-01	-3.49081163091E+00	-1.80274248206E-01	-3.49402325800E+00	-2.85742669961E+01	-1.19012817876E+02
1.02996666667E+07	-2.80093844485E+01	-1.21829310947E+02	-2.16342105309E-01	-3.63318280023E+00	-2.14646983763E-01	-3.96419233270E+00	-2.77999089657E+01	-1.19417763647E+02
1.12996333333E+07	-2.74888235538E+01	-1.26833734565E+02	-2.34634453545E-01	-4.00546736897E+00	-2.39369182876E-01	-4.03195927686E+00	-2.73162068593E+01	-1.25794354248E+02
1.22996000000E+07	-2.80491504538E+01	-1.30452848797E+02	-2.42769965087E-01	-4.00167765602E+00	-2.44321087615E-01	-4.03918924929E+00	-2.78677002123E+01	-1.29059492204E+02
1.32995666667E+07	-2.69236600533E+01	-1.31791441628E+02	-2.77661528873E-01	-4.44428305625E+00	-2.84108413132E-01	-4.50963815647E+00	-2.66887333161E+01	-1.30913858743E+02
1.42995333333E+07	-2.84455042477E+01	-1.28127138478E+02	-2.21351508388E-01	-4.40815030503E+00	-2.27348038308E-01	-4.44534495017E+00	-2.82042538260E+01	-1.27398781505E+02
1.52995000000E+07	-2.77891778414E+01	-1.24210528624E+02	-2.13744788332E-01	-4.89300639858E+00	-2.17229195471E-01	-4.91888871371E+00	-2.75014455024E+01	-1.23409813920E+02
1.62994666667E+07	-2.71521239594E+01	-1.23455347529E+02	-2.21801547533E-01	-5.29293185979E+00	-2.24728707642E-01	-5.31558304243E+00	-2.68689127786E+01	-1.22489092826E+02
1.72994333333E+07	-2.66569085594E+01	-1.23746824313E+02	-2.34636294900E-01	-5.68307329924E+00	-2.35276514464E-01	-5.71054099101E+00	-2.63629621204E+01	-1.22674233167E+02
1.82994000000E+07	-2.61728937127E+01	-1.24205480365E+02	-2.48440747727E-01	-6.03115342024E+00	-2.51125936957E-01	-6.02433562135E+00	-2.58787408484E+01	-1.23306087677E+02
1.92993666667E+07	-2.56580754867E+01	-1.24928398787E+02	-2.66254456524E-01	-6.34723454702E+00	-2.65960135939E-01	-6.39277504665E+00	-2.53544492419E+01	-1.23644594762E+02
2.02993333333E+07	-2.51055095063E+01	-1.25752687015E+02	-2.82522712210E-01	-6.67710093939E+00	-2.87346917131E-01	-6.69780576161E+00	-2.48744906145E+01	-1.24569986842E+02
2.12993000000E+07	-2.46469211113E+01	-1.27539181140E+02	-3.10024481388E-01	-6.95708092441E+00	-3.11930156983E-01	-7.00065481399E+00	-2.44295343418E+01	-1.26123964262E+02
2.22992666667E+07	-2.43377863428E+01	-1.29563316681E+02	-3.33456379792E-01	-7.21241096135E+00	-3.35888938701E-01	-7.26583801004E+00	-2.40489260957E+01	-1.28001446662E+02
2.32992333333E+07	-2.41640072624E+01	-1.32069271838E+02	-3.60043733714E-01	-7.37408012420E+00	-3.57259868182E-01	-7.45006882596E+00	-2.38578288807E+01	-1.29758262584E+02
2.42992000000E+07	-2.41655615068E+01	-1.35226956050E+02	-3.84306399431E-01	-7.44692762752E+00	-3.87398470020E-01	-7.57915316856E+00	-2.37183504994E+01	-1.32975439374E+02
2.52991666667E+07	-2.48178331183E+01	-1.35900317937E+02	-3.61140844819E-01	-7.40339844772E+00	-3.79421888624E-01	-7.53899996370E+00	-2.41817024177E+01	-1.34444824903E+02
2.62991333333E+07	-2.45533870897E+01	-1.32017586129E+02	-3.40722696076E-01	-7.82135517208E+00	-3.45760163932E-01	-7.83884738511E+00	-2.43031913944E+01	-1.30913529203E+02
2.72991000000E+07	-2.40021287530E+01	-1.32050045243E+02	-3.59693280736E-01	-8.20838966667E+00	-3.67480778739E-01	-8.22927445469E+00	-2.37112265359E+01	-1.30893940971E+02
2.82990666667E+07	-2.37611599256E+01	-1.34171930774E+02	-3.83877738753E-01	-8.42336066559E+00	-3.91300783085E-01	-8.46294822969E+00	-2.34713598878E+01	-1.32785086634E+02
2.92990333333E+07	-2.37636737008E+01	-1.35181114342E+02	-3.91214111737E-01	-8.59617839818E+00	-4.02477756003E-01	-8.60991810377E+00	-2.34582238966E+01	-1.33963772038E+02
3.02990000000E+07	-2.37655355821E+01	-1.35098665159E+02	-3.89754323987E-01	-8.79401698131E+00	-4.01172069680E-01	-8.79573094360E+00	-2.34687336961E+01	-1.34085468469E+02
3.12989666667E+07	-2.36171277093E+01	-1.34165324272E+02	-3.86368041411E-01	-9.07817856139E+00	-3.92218780499E-01	-9.07107888262E+00	-2.33990111887E+01	-1.32963283238E+02
3.22989333333E+07	-2.33596371680E+01	-1.33605406075E+02	-3.87057378232E-01	-9.39188875258E+00	-3.92429324958E-01	-9.36874026088E+00	-2.31752468467E+01	-1.32159720164E+02
3.32989000000E+07	-2.30465274526E+01	-1.33655160291E+02	-4.00337360386E-01	-9.71192786085E+00	-3.97978052987E-01	-9.68865231409E+00	-2.29102629842E+01	-1.31665358685E+02
3.42988666667E+07	-2.27744300173E+01	-1.34049190862E+02	-4.14753067583E-01	-9.99617071661E+00	-4.11375533180E-01	-1.00117099167E+01	-2.25767318951E+01	-1.31840184264E+02
3.52988333333E+07	-2.25034345020E+01	-1.34978886264E+02	-4.33097028161E-01	-1.02661664305E+01	-4.27539472161E-01	-1.02992937600E+01	-2.22812082224E+01	-1.32262483257E+02
3.62988000000E+07	-2.23157910224E+01	-1.36305177575E+02	-4.51116451019E-01	-1.04787391007E+01	-4.46203647338E-01	-1.05485356482E+01	-2.20474550960E+01	-1.33357783813E+02
3.72987666667E+07	-2.22035235297E+01	-1.37064168193E+02	-4.63246535874E-01	-1.06882237904E+01	-4.64975562228E-01	-1.08112773354E+01	-2.18234619284E+01	-1.34345454537E+02
3.82987333333E+07	-2.19508562499E+01	-1.39344287995E+02	-4.97793951976E-01	-1.08803133761E+01	-5.00057647754E-01	-1.09764785940E+01	-2.16055793388E+01	-1.36665090097E+02
3.92987000000E+07	-2.25009288137E+01	-1.40636218390E+02	-4.80243514716E-01	-1.07920980326E+01	-4.89849065902E-01	-1.09375865365E+01	-2.20101590786E+01	-1.37810081010E+02
4.02986666667E+07	-2.23949240223E+01	-1.36633345766E+02	-4.44717844265E-01	-1.12190868874E+01	-4.65405859981E-01	-1.12771412806E+01	-2.19505774050E+01	-1.35282854077E+02
4.12986333333E+07	-2.18154704890E+01	-1.35971325960E+02	-4.62742093234E-01	-1.17148770286E+01	-4.73766249291E-01	-1.17303419055E+01	-2.15065351462E+01	-1.34219547581E+02
4.22986000000E+07	-2.14344137110E+01	-1.36928364091E+02	-4.91034584327E-01	-1.20519286272E+01	-5.02426642463E-01	-1.20877578535E+01	-2.11035484770E+01	-1.35085354799E+02
4.32985666667E+07	-2.10987509847E+01	-1.38535774784E+02	-5.24796154916E-01	-1.23333265854E+01	-5.35541686757E-01	-1.23563222207E+01	-2.07827678002E+01	-1.36588928787E+02
4.42985333333E+07	-2.08739823100E+01	-1.40473861170E+02	-5.57160013738E-01	-1.25453770053E+01	-5.68512529365E-01	-1.25627240077E+01	-2.05460011957E+01	-1.38460599980E+02
4.52985000000E+07	-2.06754949578E+01	-1.42698465068E+02	-5.92420712476E-01	-1.27004507574E+01	-6.02830276921E-01	-1.27270571539E+01	-2.03673684020E+01	-1.40607393889E+02
4.62984666667E+07	-2.05643097667E+01	-1.45258240150E+02	-6.28240611957E-01	-1.27963710595E+01	-6.37803430951E-01	-1.28070593802E+01	-2.02673357850E+01	-1.43077738410E+02
4.72984333333E+07	-2.05695285542E+01	-1.47958725158E+02	-6.56623016247E-01	-1.27953045786E+01	-6.63102408743E-01	-1.28152062231E+01	-2.02909098320E+01	-1.45618324120E+02
4.82984000000E+07	-2.06807430209E+01	-1.50640542868E+02	-6.73556797855E-01	-1.27535892317E+01	-6.79853612901E-01	-1.27878289427E+01	-2.04058594396E+01	-1.48033424441E+02
4.92983666667E+07	-2.09500238174E+01	-1.53031549303E+02	-6.76664632358E-01	-1.26529034846E+01	-6.81843680645E-01	-1.26869562085E+01	-2.06879291686E+01	-1.50355893270E+02
5.02983333333E+07	-2.13711483783E+01	-1.53899968861E+02	-6.52965964842E-01	-1.26360561691E+01	-6.58406768084E-01	-1.26688623036E+01	-2.10845452184E+01	-1.51023401667E+02
5.12983000000E+07	-2.16473547843E+01	-1.53937880655E+02	-6.33580336709E-01	-1.27249987289E+01	-6.38171762522E-01	-1.27720216809E+01	-2.13353077515E+01	-1.50887030334E+02
5.22982666667E+07	-2.19767240048E+01	-1.53623712159E+02	-6.05264989704E-01	-1.28146915859E+01	-6.12131819127E-01	-1.28697275372E+01	-2.16482007350E+01	-1.50450402632E+02
5.32982333333E+07	-2.21861744283E+01	-1.52316449745E+02	-5.78410022833E-01	-1.30223652264E+01	-5.87956474083E-01	-1.30784919644E+01	-2.18386999174E+01	-1.49257862382E+02
5.42982000000E+07	-2.21765443233E+01	-1.50901162924E+02	-5.67107317831E-01	-1.33256634049E+01	-5.74470292147E-01	-1.33714434256E+01	-2.18167242329E+01	-1.47761629031E+02
5.52981666667E+07	-2.22024517901E+01	-1.51220420501E+02	-5.66266301242E-01	-1.34849130525E+01	-5.77826070538E-01	-1.35328902667E+01	-2.18355829976E+01	-1.48185292829E+02
5.62981333333E+07	-2.24017244438E+01	-1.50038107631E+02	-5.42730543294E-01	-1.36827287265E+01	-5.51247050826E-01	-1.37003665007E+01	-2.20824421049E+01	-1.47057915119E+02
5.72981000000E+07	-2.22853755558E+01	-1.48982565512E+02	-5.38420321158E-01	-1.39850579397E+01	-5.34231504330E-01	-1.39757930408E+01	-2.20787737326E+01	-1.45485563529E+02
5.82980666667E+07	-2.23115063871E+01	-1.49837569138E+02	-5.43129894883E-01	-1.41223050336E+01	-5.36198974474E-01	-1.42463905080E+01	-2.19677728003E+01	-1.45051179462E+02
5.92980333333E+07	-2.26326956534E+01	-1.49047175457E+02	-5.16399272984E-01	-1.42432131761E+01	-5.23285256811E-01	-1.43753580786E+01	-2.21420503615E+01	-1.44921679518E+02
6.02980000000E+07	-2.27680922982E+01	-1.46331503833E+02	-4.85405270192E-01	-1.45295047248E+01	-4.96508822338E-01	-1.46271685382E+01	-2.22950918089E+01	-1.42775341284E+02
6.12979666667E+07	-2.26160417526E+01	-1.44555529366E+02	-4.75172476647E-01	-1.48730642113E+01	-4.83717606149E-01	-1.49570026966E+01	-2.21496176672E+01	-1.40926638439E+02
6.22979333333E+07	-2.25559997669E+01	-1.43121516571E+02	-4.61768171460E-01	-1.51744690090E+01	-4.72570095213E-01	-1.52490875720E+01	-2.20918604845E+01	-1.39505837021E+02
6.32979000000E+07	-2.23468015216E+01	-1.41322099914E+02	-4.54024326280E-01	-1.55370585942E+01	-4.63756087423E-01	-1.55986202091E+01	-2.18900694445E+01	-1.37974451208E+02
6.42978666667E+07	-2.21099189618E+01	-1.40788717169E+02	-4.57324631548E-01	-1.58699573765E+01	-4.66491512733E-01	-1.59443709368E+01	-2.16495399584E+01	-1.37284190035E+02
6.52978333333E+07	-2.19410640475E+01	-1.40466747039E+02	-4.60284105609E-01	-1.61541827336E+01	-4.67619313865E-01	-1.62268663112E+01	-2.14901698325E+01	-1.36826568675E+02
6.62978000000E+07	-2.17853807182E+01	-1.40377360658E+02	-4.64043960129E-01	-1.64318627604E+01	-4.71464077473E-01	-1.65099763718E+01	-2.13167234837E+01	-1.36691739209E+02
6.72977666667E+07	-2.16577404955E+01	-1.39768372711E+02	-4.62629620665E-01	-1.67124180370E+01	-4.68445390449E-01	-1.67793729001E+01	-2.12034551238E+01	-1.36125078178E+02
6.82977333333E+07	-2.14697554183E+01	-1.40064340638E+02	-4.72865614756E-01	-1.69912772384E+01	-4.78037186669E-01	-1.70772822018E+01	-2.10257659649E+01	-1.36266453777E+02
6.92977000000E+07	-2.14074013200E+01	-1.40401175746E+02	-4.75944544423E-01	-1.71905108626E+01	-4.81881702905E-01	-1.72907342421E+01	-2.09470870117E+01	-1.36463713628E+02
7.02976666667E+07	-2.13713072821E+01	-1.40336091599E+02	-4.75329885048E-01	-1.74270734183E+01	-4.83559543464E-01	-1.75140644703E+01	-2.08941725899E+01	-1.36403122828E+02
7.12976333333E+07	-2.13142996929E+01	-1.39582702016E+02	-4.66671516088E-01	-1.76824433872E+01	-4.76425134752E-01	-1.77708621825E+01	-2.08316364970E+01	-1.35809071321E+02
7.22976000000E+07	-2.11982309302E+01	-1.39100032860E+02	-4.66761572416E-01	-1.79477907195E+01	-4.73255328198E-01	-1.80419335910E+01	-2.07260604540E+01	-1.35281796559E+02
7.32975666667E+07	-2.10462065752E+01	-1.38711254397E+02	-4.63938214130E-01	-1.82480233895E+01	-4.70884883801E-01	-1.83414913527E+01	-2.05677297197E+01	-1.34631582918E+02
7.42975333333E+07	-2.08556182788E+01	-1.38641008964E+02	-4.69824382383E-01	-1.85502156595E+01	-4.73558251692E-01	-1.86664404371E+01	-2.03500113173E+01	-1.34448781997E+02
7.52975000000E+07	-2.07263384169E+01	-1.39051393376E+02	-4.77343616243E-01	-1.87874074940E+01	-4.91169161657E-01	-1.89452183466E+01	-2.01787488776E+01	-1.34990985464E+02
7.62974666667E+07	-2.06453279678E+01	-1.39228001311E+02	-4.82235196407E-01	-1.90272825043E+01	-4.97596885684E-01	-1.91618342676E+01	-2.01005155741E+01	-1.35433817473E+02
7.72974333333E+07	-2.05447759269E+01	-1.39367379806E+02	-4.86815002497E-01	-1.92484826465E+01	-5.02490356297E-01	-1.93717688236E+01	-2.00331488184E+01	-1.35731516546E+02
7.82974000000E+07	-2.05244234284E+01	-1.39543099146E+02	-4.87805440112E-01	-1.94668434730E+01	-5.03380613221E-01	-1.95721456288E+01	-2.00254789193E+01	-1.35911593343E+02
7.92973666667E+07	-2.04720120685E+01	-1.39246101583E+02	-4.83487127091E-01	-1.97148396304E+01	-4.98065630114E-01	-1.98013701174E+01	-1.99788088792E+01	-1.35465610348E+02
8.02973333333E+07	-2.03781243411E+01	-1.39154451573E+02	-4.83717137073E-01	-1.99718843328E+01	-5.02223749258E-01	-2.00576369915E+01	-1.98897050836E+01	-1.35443661606E+02
8.12973000000E+07	-2.02860107878E+01	-1.39278433256E+02	-4.88411753052E-01	-2.02152967494E+01	-5.01644130772E-01	-2.02898052719E+01	-1.98280885166E+01	-1.35458550096E+02
8.22972666667E+07	-2.02228215844E+01	-1.39453163987E+02	-4.89657388946E-01	-2.04501623682E+01	-5.01577421257E-01	-2.04922957043E+01	-1.97796435761E+01	-1.35484891878E+02
8.32972333333E+07	-2.02103605563E+01	-1.39435978020E+02	-4.88997046732E-01	-2.06409754308E+01	-4.98006538593E-01	-2.07182227362E+01	-1.97676313532E+01	-1.35232980146E+02
8.42972000000E+07	-2.02195567761E+01	-1.38766911165E+02	-4.76486573283E-01	-2.08777708474E+01	-4.87301107764E-01	-2.09494623177E+01	-1.97421047692E+01	-1.34570934561E+02
8.52971666667E+07	-2.01036479964E+01	-1.37988717810E+02	-4.66423908801E-01	-2.11790590265E+01	-4.77507261044E-01	-2.12588365380E+01	-1.96354149670E+01	-1.33712170434E+02
8.62971333333E+07	-1.99527715916E+01	-1.37513663604E+02	-4.63524739801E-01	-2.15016661372E+01	-4.75414274440E-01	-2.15556903536E+01	-1.94910508515E+01	-1.33324756155E+02
8.72971000000E+07	-1.97888428839E+01	-1.37275566800E+02	-4.65811137214E-01	-2.18044984775E+01	-4.74362717734E-01	-2.18798230440E+01	-1.93297619870E+01	-1.32976929477E+02
8.82970666667E+07	-1.96202324669E+01	-1.37321667185E+02	-4.70953109798E-01	-2.21187628583E+01	-4.78558075390E-01	-2.21995893723E+01	-1.91562186810E+01	-1.32805911116E+02
8.92970333333E+07	-1.94679646715E+01	-1.37505594699E+02	-4.76944994754E-01	-2.24101679558E+01	-4.83767381493E-01	-2.24903403233E+01	-1.90048551173E+01	-1.32932657446E+02
9.02970000000E+07	-1.93339472710E+01	-1.37651726911E+02	-4.81737498558E-01	-2.26868719927E+01	-4.88876519521E-01	-2.27755935482E+01	-1.88624945916E+01	-1.33123036575E+02
9.12969666667E+07	-1.92115880219E+01	-1.38069286440E+02	-4.91503074410E-01	-2.29620017935E+01	-4.97822836334E-01	-2.30622255269E+01	-1.87337429347E+01	-1.33390014927E+02
9.22969333333E+07	-1.91100911822E+01	-1.38413564187E+02	-4.99163229267E-01	-2.32143320126E+01	-5.07731120788E-01	-2.33103206502E+01	-1.86293266904E+01	-1.33781388947E+02
9.32969000000E+07	-1.90234568765E+01	-1.38668575743E+02	-5.03607058969E-01	-2.34521406411E+01	-5.12438718300E-01	-2.35484091754E+01	-1.85503327317E+01	-1.33979699899E+02
9.42968666667E+07	-1.89467843238E+01	-1.38897697299E+02	-5.08074919571E-01	-2.37050401418E+01	-5.19768712958E-01	-2.37988993342E+01	-1.84584031704E+01	-1.34195884490E+02
9.52968333333E+07	-1.88633487564E+01	-1.39057171535E+02	-5.12907869095E-01	-2.39469787487E+01	-5.24454471003E-01	-2.40456621442E+01	-1.83774363349E+01	-1.34447606210E+02
9.62968000000E+07	-1.87763086935E+01	-1.39248907908E+02	-5.16355548887E-01	-2.42020697580E+01	-5.27441947505E-01	-2.42890388248E+01	-1.83012972398E+01	-1.34493305898E+02
9.72967666667E+07	-1.86798701004E+01	-1.39468372882E+02	-5.20794147978E-01	-2.44583202796E+01	-5.30516528762E-01	-2.45464603579E+01	-1.82195098477E+01	-1.34656000090E+02
9.82967333333E+07	-1.85881554689E+01	-1.39780423619E+02	-5.26848889521E-01	-2.47159561174E+01	-5.36345379419E-01	-2.47946735252E+01	-1.81247038085E+01	-1.34852167852E+02
9.92967000000E+07	-1.85074002805E+01	-1.40143229231E+02	-5.33864765957E-01	-2.49559845351E+01	-5.42093577711E-01	-2.50381204917E+01	-1.80533719496E+01	-1.35132752792E+02
1.00296666667E+08	-1.84395865482E+01	-1.40325124832E+02	-5.36403423363E-01	-2.51956095128E+01	-5.46945740355E-01	-2.52809606248E+01	-1.79879762901E+01	-1.35269777697E+02
1.01296633333E+08	-1.83598438379E+01	-1.40518805509E+02	-5.41519177865E-01	-2.54514986472E+01	-5.49257067397E-01	-2.55368057496E+01	-1.79003073245E+01	-1.35410565388E+02
1.02296600000E+08	-1.82845453871E+01	-1.40734173128E+02	-5.45467494935E-01	-2.57007303058E+01	-5.54053438027E-01	-2.57854587732E+01	-1.78227281228E+01	-1.35595987441E+02
1.03296566667E+08	-1.81905811997E+01	-1.40911456562E+02	-5.49717508252E-01	-2.59533093149E+01	-5.59268748871E-01	-2.60512370321E+01	-1.77395716319E+01	-1.35692850636E+02
1.04296533333E+08	-1.80970903006E+01	-1.41206954304E+02	-5.57187262163E-01	-2.62211105099E+01	-5.65648443933E-01	-2.63121140648E+01	-1.76353905438E+01	-1.35971667106E+02
1.05296500000E+08	-1.79981519390E+01	-1.41677438886E+02	-5.66874047574E-01	-2.64745524540E+01	-5.75735095010E-01	-2.65594878978E+01	-1.75396991999E+01	-1.36350003144E+02
1.06296466667E+08	-1.79123328630E+01	-1.42306737816E+02	-5.80624546300E-01	-2.67081086362E+01	-5.87966775902E-01	-2.67958906351E+01	-1.74621140177E+01	-1.36893921855E+02
1.07296433333E+08	-1.78927038794E+01	-1.42953489612E+02	-5.90221062802E-01	-2.68967868634E+01	-5.98700589524E-01	-2.69879577903E+01	-1.74254081074E+01	-1.37483849078E+02
1.08296400000E+08	-1.78855252400E+01	-1.43436437835E+02	-5.95270447786E-01	-2.70725394126E+01	-6.04455254170E-01	-2.71634518188E+01	-1.74284272164E+01	-1.37855325403E+02
1.09296366667E+08	-1.78820216339E+01	-1.43657152941E+02	-5.95586454401E-01	-2.72687851006E+01	-6.04535319820E-01	-2.73518064368E+01	-1.74115456732E+01	-1.38012619835E+02
1.10296333333E+08	-1.78751014792E+01	-1.43819590321E+02	-5.96719185174E-01	-2.74721826433E+01	-6.03962694958E-01	-2.75546602721E+01	-1.73977786156E+01	-1.38152697826E+02
1.11296300000E+08	-1.78647585007E+01	-1.43961519164E+02	-5.95899376290E-01	-2.76652751147E+01	-6.04167191685E-01	-2.77579970808E+01	-1.73789709612E+01	-1.38180195438E+02
1.12296266667E+08	-1.78480456204E+01	-1.43929898876E+02	-5.92598781452E-01	-2.78827915443E+01	-6.00328885666E-01	-2.79632385401E+01	-1.73633038158E+01	-1.38171208311E+02
1.13296233333E+08	-1.78235703016E+01	-1.43786557076E+02	-5.87447371604E-01	-2.81235947004E+01	-5.96446839571E-01	-2.82103381284E+01	-1.73329354426E+01	-1.37990705731E+02
1.14296200000E+08	-1.77562825327E+01	-1.43650413727E+02	-5.83936038552E-01	-2.83760900422E+01	-5.93160662496E-01	-2.84572433097E+01	-1.72755624300E+01	-1.37828166275E+02
