# Hz S DB R 50
! CMT, C1420, 19038819, 22.4.2/3
! Date: 2023-03-14 09:48:09
! Data: Format (Calibration Info)
! Freq	S11:dB/Ang(F2)	S21:dB/Ang(F2)	S12:dB/Ang(F2)	S22:dB/Ang(F2)
3.00000000000E+05	-3.45003695565E+01	9.39476688532E+01	1.54224577637E-02	-1.35748127086E+00	7.37293932951E-03	-1.43763901834E+00	-3.35269452115E+01	9.11345933379E+01
1.29996666667E+06	-5.06929352654E+01	-1.08900220587E+02	-2.84371607868E-02	-1.07919958927E+00	-2.59698747643E-02	-1.05090060796E+00	-5.30540356131E+01	-1.18295566965E+02
2.29993333333E+06	-3.55577009336E+01	-1.05355935846E+02	-5.75291506742E-02	-1.04353151972E+00	-5.78501476967E-02	-1.03230283486E+00	-3.62514372701E+01	-1.04256978177E+02
3.29990000000E+06	-3.37119564550E+01	-1.07855173617E+02	-7.03496412508E-02	-1.29660505586E+00	-7.24705342212E-02	-1.28283890889E+00	-3.39191853103E+01	-1.05490856849E+02
4.29986666667E+06	-3.28918363036E+01	-1.16690033062E+02	-1.10352110498E-01	-1.86145137681E+00	-1.08760880848E-01	-1.82974964768E+00	-3.29620328584E+01	-1.15998056722E+02
5.29983333333E+06	-3.32040297753E+01	-1.12698130104E+02	-1.03873792491E-01	-2.31588658476E+00	-9.70655382836E-02	-2.31879319856E+00	-3.30225646440E+01	-1.13066845285E+02
6.29980000000E+06	-3.10962797262E+01	-1.14293341426E+02	-1.32583297407E-01	-2.65385379909E+00	-1.25299522398E-01	-2.66999328068E+00	-3.09940543597E+01	-1.14302708058E+02
7.29976666667E+06	-2.99358551054E+01	-1.16731988396E+02	-1.52377532240E-01	-2.94977798913E+00	-1.49025916612E-01	-2.97377102636E+00	-2.98560444858E+01	-1.17141386914E+02
8.29973333333E+06	-2.91158196665E+01	-1.18785513027E+02	-1.73069413155E-01	-3.23811894114E+00	-1.71078870303E-01	-3.22439527847E+00	-2.90512487994E+01	-1.18843667647E+02
9.29970000000E+06	-2.82907390221E+01	-1.21382321685E+02	-2.00085072838E-01	-3.54217738461E+00	-1.96330279893E-01	-3.53492730134E+00	-2.82608548677E+01	-1.21322252013E+02
1.02996666667E+07	-2.76961702491E+01	-1.23372026290E+02	-2.19544567435E-01	-3.71284040815E+00	-2.28212428799E-01	-3.91006727662E+00	-2.75435916554E+01	-1.21020368998E+02
1.12996333333E+07	-2.71910954412E+01	-1.28430673284E+02	-2.59336005006E-01	-4.03962047723E+00	-2.59910181932E-01	-4.02807358178E+00	-2.70795694894E+01	-1.28339357584E+02
1.22996000000E+07	-2.77398178809E+01	-1.32066262117E+02	-2.64839601038E-01	-4.01801727657E+00	-2.58388211092E-01	-4.00765832494E+00	-2.77750080354E+01	-1.31511306174E+02
1.32995666667E+07	-2.67652378217E+01	-1.33642490054E+02	-2.95939909116E-01	-4.41809421337E+00	-2.97744211542E-01	-4.43523751706E+00	-2.66713883793E+01	-1.33161464623E+02
1.42995333333E+07	-2.82263003176E+01	-1.28799979700E+02	-2.38198160657E-01	-4.46019517176E+00	-2.31438763005E-01	-4.44370822429E+00	-2.81295110387E+01	-1.28164606746E+02
1.52995000000E+07	-2.75134664975E+01	-1.24853358350E+02	-2.30353017701E-01	-4.95017123345E+00	-2.24736037989E-01	-4.93687065325E+00	-2.73482488990E+01	-1.24233175740E+02
1.62994666667E+07	-2.68419865432E+01	-1.24310447695E+02	-2.38142315569E-01	-5.36528094964E+00	-2.33853722942E-01	-5.35501649659E+00	-2.66897181147E+01	-1.23342984281E+02
1.72994333333E+07	-2.63597003257E+01	-1.24800293238E+02	-2.53309768392E-01	-5.73052522463E+00	-2.45377788996E-01	-5.74938236538E+00	-2.61738761748E+01	-1.23702150434E+02
1.82994000000E+07	-2.58576454373E+01	-1.25911520560E+02	-2.73984677728E-01	-6.07947582910E+00	-2.62271886377E-01	-6.04834968363E+00	-2.57528529206E+01	-1.24483148979E+02
1.92993666667E+07	-2.55573263900E+01	-1.26357486801E+02	-2.84705963172E-01	-6.33695975966E+00	-2.76542145057E-01	-6.36259656119E+00	-2.53150736810E+01	-1.24979892443E+02
2.02993333333E+07	-2.50207693390E+01	-1.26272301021E+02	-2.96104631590E-01	-6.70230318935E+00	-2.96819391625E-01	-6.68911329507E+00	-2.47791453441E+01	-1.25638839715E+02
2.12993000000E+07	-2.45067455996E+01	-1.27651115802E+02	-3.21662854302E-01	-7.00921868517E+00	-3.16471936579E-01	-6.97908461463E+00	-2.44132821913E+01	-1.26653218866E+02
2.22992666667E+07	-2.41858243011E+01	-1.29094060550E+02	-3.40329065712E-01	-7.27744717457E+00	-3.37684218489E-01	-7.28379024449E+00	-2.40211201924E+01	-1.27960704453E+02
2.32992333333E+07	-2.39202309845E+01	-1.30327633405E+02	-3.57642152364E-01	-7.53002429829E+00	-3.56169576975E-01	-7.51583054593E+00	-2.37623132449E+01	-1.29209261826E+02
2.42992000000E+07	-2.35533800910E+01	-1.32461965234E+02	-3.91372791358E-01	-7.77814459067E+00	-3.85211874511E-01	-7.76443071636E+00	-2.34067758806E+01	-1.31189993082E+02
2.52991666667E+07	-2.33175453690E+01	-1.35335845507E+02	-4.24826159377E-01	-7.94229336179E+00	-4.16699470088E-01	-7.90974995308E+00	-2.32142392948E+01	-1.34073387706E+02
2.62991333333E+07	-2.33621217480E+01	-1.39186259037E+02	-4.53034242720E-01	-7.94792234472E+00	-4.38791965651E-01	-7.94106003725E+00	-2.32931020764E+01	-1.37274422974E+02
2.72991000000E+07	-2.40700302919E+01	-1.41029572660E+02	-4.33800846074E-01	-7.82681707020E+00	-4.17586335716E-01	-7.86248976524E+00	-2.39507089297E+01	-1.38219617066E+02
2.82990666667E+07	-2.42514598563E+01	-1.36688822349E+02	-3.92148112791E-01	-8.15162856267E+00	-3.84976486329E-01	-8.22066942429E+00	-2.39703733948E+01	-1.34245362688E+02
2.92990333333E+07	-2.39011215151E+01	-1.35039544480E+02	-3.90828331716E-01	-8.53389669063E+00	-3.86999060425E-01	-8.56864288826E+00	-2.36605183136E+01	-1.33199624428E+02
3.02990000000E+07	-2.37251849338E+01	-1.34712120219E+02	-3.95190216526E-01	-8.81780806287E+00	-3.90421986287E-01	-8.86369789353E+00	-2.34336358027E+01	-1.32842222041E+02
3.12989666667E+07	-2.34509607937E+01	-1.34014196300E+02	-3.96686261708E-01	-9.13899166696E+00	-3.93926202344E-01	-9.18228816045E+00	-2.31808972317E+01	-1.32251355727E+02
3.22989333333E+07	-2.31565550924E+01	-1.33612095397E+02	-4.03348147917E-01	-9.46992653869E+00	-4.04401171295E-01	-9.47556783727E+00	-2.28923790644E+01	-1.32123044008E+02
3.32989000000E+07	-2.28343809044E+01	-1.33647820994E+02	-4.15132790900E-01	-9.79688332487E+00	-4.15529463000E-01	-9.79609657250E+00	-2.26014606970E+01	-1.32158312706E+02
3.42988666667E+07	-2.25040108302E+01	-1.34311850384E+02	-4.34974083237E-01	-1.01010649894E+01	-4.35037305807E-01	-1.00940308393E+01	-2.22825659948E+01	-1.32890502736E+02
3.52988333333E+07	-2.22297646815E+01	-1.35529466294E+02	-4.57197231784E-01	-1.03698058007E+01	-4.54459522569E-01	-1.03376879765E+01	-2.20457716981E+01	-1.33881016289E+02
3.62988000000E+07	-2.20265025863E+01	-1.36933933787E+02	-4.78062974027E-01	-1.05753073852E+01	-4.74728707522E-01	-1.05401162194E+01	-2.18808962237E+01	-1.35161789240E+02
3.72987666667E+07	-2.19261474256E+01	-1.38211599054E+02	-4.95401596200E-01	-1.07603632011E+01	-4.86762482656E-01	-1.07353813571E+01	-2.17753444872E+01	-1.36098651547E+02
3.82987333333E+07	-2.17632893413E+01	-1.40228097101E+02	-5.22514318755E-01	-1.09251156269E+01	-5.16466098767E-01	-1.09064713643E+01	-2.15925178058E+01	-1.38133598894E+02
3.92987000000E+07	-2.24043693149E+01	-1.40428505610E+02	-4.88180761196E-01	-1.08455559196E+01	-4.92101598382E-01	-1.08472369522E+01	-2.21355288790E+01	-1.38531207168E+02
4.02986666667E+07	-2.20673370187E+01	-1.35884615797E+02	-4.58222617971E-01	-1.14081012438E+01	-4.56171586888E-01	-1.14161016350E+01	-2.18157150530E+01	-1.33607179725E+02
4.12986333333E+07	-2.14678718665E+01	-1.36444708265E+02	-4.91243179176E-01	-1.18632970240E+01	-4.85789600899E-01	-1.18575403000E+01	-2.12532687459E+01	-1.34025396444E+02
4.22986000000E+07	-2.11140890125E+01	-1.38001152424E+02	-5.25457776878E-01	-1.21622759133E+01	-5.21237266713E-01	-1.21769419408E+01	-2.08775372028E+01	-1.35659857067E+02
4.32985666667E+07	-2.08387268013E+01	-1.39930374953E+02	-5.61198178533E-01	-1.23915752523E+01	-5.56075591734E-01	-1.23970755521E+01	-2.06095104768E+01	-1.37493509541E+02
4.42985333333E+07	-2.06761203096E+01	-1.41950606794E+02	-5.92866874455E-01	-1.25522368161E+01	-5.89029595853E-01	-1.25652777899E+01	-2.04302200850E+01	-1.39465006740E+02
4.52985000000E+07	-2.05399615967E+01	-1.44063366870E+02	-6.24224695152E-01	-1.26785262113E+01	-6.21000281006E-01	-1.27044459344E+01	-2.02930187746E+01	-1.41565569384E+02
4.62984666667E+07	-2.04816161509E+01	-1.46514163683E+02	-6.54306723198E-01	-1.27474241577E+01	-6.52091022296E-01	-1.27672411150E+01	-2.02261531957E+01	-1.43955250640E+02
4.72984333333E+07	-2.05408622890E+01	-1.48959832388E+02	-6.75918947662E-01	-1.27396430624E+01	-6.73465553044E-01	-1.27606782877E+01	-2.02894196634E+01	-1.46379522893E+02
4.82984000000E+07	-2.06941921766E+01	-1.51134772593E+02	-6.83435503343E-01	-1.27119742259E+01	-6.82916178590E-01	-1.27293560579E+01	-2.04513698429E+01	-1.48463466768E+02
4.92983666667E+07	-2.09775085141E+01	-1.52849980017E+02	-6.78651272710E-01	-1.26576534469E+01	-6.77868284671E-01	-1.26653414510E+01	-2.07453834467E+01	-1.50249013563E+02
5.02983333333E+07	-2.13130536670E+01	-1.53031053360E+02	-6.54179003270E-01	-1.27114457089E+01	-6.54458053179E-01	-1.27129954502E+01	-2.10800404859E+01	-1.50333045173E+02
5.12983000000E+07	-2.14995103486E+01	-1.52978111946E+02	-6.39783573092E-01	-1.28462759232E+01	-6.38385622676E-01	-1.28366099819E+01	-2.12674229435E+01	-1.50224735144E+02
5.22982666667E+07	-2.17539606952E+01	-1.52637608587E+02	-6.16571369804E-01	-1.29614166344E+01	-6.15040599786E-01	-1.29583917607E+01	-2.15370558769E+01	-1.49687081220E+02
5.32982333333E+07	-2.18684662895E+01	-1.51664454826E+02	-5.99238841129E-01	-1.31925183437E+01	-5.96867878706E-01	-1.31828295118E+01	-2.16519490278E+01	-1.48710856140E+02
5.42982000000E+07	-2.19438958607E+01	-1.50995734295E+02	-5.87943085596E-01	-1.34133451463E+01	-5.81042587022E-01	-1.34089686093E+01	-2.17227694612E+01	-1.47617642381E+02
5.52981666667E+07	-2.19589932741E+01	-1.50876476124E+02	-5.83303400850E-01	-1.35996895712E+01	-5.80629046961E-01	-1.36363917313E+01	-2.16838195398E+01	-1.47348954268E+02
5.62981333333E+07	-2.21721484167E+01	-1.49641367545E+02	-5.57976148341E-01	-1.38001962749E+01	-5.59547461297E-01	-1.38332219601E+01	-2.18494051945E+01	-1.46224103356E+02
5.72981000000E+07	-2.20404914804E+01	-1.48558953374E+02	-5.52837819605E-01	-1.41120207496E+01	-5.58526449576E-01	-1.41040251181E+01	-2.17321885766E+01	-1.45679712555E+02
5.82980666667E+07	-2.20092327823E+01	-1.49058387767E+02	-5.59194392721E-01	-1.42974928040E+01	-5.59055464017E-01	-1.42256581981E+01	-2.18189713852E+01	-1.46268293215E+02
5.92980333333E+07	-2.22630908139E+01	-1.48807341711E+02	-5.40529074119E-01	-1.44098188703E+01	-5.33519156608E-01	-1.43822234266E+01	-2.20715538411E+01	-1.45151296478E+02
6.02980000000E+07	-2.24169614138E+01	-1.46632354796E+02	-5.11044606928E-01	-1.46614489516E+01	-5.04021716033E-01	-1.46766339734E+01	-2.21707469073E+01	-1.42555121272E+02
6.12979666667E+07	-2.22983144629E+01	-1.44881129246E+02	-5.00100784415E-01	-1.50046344360E+01	-4.93456379171E-01	-1.50186420491E+01	-2.20050712405E+01	-1.40836654983E+02
6.22979333333E+07	-2.22326154325E+01	-1.43417048988E+02	-4.87531681109E-01	-1.52989810331E+01	-4.82002679559E-01	-1.53202728815E+01	-2.19183217711E+01	-1.39385410062E+02
6.32979000000E+07	-2.20321723953E+01	-1.41835775648E+02	-4.81144966438E-01	-1.56622253728E+01	-4.76179696771E-01	-1.56850071006E+01	-2.17037899815E+01	-1.37992078102E+02
6.42978666667E+07	-2.18070056490E+01	-1.41357664155E+02	-4.83179242569E-01	-1.59925442237E+01	-4.79367964643E-01	-1.60105869057E+01	-2.14631819552E+01	-1.37396741043E+02
6.52978333333E+07	-2.16433561254E+01	-1.41059007594E+02	-4.86601397406E-01	-1.62724376613E+01	-4.81636511016E-01	-1.63036359160E+01	-2.13002891304E+01	-1.37017449242E+02
6.62978000000E+07	-2.14885322619E+01	-1.41016069058E+02	-4.89559207682E-01	-1.65507232884E+01	-4.85717415072E-01	-1.65782987634E+01	-2.11338308227E+01	-1.36991404653E+02
6.72977666667E+07	-2.13680994211E+01	-1.40471902798E+02	-4.89169139141E-01	-1.68291214465E+01	-4.85164681540E-01	-1.68471393883E+01	-2.10112058392E+01	-1.36510659370E+02
6.82977333333E+07	-2.11902756489E+01	-1.40772810117E+02	-4.99457639578E-01	-1.70991532206E+01	-4.94203889925E-01	-1.71343944981E+01	-2.08378082910E+01	-1.36759455637E+02
6.92977000000E+07	-2.11251748449E+01	-1.41149415688E+02	-5.04399523583E-01	-1.73186255006E+01	-5.00862588725E-01	-1.73428881517E+01	-2.07759033426E+01	-1.37122757739E+02
7.02976666667E+07	-2.11053341858E+01	-1.41266086054E+02	-5.03248818825E-01	-1.75178274756E+01	-4.98816923885E-01	-1.75322363800E+01	-2.07858102034E+01	-1.37140406620E+02
7.12976333333E+07	-2.10734103711E+01	-1.40336257114E+02	-4.94074787499E-01	-1.77741405530E+01	-4.88975727780E-01	-1.77900972653E+01	-2.07162428117E+01	-1.36109277194E+02
7.22976000000E+07	-2.09594958097E+01	-1.39874181346E+02	-4.92394421885E-01	-1.80616995311E+01	-4.86409584197E-01	-1.80868091480E+01	-2.05952875558E+01	-1.35633288215E+02
7.32975666667E+07	-2.08051352442E+01	-1.39455510928E+02	-4.89914620516E-01	-1.83534436449E+01	-4.85093204615E-01	-1.83860471320E+01	-2.04312523608E+01	-1.35115195430E+02
7.42975333333E+07	-2.06178758465E+01	-1.39504626932E+02	-4.97621766823E-01	-1.86568530857E+01	-4.89907304442E-01	-1.86960185214E+01	-2.02489515769E+01	-1.35095467466E+02
7.52975000000E+07	-2.05344443563E+01	-1.39841550643E+02	-5.03554553295E-01	-1.88863357047E+01	-5.00715912187E-01	-1.89205106915E+01	-2.01481455613E+01	-1.35494826950E+02
7.62974666667E+07	-2.04680279755E+01	-1.39853045531E+02	-5.04519265268E-01	-1.91159872863E+01	-5.00476640836E-01	-1.91603999712E+01	-2.00820537604E+01	-1.35402397353E+02
7.72974333333E+07	-2.03612003410E+01	-1.39801379792E+02	-5.06305742832E-01	-1.93612408115E+01	-5.02340283066E-01	-1.94002234807E+01	-1.99837820371E+01	-1.35420360509E+02
7.82974000000E+07	-2.03190276924E+01	-1.39859713769E+02	-5.08684851886E-01	-1.95867565842E+01	-5.04152848871E-01	-1.96329723348E+01	-1.99257906464E+01	-1.35433786506E+02
7.92973666667E+07	-2.02401004046E+01	-1.39586430644E+02	-5.05635457366E-01	-1.98504327562E+01	-5.02155325470E-01	-1.98936602161E+01	-1.98440361761E+01	-1.35052165394E+02
8.02973333333E+07	-2.01368296422E+01	-1.39584705220E+02	-5.09264838840E-01	-2.01226986514E+01	-5.04852360828E-01	-2.01599250764E+01	-1.97330872594E+01	-1.35019683912E+02
8.12973000000E+07	-2.00452995425E+01	-1.39692653559E+02	-5.13719145212E-01	-2.03698523834E+01	-5.07726148282E-01	-2.04033696858E+01	-1.96420556297E+01	-1.35076554512E+02
8.22972666667E+07	-1.99634309587E+01	-1.39840749823E+02	-5.14745821527E-01	-2.06021591973E+01	-5.09027089840E-01	-2.06367638697E+01	-1.95616885929E+01	-1.35242771470E+02
8.32972333333E+07	-1.99314705531E+01	-1.39890867103E+02	-5.15256865992E-01	-2.08152402549E+01	-5.11572188138E-01	-2.08587108890E+01	-1.95353698140E+01	-1.35183168945E+02
8.42972000000E+07	-1.99321804621E+01	-1.39421267364E+02	-5.05713290510E-01	-2.10574641800E+01	-5.02916692746E-01	-2.10829756414E+01	-1.95131208060E+01	-1.34733553828E+02
8.52971666667E+07	-1.98201791557E+01	-1.38763992492E+02	-4.96800998124E-01	-2.13400967812E+01	-4.94393555514E-01	-2.13838396682E+01	-1.94122746215E+01	-1.34011421495E+02
8.62971333333E+07	-1.96780919138E+01	-1.38395827533E+02	-4.94059363269E-01	-2.16536655461E+01	-4.92592434694E-01	-2.16774838070E+01	-1.92707196493E+01	-1.33725975543E+02
8.72971000000E+07	-1.95298769709E+01	-1.38259947171E+02	-4.97929566426E-01	-2.19515364254E+01	-4.94798231049E-01	-2.19882296306E+01	-1.91212912793E+01	-1.33519465938E+02
8.82970666667E+07	-1.93699626092E+01	-1.38330973740E+02	-5.04205583984E-01	-2.22503934956E+01	-4.99437638994E-01	-2.23004258377E+01	-1.89668537531E+01	-1.33429279992E+02
8.92970333333E+07	-1.92387769987E+01	-1.38548944841E+02	-5.10035974660E-01	-2.25450761642E+01	-5.04609401843E-01	-2.25728724758E+01	-1.88340326921E+01	-1.33608279364E+02
9.02970000000E+07	-1.91148420962E+01	-1.38677606173E+02	-5.15086772289E-01	-2.28150380248E+01	-5.10982214237E-01	-2.28503524634E+01	-1.87108845603E+01	-1.33763773597E+02
9.12969666667E+07	-1.90020961319E+01	-1.39055532996E+02	-5.23489527954E-01	-2.30790509522E+01	-5.18544470718E-01	-2.31040548356E+01	-1.85948796496E+01	-1.34024601710E+02
9.22969333333E+07	-1.89112447393E+01	-1.39380533206E+02	-5.30903988453E-01	-2.33245319086E+01	-5.26639609797E-01	-2.33594877344E+01	-1.85047092132E+01	-1.34337075441E+02
9.32969000000E+07	-1.88329654086E+01	-1.39599654599E+02	-5.34635408518E-01	-2.35692478070E+01	-5.26875532541E-01	-2.35955586320E+01	-1.84360692317E+01	-1.34521765342E+02
9.42968666667E+07	-1.87599488015E+01	-1.39790937462E+02	-5.37718088858E-01	-2.38209501587E+01	-5.33466104364E-01	-2.38469325053E+01	-1.83472486817E+01	-1.34622144536E+02
9.52968333333E+07	-1.86765933860E+01	-1.39959628041E+02	-5.42670345560E-01	-2.40668912970E+01	-5.37764165304E-01	-2.41069250042E+01	-1.82605026665E+01	-1.34792792478E+02
9.62968000000E+07	-1.85936648810E+01	-1.40153490474E+02	-5.47815139288E-01	-2.43210658578E+01	-5.42370586282E-01	-2.43571789396E+01	-1.81753522422E+01	-1.34828946449E+02
9.72967666667E+07	-1.85037295050E+01	-1.40345615976E+02	-5.50907010747E-01	-2.45700772549E+01	-5.46157384785E-01	-2.46082311517E+01	-1.80916398882E+01	-1.35001986145E+02
9.82967333333E+07	-1.84080818241E+01	-1.40641055624E+02	-5.56597289602E-01	-2.48307420727E+01	-5.51105278256E-01	-2.48693521498E+01	-1.79936219239E+01	-1.35199853339E+02
9.92967000000E+07	-1.83318462625E+01	-1.40955266025E+02	-5.63570468767E-01	-2.50738525421E+01	-5.58043489592E-01	-2.51174415725E+01	-1.79206308739E+01	-1.35487467070E+02
1.00296666667E+08	-1.82700938289E+01	-1.41157990535E+02	-5.66807877641E-01	-2.53178331651E+01	-5.62685533249E-01	-2.53462619257E+01	-1.78587762445E+01	-1.35657065848E+02
1.01296633333E+08	-1.81936586766E+01	-1.41314042814E+02	-5.71299918679E-01	-2.55654301684E+01	-5.65537092432E-01	-2.56013392830E+01	-1.77729671164E+01	-1.35763789674E+02
1.02296600000E+08	-1.81195154456E+01	-1.41522084058E+02	-5.75324275951E-01	-2.58172050993E+01	-5.69392418043E-01	-2.58531210347E+01	-1.76985356814E+01	-1.35941779481E+02
1.03296566667E+08	-1.80286979950E+01	-1.41664706420E+02	-5.78623884358E-01	-2.60839367021E+01	-5.72782076834E-01	-2.61182478115E+01	-1.76122314863E+01	-1.36041306058E+02
1.04296533333E+08	-1.79337821333E+01	-1.41963953301E+02	-5.86698907995E-01	-2.63406091103E+01	-5.80940614660E-01	-2.63795438951E+01	-1.75099695397E+01	-1.36310846540E+02
1.05296500000E+08	-1.78363262136E+01	-1.42371709931E+02	-5.96658523002E-01	-2.65930527042E+01	-5.89884911499E-01	-2.66308950966E+01	-1.74150542652E+01	-1.36701819838E+02
1.06296466667E+08	-1.77569042026E+01	-1.42993384896E+02	-6.09908847344E-01	-2.68210254312E+01	-6.03340054344E-01	-2.68647345994E+01	-1.73391441074E+01	-1.37264260188E+02
1.07296433333E+08	-1.77371739172E+01	-1.43649959279E+02	-6.20566122038E-01	-2.70044434531E+01	-6.15027716151E-01	-2.70558684654E+01	-1.73056919068E+01	-1.37861263280E+02
1.08296400000E+08	-1.77326592250E+01	-1.44101020336E+02	-6.24510604134E-01	-2.71791632930E+01	-6.19841367188E-01	-2.72336465344E+01	-1.73122795722E+01	-1.38216549520E+02
1.09296366667E+08	-1.77318004519E+01	-1.44310836182E+02	-6.24972439372E-01	-2.73718953454E+01	-6.20154012582E-01	-2.74197076112E+01	-1.72964727642E+01	-1.38396898242E+02
1.10296333333E+08	-1.77312252622E+01	-1.44431193431E+02	-6.23650309363E-01	-2.75703744007E+01	-6.20743150401E-01	-2.76175427060E+01	-1.72896047925E+01	-1.38500853831E+02
1.11296300000E+08	-1.77148481935E+01	-1.44453992114E+02	-6.21144918258E-01	-2.77755082673E+01	-6.18109376606E-01	-2.78232790268E+01	-1.72721200862E+01	-1.38490511034E+02
1.12296266667E+08	-1.76937472757E+01	-1.44386328728E+02	-6.17082843375E-01	-2.80052544658E+01	-6.14483120787E-01	-2.80355908546E+01	-1.72562042024E+01	-1.38447655943E+02
1.13296233333E+08	-1.76507534356E+01	-1.44218838156E+02	-6.12155846195E-01	-2.82530511958E+01	-6.10068728776E-01	-2.82874088847E+01	-1.72202135834E+01	-1.38233147175E+02
1.14296200000E+08	-1.75748697167E+01	-1.44137056389E+02	-6.10408745999E-01	-2.85190328773E+01	-6.07106310115E-01	-2.85427192663E+01	-1.71555454645E+01	-1.38086815261E+02
