# Hz S DB R 50
! CMT, C1420, 19038819, 22.4.2/3
! Date: 2023-03-14 09:48:15
! Data: Format (Calibration Info)
! Freq	S11:dB/Ang(F2)	S21:dB/Ang(F2)	S12:dB/Ang(F2)	S22:dB/Ang(F2)
3.00000000000E+05	-3.45913759642E+01	9.44821677273E+01	1.70021610716E-02	-1.38282254306E+00	8.02870577529E-03	-1.49634067804E+00	-3.35650770718E+01	9.04189614944E+01
1.29996666667E+06	-4.95269834980E+01	-1.18580045363E+02	-2.68424125490E-02	-1.06725557719E+00	-3.15288600740E-02	-1.07017545437E+00	-5.19234165669E+01	-1.17086233466E+02
2.29993333333E+06	-3.52717087447E+01	-1.07402553861E+02	-5.76101017941E-02	-1.06641890935E+00	-5.85835978400E-02	-1.02849101032E+00	-3.61015359250E+01	-1.03304929095E+02
3.29990000000E+06	-3.35643164684E+01	-1.09408538323E+02	-7.36003291479E-02	-1.32680013144E+00	-7.42174408946E-02	-1.30375248304E+00	-3.37541974900E+01	-1.05905364977E+02
4.29986666667E+06	-3.27380095504E+01	-1.18433550182E+02	-1.12810346810E-01	-1.87023125882E+00	-1.13887518081E-01	-1.83618420159E+00	-3.28748592970E+01	-1.16377029245E+02
5.29983333333E+06	-3.29296073390E+01	-1.14499379999E+02	-1.04936365506E-01	-2.33395707887E+00	-1.03952942742E-01	-2.33844902545E+00	-3.28754376456E+01	-1.13446875957E+02
6.29980000000E+06	-3.09365210244E+01	-1.16053311554E+02	-1.30531507614E-01	-2.68111805981E+00	-1.31009371205E-01	-2.68976841394E+00	-3.08904061867E+01	-1.14559219279E+02
7.29976666667E+06	-2.97733032153E+01	-1.18576612134E+02	-1.55585746553E-01	-2.96783133072E+00	-1.58505906988E-01	-2.95996670955E+00	-2.97599001306E+01	-1.17648925215E+02
8.29973333333E+06	-2.89953027486E+01	-1.20048350003E+02	-1.74882105845E-01	-3.23436871500E+00	-1.78349508053E-01	-3.21619948222E+00	-2.90757162863E+01	-1.19124267594E+02
9.29970000000E+06	-2.81317108639E+01	-1.23084111033E+02	-2.03538285986E-01	-3.53377570233E+00	-2.03542557935E-01	-3.51523782538E+00	-2.82135965702E+01	-1.21775632090E+02
1.02996666667E+07	-2.76027252524E+01	-1.24604644884E+02	-2.21877092063E-01	-3.71179065474E+00	-2.19237008627E-01	-3.85491332612E+00	-2.75067553482E+01	-1.21143180108E+02
1.12996333333E+07	-2.71441133939E+01	-1.29916815900E+02	-2.62989440805E-01	-4.01254623887E+00	-2.63343028568E-01	-4.01373343281E+00	-2.70967399264E+01	-1.28638453781E+02
1.22996000000E+07	-2.78381873648E+01	-1.32480182634E+02	-2.57758149491E-01	-4.00328389295E+00	-2.59120348002E-01	-4.01351747194E+00	-2.77883031839E+01	-1.30891338542E+02
1.32995666667E+07	-2.66859218721E+01	-1.33945592733E+02	-2.97810255224E-01	-4.41999706975E+00	-2.99654735715E-01	-4.45339106484E+00	-2.66006061571E+01	-1.32846322383E+02
1.42995333333E+07	-2.80692525454E+01	-1.28967284103E+02	-2.33923682311E-01	-4.48678199952E+00	-2.35594215166E-01	-4.47218316972E+00	-2.79865005938E+01	-1.27623926525E+02
1.52995000000E+07	-2.73571202646E+01	-1.25537575647E+02	-2.31236745257E-01	-4.95083610287E+00	-2.30388651849E-01	-4.96893469995E+00	-2.72228235728E+01	-1.24186085267E+02
1.62994666667E+07	-2.67150674416E+01	-1.25059103286E+02	-2.40656119835E-01	-5.38365766329E+00	-2.41987902537E-01	-5.39555272246E+00	-2.65721605801E+01	-1.23534164249E+02
1.72994333333E+07	-2.62023845420E+01	-1.25617862830E+02	-2.59032649025E-01	-5.77077162163E+00	-2.51754183471E-01	-5.76924457392E+00	-2.60548715186E+01	-1.23915674308E+02
1.82994000000E+07	-2.57902688036E+01	-1.26059652815E+02	-2.72069475144E-01	-6.09776382946E+00	-2.69721485038E-01	-6.06833891740E+00	-2.56285891160E+01	-1.24536979626E+02
1.92993666667E+07	-2.52582630018E+01	-1.26554226131E+02	-2.87827223945E-01	-6.44042536256E+00	-2.85707077247E-01	-6.43409231515E+00	-2.50836669611E+01	-1.24986553954E+02
2.02993333333E+07	-2.47493164881E+01	-1.27579815878E+02	-3.07235311011E-01	-6.74462010514E+00	-3.07084531844E-01	-6.73995841337E+00	-2.46165690689E+01	-1.25976091159E+02
2.12993000000E+07	-2.42959722710E+01	-1.29479649105E+02	-3.34478366308E-01	-7.03812507402E+00	-3.37088481170E-01	-7.01175791600E+00	-2.41887527065E+01	-1.27893182064E+02
2.22992666667E+07	-2.39978637979E+01	-1.32220370506E+02	-3.67111586227E-01	-7.24037778231E+00	-3.66934752500E-01	-7.24936669248E+00	-2.38582381658E+01	-1.30200774348E+02
2.32992333333E+07	-2.39425995407E+01	-1.34513802645E+02	-3.87547460362E-01	-7.36562914438E+00	-3.86099873987E-01	-7.35886705950E+00	-2.37992535572E+01	-1.32768299702E+02
2.42992000000E+07	-2.41171376520E+01	-1.36466028618E+02	-3.94898356807E-01	-7.42119675756E+00	-3.92186148589E-01	-7.41811132178E+00	-2.39934333841E+01	-1.34427745221E+02
2.52991666667E+07	-2.42115001774E+01	-1.34923788660E+02	-3.77323130387E-01	-7.64492872059E+00	-3.75956938425E-01	-7.65611696029E+00	-2.40164362106E+01	-1.32904654326E+02
2.62991333333E+07	-2.39196819168E+01	-1.33860192374E+02	-3.77781114996E-01	-7.98957279325E+00	-3.77898217466E-01	-7.99025375405E+00	-2.37444325977E+01	-1.31727375769E+02
2.72991000000E+07	-2.36665199490E+01	-1.34721352709E+02	-3.94516182996E-01	-8.24529698432E+00	-3.90841716427E-01	-8.26762372451E+00	-2.34627637468E+01	-1.32290547503E+02
2.82990666667E+07	-2.35179423898E+01	-1.35442552229E+02	-4.04840893714E-01	-8.47464670460E+00	-4.06690933897E-01	-8.49038413388E+00	-2.33030839833E+01	-1.33444980319E+02
2.92990333333E+07	-2.34462615692E+01	-1.35943815434E+02	-4.10262118259E-01	-8.66683817619E+00	-4.10335821998E-01	-8.68756000717E+00	-2.32626511802E+01	-1.33729639241E+02
3.02990000000E+07	-2.33858968415E+01	-1.35834079769E+02	-4.12678176582E-01	-8.90081280634E+00	-4.13322068311E-01	-8.93262554275E+00	-2.31613866244E+01	-1.33599276486E+02
3.12989666667E+07	-2.31861669060E+01	-1.35288846576E+02	-4.11938656921E-01	-9.20643637804E+00	-4.11907022690E-01	-9.22009536136E+00	-2.29827806513E+01	-1.32998757433E+02
3.22989333333E+07	-2.29524699084E+01	-1.35091052582E+02	-4.19106137511E-01	-9.49618721003E+00	-4.20069609171E-01	-9.49821158934E+00	-2.27586043426E+01	-1.32866444778E+02
3.32989000000E+07	-2.26898462429E+01	-1.35229606025E+02	-4.29783108365E-01	-9.78589997148E+00	-4.29446929486E-01	-9.80033412600E+00	-2.25076148873E+01	-1.32865270181E+02
3.42988666667E+07	-2.24495832283E+01	-1.35882911583E+02	-4.45130815305E-01	-1.00636407282E+01	-4.46497359190E-01	-1.00662155839E+01	-2.22374793173E+01	-1.33548825604E+02
3.52988333333E+07	-2.22532345742E+01	-1.36996858073E+02	-4.64401533214E-01	-1.02921224520E+01	-4.65456684359E-01	-1.02940280814E+01	-2.20410873534E+01	-1.34552562030E+02
3.62988000000E+07	-2.21487713489E+01	-1.38245054612E+02	-4.78032393405E-01	-1.04658475819E+01	-4.79666587721E-01	-1.04731446558E+01	-2.19534975989E+01	-1.35804494784E+02
3.72987666667E+07	-2.20703118677E+01	-1.38108956873E+02	-4.79892341160E-01	-1.07056307832E+01	-4.78756107027E-01	-1.07150864115E+01	-2.18775537154E+01	-1.35580197024E+02
3.82987333333E+07	-2.18098681194E+01	-1.40181256314E+02	-5.12197824016E-01	-1.09047664897E+01	-5.14438310227E-01	-1.09292160451E+01	-2.15815123993E+01	-1.37630703615E+02
3.92987000000E+07	-2.23657118453E+01	-1.40083199084E+02	-4.79648065088E-01	-1.08855737176E+01	-4.80744826699E-01	-1.09036875710E+01	-2.21583718160E+01	-1.37246705608E+02
4.02986666667E+07	-2.19655375105E+01	-1.36197481328E+02	-4.59817692927E-01	-1.14469060570E+01	-4.61597740795E-01	-1.14576003483E+01	-2.17384783428E+01	-1.33468413259E+02
4.12986333333E+07	-2.13919888262E+01	-1.36683851524E+02	-4.90800450362E-01	-1.18905504583E+01	-4.92290126907E-01	-1.19037917823E+01	-2.11630911149E+01	-1.33901372821E+02
4.22986000000E+07	-2.10299276806E+01	-1.38200104315E+02	-5.26484033012E-01	-1.21998779412E+01	-5.26967821474E-01	-1.22079850909E+01	-2.07902731818E+01	-1.35531465510E+02
4.32985666667E+07	-2.07539350316E+01	-1.40127772180E+02	-5.61771284431E-01	-1.24270500802E+01	-5.62963818943E-01	-1.24343963611E+01	-2.05313355924E+01	-1.37383012692E+02
4.42985333333E+07	-2.06063324388E+01	-1.42128582105E+02	-5.92072961575E-01	-1.25886974868E+01	-5.94174001463E-01	-1.26036879842E+01	-2.03623539264E+01	-1.39372031905E+02
4.52985000000E+07	-2.04732404296E+01	-1.44104877920E+02	-6.21458017682E-01	-1.27241955375E+01	-6.23908229077E-01	-1.27434632797E+01	-2.02360184654E+01	-1.41281826317E+02
4.62984666667E+07	-2.04141068248E+01	-1.46517995922E+02	-6.52002325786E-01	-1.27929360258E+01	-6.53888819795E-01	-1.28074113715E+01	-2.01728413245E+01	-1.43628981160E+02
4.72984333333E+07	-2.04493050067E+01	-1.48817346183E+02	-6.74299136588E-01	-1.28017374147E+01	-6.75805377507E-01	-1.28139241348E+01	-2.02277470429E+01	-1.45948197394E+02
4.82984000000E+07	-2.05713682188E+01	-1.50979471850E+02	-6.84631500522E-01	-1.27901002662E+01	-6.88225892726E-01	-1.28014577449E+01	-2.03522287024E+01	-1.48017636514E+02
4.92983666667E+07	-2.08198847142E+01	-1.52899303820E+02	-6.84256035239E-01	-1.27312073229E+01	-6.87110708544E-01	-1.27386312673E+01	-2.06285608493E+01	-1.49900227801E+02
5.02983333333E+07	-2.11843953808E+01	-1.53428574515E+02	-6.60748351009E-01	-1.27331091920E+01	-6.62670513966E-01	-1.27548689287E+01	-2.09825264070E+01	-1.50234248898E+02
5.12983000000E+07	-2.14061213549E+01	-1.53313245662E+02	-6.43490985331E-01	-1.28732510574E+01	-6.43909871274E-01	-1.28770274780E+01	-2.11971269541E+01	-1.49973516872E+02
5.22982666667E+07	-2.16709776180E+01	-1.53016456865E+02	-6.19496598806E-01	-1.29845618277E+01	-6.21426173488E-01	-1.29894413300E+01	-2.14699632446E+01	-1.49510126900E+02
5.32982333333E+07	-2.18652864084E+01	-1.51908088463E+02	-5.95579689468E-01	-1.31911582544E+01	-5.96349705456E-01	-1.31980727713E+01	-2.16477539056E+01	-1.48318872982E+02
5.42982000000E+07	-2.18974293644E+01	-1.50692250660E+02	-5.80857089226E-01	-1.34550375143E+01	-5.81289268224E-01	-1.34626366677E+01	-2.16727546431E+01	-1.46975148848E+02
5.52981666667E+07	-2.18913472975E+01	-1.50434829891E+02	-5.77738354236E-01	-1.36660916887E+01	-5.78987182689E-01	-1.36971434779E+01	-2.16461405343E+01	-1.46570244888E+02
5.62981333333E+07	-2.20940209407E+01	-1.49230772202E+02	-5.52634992034E-01	-1.38743445196E+01	-5.54232043296E-01	-1.39025028473E+01	-2.18280816996E+01	-1.45226525402E+02
5.72981000000E+07	-2.19700367163E+01	-1.47616417247E+02	-5.41435773225E-01	-1.42116750606E+01	-5.43584232226E-01	-1.42277076351E+01	-2.17019887685E+01	-1.43679929953E+02
5.82980666667E+07	-2.17416817558E+01	-1.47361413128E+02	-5.49579616032E-01	-1.45276044036E+01	-5.54858959574E-01	-1.45361435636E+01	-2.14612672320E+01	-1.43513746805E+02
5.92980333333E+07	-2.18219558646E+01	-1.48985761113E+02	-5.59507516154E-01	-1.45859651744E+01	-5.62208569831E-01	-1.45865317225E+01	-2.15750724558E+01	-1.45065052180E+02
6.02980000000E+07	-2.21674151494E+01	-1.47493174282E+02	-5.25572642539E-01	-1.47323855936E+01	-5.27589991696E-01	-1.47399176942E+01	-2.19140309910E+01	-1.43321555226E+02
6.12979666667E+07	-2.21143591531E+01	-1.45316139810E+02	-5.04648866976E-01	-1.50700618329E+01	-5.06069365700E-01	-1.50788209568E+01	-2.18262777174E+01	-1.40952343431E+02
6.22979333333E+07	-2.20314520645E+01	-1.43769493591E+02	-4.94465026753E-01	-1.53921455194E+01	-4.95011425395E-01	-1.54051682632E+01	-2.17329759142E+01	-1.39376343697E+02
6.32979000000E+07	-2.18287935416E+01	-1.42233574888E+02	-4.86153940750E-01	-1.57414346153E+01	-4.87440218844E-01	-1.57657574871E+01	-2.15169903937E+01	-1.37977684798E+02
6.42978666667E+07	-2.16140380766E+01	-1.41825685747E+02	-4.90100997333E-01	-1.60711030163E+01	-4.90073989340E-01	-1.60992564458E+01	-2.12783871536E+01	-1.37388894996E+02
6.52978333333E+07	-2.14565100373E+01	-1.41513555108E+02	-4.92931751388E-01	-1.63614835582E+01	-4.92826026430E-01	-1.63890012521E+01	-2.11205666268E+01	-1.37013739024E+02
6.62978000000E+07	-2.12992637277E+01	-1.41453086940E+02	-4.96165310281E-01	-1.66385151666E+01	-4.97807564941E-01	-1.66720559330E+01	-2.09517053519E+01	-1.36983521885E+02
6.72977666667E+07	-2.11836918142E+01	-1.40957052593E+02	-4.96490090988E-01	-1.69283840144E+01	-4.96706112649E-01	-1.69390153962E+01	-2.08409954095E+01	-1.36506791895E+02
6.82977333333E+07	-2.10020345341E+01	-1.41290805405E+02	-5.05534442397E-01	-1.71882498071E+01	-5.06651675963E-01	-1.72111303044E+01	-2.06689794155E+01	-1.36803234688E+02
6.92977000000E+07	-2.09447472012E+01	-1.41710386511E+02	-5.12220513470E-01	-1.74082248974E+01	-5.11838200589E-01	-1.74323311568E+01	-2.06108388708E+01	-1.37067953681E+02
7.02976666667E+07	-2.09276199916E+01	-1.41677402204E+02	-5.09758779245E-01	-1.76018320688E+01	-5.11060257640E-01	-1.76359974325E+01	-2.05955376672E+01	-1.37023256723E+02
7.12976333333E+07	-2.08786308919E+01	-1.40963876423E+02	-5.02243451325E-01	-1.78634944203E+01	-5.03505197231E-01	-1.78992843152E+01	-2.05342968014E+01	-1.36242268378E+02
7.22976000000E+07	-2.07742485765E+01	-1.40544850371E+02	-5.01263658112E-01	-1.81381671775E+01	-4.99262707352E-01	-1.81779083808E+01	-2.04142680456E+01	-1.35829441750E+02
7.32975666667E+07	-2.06374042220E+01	-1.40200154799E+02	-4.99128734238E-01	-1.84388289439E+01	-4.99521431072E-01	-1.84661424301E+01	-2.02643740160E+01	-1.35331816152E+02
7.42975333333E+07	-2.04571722857E+01	-1.40196265336E+02	-5.06002788922E-01	-1.87404191404E+01	-5.06653119744E-01	-1.87807788303E+01	-2.00939363604E+01	-1.35298335547E+02
7.52975000000E+07	-2.03531302191E+01	-1.40666311659E+02	-5.16636574245E-01	-1.89626492432E+01	-5.16591817613E-01	-1.90099127526E+01	-1.99849821696E+01	-1.35705754555E+02
7.62974666667E+07	-2.03034197971E+01	-1.40756145037E+02	-5.16241517980E-01	-1.91822454463E+01	-5.17850098670E-01	-1.92290339972E+01	-1.99287688531E+01	-1.35686718034E+02
7.72974333333E+07	-2.02288228861E+01	-1.40721009297E+02	-5.17551453534E-01	-1.94133664563E+01	-5.17468541787E-01	-1.94657413554E+01	-1.98479800649E+01	-1.35697316220E+02
7.82974000000E+07	-2.01971157358E+01	-1.40627698018E+02	-5.15767464434E-01	-1.96318577343E+01	-5.17358015629E-01	-1.97046041886E+01	-1.98052911230E+01	-1.35623816348E+02
7.92973666667E+07	-2.01224763401E+01	-1.40302170529E+02	-5.12167493022E-01	-1.99100509959E+01	-5.11930703678E-01	-1.99447824448E+01	-1.97201836326E+01	-1.35144118398E+02
8.02973333333E+07	-2.00190687509E+01	-1.40191513112E+02	-5.15439844077E-01	-2.01866655373E+01	-5.17445692126E-01	-2.02391445251E+01	-1.96034650155E+01	-1.35024992674E+02
8.12973000000E+07	-1.99167671198E+01	-1.40244690796E+02	-5.16781973735E-01	-2.04426855509E+01	-5.18164598998E-01	-2.04905565718E+01	-1.94982210460E+01	-1.35027244641E+02
8.22972666667E+07	-1.98167891850E+01	-1.40315555008E+02	-5.20913718983E-01	-2.06939457360E+01	-5.21061332315E-01	-2.07352468383E+01	-1.94026687589E+01	-1.35163560456E+02
8.32972333333E+07	-1.97499404787E+01	-1.40435706194E+02	-5.23302796738E-01	-2.09157679813E+01	-5.24450070994E-01	-2.09775426831E+01	-1.93491230563E+01	-1.35175891990E+02
8.42972000000E+07	-1.97382227184E+01	-1.40247175894E+02	-5.17760617837E-01	-2.11478694619E+01	-5.20909380972E-01	-2.11897875280E+01	-1.93176819255E+01	-1.34984830854E+02
8.52971666667E+07	-1.96553878761E+01	-1.39892194169E+02	-5.12725476973E-01	-2.14146902383E+01	-5.15455528872E-01	-2.14699679565E+01	-1.92405386758E+01	-1.34508050285E+02
8.62971333333E+07	-1.95623538882E+01	-1.39484427630E+02	-5.08630601448E-01	-2.16888536585E+01	-5.12266414087E-01	-2.17348374174E+01	-1.91408456653E+01	-1.34236540373E+02
8.72971000000E+07	-1.94296094472E+01	-1.39241097725E+02	-5.09414073999E-01	-2.19908637863E+01	-5.11529476678E-01	-2.20297651370E+01	-1.90065678226E+01	-1.33914574289E+02
8.82970666667E+07	-1.92803618909E+01	-1.39194095131E+02	-5.12059191506E-01	-2.22894822005E+01	-5.12983839693E-01	-2.23462826213E+01	-1.88617192267E+01	-1.33717077074E+02
8.92970333333E+07	-1.91436264780E+01	-1.39332079932E+02	-5.19265440401E-01	-2.25840470732E+01	-5.18745363607E-01	-2.26352096655E+01	-1.87268165419E+01	-1.33851251341E+02
9.02970000000E+07	-1.90212966496E+01	-1.39410149087E+02	-5.22782111348E-01	-2.28614099418E+01	-5.23537232436E-01	-2.29077437463E+01	-1.85994793513E+01	-1.33967255188E+02
9.12969666667E+07	-1.89013411842E+01	-1.39772991936E+02	-5.31160839351E-01	-2.31388118954E+01	-5.32017000832E-01	-2.31816584909E+01	-1.84810584464E+01	-1.34207126274E+02
9.22969333333E+07	-1.88055520786E+01	-1.40025881460E+02	-5.37556191727E-01	-2.33867598602E+01	-5.38750992904E-01	-2.34210309922E+01	-1.83910291924E+01	-1.34451450244E+02
9.32969000000E+07	-1.87274860729E+01	-1.40262702289E+02	-5.42113789041E-01	-2.36416596056E+01	-5.40666758775E-01	-2.36679275445E+01	-1.83154392048E+01	-1.34590096411E+02
9.42968666667E+07	-1.86465125564E+01	-1.40491725508E+02	-5.47011452576E-01	-2.38888695400E+01	-5.48593467598E-01	-2.39301415317E+01	-1.82249764582E+01	-1.34768615042E+02
9.52968333333E+07	-1.85645576298E+01	-1.40721260375E+02	-5.52596777080E-01	-2.41320003928E+01	-5.52751900657E-01	-2.41803343301E+01	-1.81362547234E+01	-1.34976735447E+02
9.62968000000E+07	-1.84879002338E+01	-1.40920184430E+02	-5.56013843991E-01	-2.43853688470E+01	-5.57508059194E-01	-2.44210377566E+01	-1.80622167819E+01	-1.35014117103E+02
9.72967666667E+07	-1.84046762657E+01	-1.41125187508E+02	-5.60054339147E-01	-2.46372784425E+01	-5.60114772884E-01	-2.46822539785E+01	-1.79800353980E+01	-1.35135855763E+02
9.82967333333E+07	-1.83088544724E+01	-1.41386302977E+02	-5.66265336685E-01	-2.48948977758E+01	-5.64898137412E-01	-2.49344135669E+01	-1.78839559026E+01	-1.35340568491E+02
9.92967000000E+07	-1.82337089664E+01	-1.41706671650E+02	-5.72516357030E-01	-2.51348423128E+01	-5.71586602292E-01	-2.51853654950E+01	-1.78095499341E+01	-1.35638597021E+02
1.00296666667E+08	-1.81719918461E+01	-1.41894316318E+02	-5.75257117674E-01	-2.53773392934E+01	-5.76361019585E-01	-2.54174833686E+01	-1.77514183090E+01	-1.35807287720E+02
1.01296633333E+08	-1.80986556942E+01	-1.42066183585E+02	-5.78861158827E-01	-2.56296973826E+01	-5.79621301412E-01	-2.56681994503E+01	-1.76678170596E+01	-1.35897773015E+02
1.02296600000E+08	-1.80251465278E+01	-1.42245989993E+02	-5.83108186378E-01	-2.58803718261E+01	-5.82748203335E-01	-2.59201225782E+01	-1.75933493920E+01	-1.36063018102E+02
1.03296566667E+08	-1.79354339064E+01	-1.42378327756E+02	-5.86205417163E-01	-2.61395554709E+01	-5.87574782452E-01	-2.61830967573E+01	-1.75079697923E+01	-1.36151887733E+02
1.04296533333E+08	-1.78432847697E+01	-1.42637491459E+02	-5.94197781107E-01	-2.64027624941E+01	-5.93931797852E-01	-2.64559418526E+01	-1.74063524389E+01	-1.36405251076E+02
1.05296500000E+08	-1.77478860053E+01	-1.43056308060E+02	-6.03805556117E-01	-2.66657320521E+01	-6.03323609734E-01	-2.67070897799E+01	-1.73070735345E+01	-1.36783967040E+02
1.06296466667E+08	-1.76624277395E+01	-1.43617883745E+02	-6.16803297859E-01	-2.68998067394E+01	-6.16123929471E-01	-2.69391416762E+01	-1.72294351394E+01	-1.37301651451E+02
1.07296433333E+08	-1.76344405603E+01	-1.44241289985E+02	-6.26999868272E-01	-2.70952145503E+01	-6.27061557297E-01	-2.71353929419E+01	-1.71916584706E+01	-1.37882272107E+02
1.08296400000E+08	-1.76194053514E+01	-1.44681393706E+02	-6.31936769541E-01	-2.72686697907E+01	-6.32863208655E-01	-2.73202135568E+01	-1.71935278756E+01	-1.38249506798E+02
1.09296366667E+08	-1.76084904900E+01	-1.44956488828E+02	-6.34356360976E-01	-2.74701365908E+01	-6.34432344334E-01	-2.75065174067E+01	-1.71761056720E+01	-1.38477418436E+02
1.10296333333E+08	-1.75971037458E+01	-1.45156284407E+02	-6.35318332241E-01	-2.76700735647E+01	-6.35873485356E-01	-2.77121914691E+01	-1.71618430097E+01	-1.38614376864E+02
1.11296300000E+08	-1.75824791705E+01	-1.45349499174E+02	-6.35484610637E-01	-2.78746574184E+01	-6.35438328267E-01	-2.79122692061E+01	-1.71443002837E+01	-1.38664641449E+02
1.12296266667E+08	-1.75717601552E+01	-1.45368466617E+02	-6.31803147156E-01	-2.80792836011E+01	-6.33317469796E-01	-2.81147385346E+01	-1.71366860920E+01	-1.38703355237E+02
1.13296233333E+08	-1.75538469947E+01	-1.45252147051E+02	-6.27148466985E-01	-2.83128101887E+01	-6.28830997007E-01	-2.83443660547E+01	-1.71167859838E+01	-1.38526410120E+02
1.14296200000E+08	-1.74957798637E+01	-1.45141861076E+02	-6.23684190410E-01	-2.85680194668E+01	-6.25129962678E-01	-2.85941565984E+01	-1.70628674674E+01	-1.38346114851E+02
